 (1653070218.688716)  can0  1E5   [8]  1C 00 E2 50 00 00 01 8A
 (1653070218.692095)  can0  014   [5]  00 00 00 10 27
 (1653070218.696222)  can0  012   [8]  E8 03 10 00 00 00 00 00
 (1653070218.698708)  can0  1E5   [8]  1C 00 E1 70 00 00 01 A9
 (1653070218.702145)  can0  014   [5]  00 00 00 10 27
 (1653070218.706228)  can0  012   [8]  E8 03 10 00 00 00 00 00
 (1653070218.708784)  can0  1E5   [8]  1C 00 E1 10 00 00 01 49
 (1653070218.712127)  can0  014   [5]  00 00 00 10 27
 (1653070218.716416)  can0  012   [8]  E8 03 10 00 00 00 00 00
 (1653070218.718936)  can0  1E5   [8]  1C 00 E1 30 00 00 01 69
 (1653070218.722135)  can0  014   [5]  00 00 00 10 27
 (1653070218.726425)  can0  012   [8]  E8 03 10 00 00 00 00 00
 (1653070218.729096)  can0  1E5   [8]  1C 00 E1 50 00 00 01 89
 (1653070218.732311)  can0  014   [5]  00 00 00 10 27
 (1653070218.736403)  can0  012   [8]  E8 03 10 00 00 00 00 00
 (1653070218.739023)  can0  1E5   [8]  1C 00 E1 70 00 00 01 A9
 (1653070218.742280)  can0  014   [5]  00 00 00 10 27
 (1653070218.746417)  can0  012   [8]  E8 03 10 00 00 00 00 00
 (1653070218.748996)  can0  1E5   [8]  1C 00 E1 10 00 00 01 49
 (1653070218.752123)  can0  014   [5]  00 00 00 10 27
 (1653070218.756413)  can0  012   [8]  E8 03 10 00 00 00 00 00
 (1653070218.759005)  can0  1E5   [8]  1C 00 E1 30 00 00 01 69
 (1653070218.759617)  can0  010   [4]  26 73 00 00
 (1653070218.762124)  can0  014   [5]  00 00 00 13 27
 (1653070218.766425)  can0  012   [8]  E8 03 10 00 00 00 00 00
 (1653070218.768916)  can0  1E5   [8]  1C 00 E1 50 00 00 01 89
 (1653070218.772117)  can0  014   [5]  00 00 00 0D 27
 (1653070218.776430)  can0  012   [8]  E8 03 10 00 00 00 00 00
 (1653070218.778912)  can0  1E5   [8]  1C 00 E1 70 00 00 01 A9
 (1653070218.782125)  can0  014   [5]  00 00 00 10 27
 (1653070218.786455)  can0  012   [8]  E8 03 10 00 00 00 00 00
 (1653070218.788911)  can0  1E5   [8]  1C 00 E1 10 00 00 01 49
 (1653070218.792100)  can0  014   [5]  00 00 00 10 27
 (1653070218.796411)  can0  012   [8]  E8 03 10 00 00 00 00 00
 (1653070218.799037)  can0  1E5   [8]  1C 00 E1 30 00 00 01 69
 (1653070218.802130)  can0  014   [5]  00 00 00 10 27
 (1653070218.806411)  can0  012   [8]  E8 03 10 00 00 00 00 00
 (1653070218.808795)  can0  1E5   [8]  1C 00 E1 50 00 00 01 89
 (1653070218.812131)  can0  014   [5]  00 00 00 10 27
 (1653070218.816416)  can0  012   [8]  E8 03 10 00 00 00 00 00
 (1653070218.819029)  can0  1E5   [8]  1C 00 E1 70 00 00 01 A9
 (1653070218.822287)  can0  014   [5]  00 00 00 10 27
 (1653070218.826435)  can0  012   [8]  E8 03 10 00 00 00 00 00
 (1653070218.828995)  can0  1E5   [8]  1C 00 E1 10 00 00 01 49
 (1653070218.832338)  can0  014   [5]  00 00 00 10 27
 (1653070218.836412)  can0  012   [8]  E8 03 10 00 00 00 00 00
 (1653070218.839027)  can0  1E5   [8]  1C 00 E1 30 00 00 01 69
 (1653070218.842319)  can0  014   [5]  00 00 00 10 27
 (1653070218.846417)  can0  012   [8]  E8 03 10 00 00 00 00 00
 (1653070218.848995)  can0  1E5   [8]  1C 00 E1 50 00 00 01 89
 (1653070218.852091)  can0  014   [5]  00 00 00 10 27
 (1653070218.856415)  can0  012   [8]  E8 03 10 00 00 00 00 00
 (1653070218.858996)  can0  1E5   [8]  1C 00 E1 70 00 00 01 A9
 (1653070218.859633)  can0  010   [4]  26 73 00 00
 (1653070218.862290)  can0  014   [5]  00 00 00 13 27
 (1653070218.866416)  can0  012   [8]  E8 03 10 00 00 00 00 00
 (1653070218.869010)  can0  1E5   [8]  1C 00 E1 10 00 00 01 49
 (1653070218.872096)  can0  014   [5]  00 00 00 0D 27
 (1653070218.876407)  can0  012   [8]  E8 03 10 00 00 00 00 00
 (1653070218.879002)  can0  1E5   [8]  1C 00 E1 30 00 00 01 69
 (1653070218.882372)  can0  014   [5]  00 00 00 10 27
 (1653070218.886250)  can0  012   [8]  E8 03 10 00 00 00 00 00
 (1653070218.889050)  can0  1E5   [8]  1C 00 E1 50 00 00 01 89
 (1653070218.892450)  can0  014   [5]  00 00 00 10 27
 (1653070218.896422)  can0  012   [8]  E8 03 10 00 00 00 00 00
 (1653070218.899037)  can0  1E5   [8]  1C 00 E1 70 00 00 01 A9
 (1653070218.902300)  can0  014   [5]  00 00 00 10 27
 (1653070218.906427)  can0  012   [8]  E8 03 10 00 00 00 00 00
 (1653070218.908907)  can0  1E5   [8]  1C 00 E1 10 00 00 01 49
 (1653070218.912119)  can0  014   [5]  00 00 00 10 27
 (1653070218.916411)  can0  012   [8]  E8 03 10 00 00 00 00 00
 (1653070218.918904)  can0  1E5   [8]  1C 00 E1 30 00 00 01 69
 (1653070218.922299)  can0  014   [5]  00 00 00 10 27
 (1653070218.926403)  can0  012   [8]  E8 03 10 00 00 00 00 00
 (1653070218.928904)  can0  1E5   [8]  1C 00 E1 50 00 00 01 89
 (1653070218.932127)  can0  014   [5]  00 00 00 10 27
 (1653070218.936433)  can0  012   [8]  E8 03 10 00 00 00 00 00
 (1653070218.938903)  can0  1E5   [8]  1C 00 E1 70 00 00 01 A9
 (1653070218.942128)  can0  014   [5]  00 00 00 10 27
 (1653070218.946424)  can0  012   [8]  E8 03 10 00 00 00 00 00
 (1653070218.948920)  can0  1E5   [8]  1C 00 E1 10 00 00 01 49
 (1653070218.952502)  can0  014   [5]  00 00 00 10 27
 (1653070218.956423)  can0  012   [8]  E8 03 10 00 00 00 00 00
 (1653070218.956432)  can0  0E3   [2]  A0 00
 (1653070218.958919)  can0  1E5   [8]  1C 00 E1 30 00 00 01 69
 (1653070218.959633)  can0  010   [4]  26 73 00 00
 (1653070218.959693)  can0  0E2   [2]  A0 00
 (1653070218.962436)  can0  014   [5]  00 00 00 19 27
 (1653070218.962444)  can0  0E4   [2]  A0 00
 (1653070218.966430)  can0  012   [8]  E8 03 10 00 00 00 00 00
 (1653070218.968905)  can0  1E5   [8]  1C 00 E1 50 00 00 01 89
 (1653070218.972093)  can0  014   [5]  00 00 00 07 27
 (1653070218.976410)  can0  012   [8]  E8 03 10 00 00 00 00 00
 (1653070218.978728)  can0  1E5   [8]  1C 00 E1 70 00 00 01 A9
 (1653070218.982305)  can0  014   [5]  00 00 00 10 27
 (1653070218.986407)  can0  012   [8]  E8 03 10 00 00 00 00 00
 (1653070218.988888)  can0  1E5   [8]  1C 00 E1 10 00 00 01 49
 (1653070218.992109)  can0  014   [5]  00 00 00 10 27
 (1653070218.996442)  can0  012   [8]  E8 03 10 00 00 00 00 00
 (1653070218.998894)  can0  1E5   [8]  1C 00 E1 30 00 00 01 69
 (1653070219.002128)  can0  014   [5]  00 00 00 10 27
 (1653070219.006406)  can0  012   [8]  E8 03 10 00 00 00 00 00
 (1653070219.008896)  can0  1E5   [8]  1C 00 E1 50 00 00 01 89
 (1653070219.012286)  can0  014   [5]  00 00 00 10 27
 (1653070219.016416)  can0  012   [8]  E8 03 10 00 00 00 00 00
 (1653070219.018911)  can0  1E5   [8]  1C 00 E1 70 00 00 01 A9
 (1653070219.022284)  can0  014   [5]  00 00 00 10 27
 (1653070219.026411)  can0  012   [8]  E8 03 10 00 00 00 00 00
 (1653070219.028895)  can0  1E5   [8]  1C 00 E1 10 00 00 01 49
 (1653070219.032121)  can0  014   [5]  00 00 00 10 27
 (1653070219.036412)  can0  012   [8]  E8 03 10 00 00 00 00 00
 (1653070219.038897)  can0  1E5   [8]  1C 00 E1 30 00 00 01 69
 (1653070219.042286)  can0  014   [5]  00 00 00 10 27
 (1653070219.046417)  can0  012   [8]  E8 03 10 00 00 00 00 00
 (1653070219.048892)  can0  1E5   [8]  1C 00 E1 50 00 00 01 89
 (1653070219.052114)  can0  014   [5]  00 00 00 10 27
 (1653070219.056423)  can0  012   [8]  E8 03 10 00 00 00 00 00
 (1653070219.058898)  can0  1E5   [8]  1C 00 E1 70 00 00 01 A9
 (1653070219.059788)  can0  010   [4]  26 73 00 00
 (1653070219.062344)  can0  014   [5]  00 00 00 13 27
 (1653070219.066419)  can0  012   [8]  E8 03 10 00 00 00 00 00
 (1653070219.068899)  can0  1E5   [8]  1C 00 E1 10 00 00 01 49
 (1653070219.072098)  can0  014   [5]  00 00 00 0D 27
 (1653070219.076418)  can0  012   [8]  E8 03 10 00 00 00 00 00
 (1653070219.078898)  can0  1E5   [8]  1C 00 E1 30 00 00 01 69
 (1653070219.082282)  can0  014   [5]  00 00 00 10 27
 (1653070219.086413)  can0  012   [8]  E8 03 10 00 00 00 00 00
 (1653070219.088892)  can0  1E5   [8]  1C 00 E1 50 00 00 01 89
 (1653070219.092343)  can0  014   [5]  00 00 00 10 27
 (1653070219.096421)  can0  012   [8]  E8 03 10 00 00 00 00 00
 (1653070219.098925)  can0  1E5   [8]  1C 00 E1 70 00 00 01 A9
 (1653070219.102286)  can0  014   [5]  00 00 00 10 27
 (1653070219.106420)  can0  012   [8]  E8 03 10 00 00 00 00 00
 (1653070219.108896)  can0  1E5   [8]  1C 00 E1 10 00 00 01 49
 (1653070219.112120)  can0  014   [5]  00 00 00 10 27
 (1653070219.116431)  can0  012   [8]  E8 03 10 00 00 00 00 00
 (1653070219.118902)  can0  1E5   [8]  1C 00 E1 30 00 00 01 69
 (1653070219.122289)  can0  014   [5]  00 00 00 10 27
 (1653070219.126468)  can0  012   [8]  E8 03 10 00 00 00 00 00
 (1653070219.128905)  can0  1E5   [8]  1C 00 E1 50 00 00 01 89
 (1653070219.132113)  can0  014   [5]  00 00 00 10 27
 (1653070219.136476)  can0  012   [8]  E8 03 10 00 00 00 00 00
 (1653070219.138897)  can0  1E5   [8]  1C 00 E1 70 00 00 01 A9
 (1653070219.142299)  can0  014   [5]  00 00 00 10 27
 (1653070219.146501)  can0  012   [8]  E8 03 10 00 00 00 00 00
 (1653070219.148900)  can0  1E5   [8]  1C 00 E1 10 00 00 01 49
 (1653070219.152117)  can0  014   [5]  00 00 00 10 27
 (1653070219.156518)  can0  012   [8]  E8 03 10 00 00 00 00 00
 (1653070219.158906)  can0  1E5   [8]  1C 00 E1 30 00 00 01 69
 (1653070219.159794)  can0  010   [4]  26 73 00 00
 (1653070219.162293)  can0  014   [5]  00 00 00 13 27
 (1653070219.166245)  can0  012   [8]  E8 03 10 00 00 00 00 00
 (1653070219.168911)  can0  1E5   [8]  1C 00 E1 50 00 00 01 89
 (1653070219.172341)  can0  014   [5]  00 00 00 0D 27
 (1653070219.176251)  can0  012   [8]  E8 03 10 00 00 00 00 00
 (1653070219.178919)  can0  1E5   [8]  1C 00 E1 70 00 00 01 A9
 (1653070219.182119)  can0  014   [5]  00 00 00 10 27
 (1653070219.186309)  can0  012   [8]  E8 03 10 00 00 00 00 00
 (1653070219.188733)  can0  1E5   [8]  1C 00 E1 10 00 00 01 49
 (1653070219.192087)  can0  014   [5]  00 00 00 10 27
 (1653070219.196256)  can0  012   [8]  E8 03 10 00 00 00 00 00
 (1653070219.198732)  can0  1E5   [8]  1C 00 E1 30 00 00 01 69
 (1653070219.202281)  can0  014   [5]  00 00 00 10 27
 (1653070219.208930)  can0  012   [8]  E8 03 10 00 00 00 00 00
 (1653070219.208938)  can0  1E5   [8]  1C 00 E1 50 00 00 01 89
 (1653070219.212090)  can0  014   [5]  00 00 00 10 27
 (1653070219.216417)  can0  012   [8]  E8 03 10 00 00 00 00 00
 (1653070219.218905)  can0  1E5   [8]  1C 00 E1 70 00 00 01 A9
 (1653070219.222120)  can0  014   [5]  00 00 00 10 27
 (1653070219.226408)  can0  012   [8]  E8 03 10 00 00 00 00 00
 (1653070219.228930)  can0  1E5   [8]  1C 00 E1 10 00 00 01 49
 (1653070219.232283)  can0  014   [5]  00 00 00 10 27
 (1653070219.236409)  can0  012   [8]  E8 03 10 00 00 00 00 00
 (1653070219.238909)  can0  1E5   [8]  1C 00 E1 30 00 00 01 69
 (1653070219.242284)  can0  014   [5]  00 00 00 10 27
 (1653070219.246411)  can0  012   [8]  E8 03 10 00 00 00 00 00
 (1653070219.248928)  can0  1E5   [8]  1C 00 E1 50 00 00 01 89
 (1653070219.252105)  can0  014   [5]  00 00 00 10 27
 (1653070219.256430)  can0  012   [8]  E8 03 10 00 00 00 00 00
 (1653070219.258718)  can0  1E5   [8]  1C 00 E1 70 00 00 01 A9
 (1653070219.259623)  can0  010   [4]  26 73 00 00
 (1653070219.262284)  can0  014   [5]  00 00 00 13 27
 (1653070219.266418)  can0  012   [8]  E8 03 10 00 00 00 00 00
 (1653070219.268722)  can0  1E5   [8]  1C 00 E1 10 00 00 01 49
 (1653070219.272102)  can0  014   [5]  00 00 00 0D 27
 (1653070219.276412)  can0  012   [8]  E8 03 10 00 00 00 00 00
 (1653070219.278741)  can0  1E5   [8]  1C 00 E1 30 00 00 01 69
 (1653070219.282274)  can0  014   [5]  00 00 00 10 27
 (1653070219.286422)  can0  012   [8]  E8 03 10 00 00 00 00 00
 (1653070219.288891)  can0  1E5   [8]  1C 00 E1 50 00 00 01 89
 (1653070219.292099)  can0  014   [5]  00 00 00 10 27
 (1653070219.296416)  can0  012   [8]  E8 03 10 00 00 00 00 00
 (1653070219.298889)  can0  1E5   [8]  1C 00 E1 70 00 00 01 A9
 (1653070219.302275)  can0  014   [5]  00 00 00 10 27
 (1653070219.306413)  can0  012   [8]  E8 03 10 00 00 00 00 00
 (1653070219.308931)  can0  1E5   [8]  1C 00 E1 10 00 00 01 49
 (1653070219.312120)  can0  014   [5]  00 00 00 10 27
 (1653070219.316412)  can0  012   [8]  E8 03 10 00 00 00 00 00
 (1653070219.318993)  can0  1E5   [8]  1C 00 E1 30 00 00 01 69
 (1653070219.322272)  can0  014   [5]  00 00 00 10 27
 (1653070219.326422)  can0  012   [8]  E8 03 10 00 00 00 00 00
 (1653070219.329029)  can0  1E5   [8]  1C 00 E1 50 00 00 01 89
 (1653070219.332122)  can0  014   [5]  00 00 00 10 27
 (1653070219.336419)  can0  012   [8]  E8 03 10 00 00 00 00 00
 (1653070219.339024)  can0  1E5   [8]  1C 00 E1 70 00 00 01 A9
 (1653070219.342303)  can0  014   [5]  00 00 00 10 27
 (1653070219.346405)  can0  012   [8]  E8 03 10 00 00 00 00 00
 (1653070219.349017)  can0  1E5   [8]  1C 00 E1 10 00 00 01 49
 (1653070219.352128)  can0  014   [5]  00 00 00 10 27
 (1653070219.356413)  can0  012   [8]  E8 03 10 00 00 00 00 00
 (1653070219.358889)  can0  1E5   [8]  1C 00 E1 30 00 00 01 69
 (1653070219.359813)  can0  010   [4]  26 73 00 00
 (1653070219.362138)  can0  014   [5]  00 00 00 13 27
 (1653070219.366421)  can0  012   [8]  E8 03 10 00 00 00 00 00
 (1653070219.369009)  can0  1E5   [8]  1C 00 E1 50 00 00 01 89
 (1653070219.372108)  can0  014   [5]  00 00 00 0D 27
 (1653070219.376428)  can0  012   [8]  E8 03 10 00 00 00 00 00
 (1653070219.379009)  can0  1E5   [8]  1C 00 E1 70 00 00 01 A9
 (1653070219.382362)  can0  014   [5]  00 00 00 10 27
 (1653070219.386399)  can0  012   [8]  E8 03 10 00 00 00 00 00
 (1653070219.388742)  can0  1E5   [8]  1C 00 E1 10 00 00 01 49
 (1653070219.392121)  can0  014   [5]  00 00 00 10 27
 (1653070219.396418)  can0  012   [8]  E8 03 10 00 00 00 00 00
 (1653070219.399008)  can0  1E5   [8]  1C 00 E1 30 00 00 01 69
 (1653070219.402385)  can0  014   [5]  00 00 00 10 27
 (1653070219.406415)  can0  012   [8]  E8 03 10 00 00 00 00 00
 (1653070219.409009)  can0  1E5   [8]  1C 00 E1 50 00 00 01 89
 (1653070219.412114)  can0  014   [5]  00 00 00 10 27
 (1653070219.416451)  can0  012   [8]  E8 03 10 00 00 00 00 00
 (1653070219.419027)  can0  1E5   [8]  1C 00 E1 70 00 00 01 A9
 (1653070219.422303)  can0  014   [5]  00 00 00 10 27
 (1653070219.426424)  can0  012   [8]  E8 03 10 00 00 00 00 00
 (1653070219.428893)  can0  1E5   [8]  1C 00 E1 10 00 00 01 49
 (1653070219.432127)  can0  014   [5]  00 00 00 10 27
 (1653070219.436407)  can0  012   [8]  E8 03 10 00 00 00 00 00
 (1653070219.438900)  can0  1E5   [8]  1C 00 E1 30 00 00 01 69
 (1653070219.442126)  can0  014   [5]  00 00 00 10 27
 (1653070219.446252)  can0  012   [8]  E8 03 10 00 00 00 00 00
 (1653070219.448898)  can0  1E5   [8]  1C 00 E1 50 00 00 01 89
 (1653070219.452310)  can0  014   [5]  00 00 00 10 27
 (1653070219.456264)  can0  012   [8]  E8 03 10 00 00 00 00 00
 (1653070219.458892)  can0  1E5   [8]  1C 00 E1 70 00 00 01 A9
 (1653070219.459806)  can0  010   [4]  26 73 00 00
 (1653070219.462389)  can0  014   [5]  00 00 00 13 27
 (1653070219.466425)  can0  012   [8]  E8 03 10 00 00 00 00 00
 (1653070219.468896)  can0  1E5   [8]  1C 00 E1 10 00 00 01 49
 (1653070219.472119)  can0  014   [5]  00 00 00 0D 27
 (1653070219.476411)  can0  012   [8]  E8 03 10 00 00 00 00 00
 (1653070219.478884)  can0  1E5   [8]  1C 00 E1 30 00 00 01 69
 (1653070219.482292)  can0  014   [5]  00 00 00 10 27
 (1653070219.486409)  can0  012   [8]  E8 03 10 00 00 00 00 00
 (1653070219.488741)  can0  1E5   [8]  1C 00 E1 50 00 00 01 89
 (1653070219.492127)  can0  014   [5]  00 00 00 10 27
 (1653070219.496406)  can0  012   [8]  E8 03 10 00 00 00 00 00
 (1653070219.498891)  can0  1E5   [8]  1C 00 E1 70 00 00 01 A9
 (1653070219.502295)  can0  014   [5]  00 00 00 10 27
 (1653070219.506406)  can0  012   [8]  E8 03 10 00 00 00 00 00
 (1653070219.508883)  can0  1E5   [8]  1C 00 E1 10 00 00 01 49
 (1653070219.512128)  can0  014   [5]  00 00 00 10 27
 (1653070219.516418)  can0  012   [8]  E8 03 10 00 00 00 00 00
 (1653070219.518926)  can0  1E5   [8]  1C 00 E1 30 00 00 01 69
 (1653070219.522291)  can0  014   [5]  00 00 00 10 27
 (1653070219.526405)  can0  012   [8]  E8 03 10 00 00 00 00 00
 (1653070219.528889)  can0  1E5   [8]  1C 00 E1 50 00 00 01 89
 (1653070219.532483)  can0  014   [5]  00 00 00 10 27
 (1653070219.536420)  can0  012   [8]  E8 03 10 00 00 00 00 00
 (1653070219.538717)  can0  1E5   [8]  1C 00 E1 70 00 00 01 A9
 (1653070219.542127)  can0  014   [5]  00 00 00 10 27
 (1653070219.546421)  can0  012   [8]  E8 03 10 00 00 00 00 00
 (1653070219.548727)  can0  1E5   [8]  1C 00 E1 10 00 00 01 49
 (1653070219.552113)  can0  014   [5]  00 00 00 10 27
 (1653070219.556412)  can0  012   [8]  E8 03 10 00 00 00 00 00
 (1653070219.558880)  can0  1E5   [8]  1C 00 E1 30 00 00 01 69
 (1653070219.559779)  can0  010   [4]  26 73 00 00
 (1653070219.562348)  can0  014   [5]  00 00 00 13 27
 (1653070219.566412)  can0  012   [8]  E8 03 10 00 00 00 00 00
 (1653070219.568880)  can0  1E5   [8]  1C 00 E1 50 00 00 01 89
 (1653070219.572114)  can0  014   [5]  00 00 00 0D 27
 (1653070219.576414)  can0  012   [8]  E8 03 10 00 00 00 00 00
 (1653070219.578879)  can0  1E5   [8]  1C 00 E1 70 00 00 01 A9
 (1653070219.582302)  can0  014   [5]  00 00 00 10 27
 (1653070219.586426)  can0  012   [8]  E8 03 10 00 00 00 00 00
 (1653070219.588898)  can0  1E5   [8]  1C 00 E2 10 00 00 01 4A
 (1653070219.592123)  can0  014   [5]  00 00 00 10 27
 (1653070219.596416)  can0  012   [8]  E8 03 10 00 00 00 00 00
 (1653070219.598721)  can0  1E5   [8]  1C 00 E1 30 00 00 01 69
 (1653070219.602109)  can0  014   [5]  00 00 00 10 27
 (1653070219.606418)  can0  012   [8]  E8 03 10 00 00 00 00 00
 (1653070219.608901)  can0  1E5   [8]  1C 00 E1 50 00 00 01 89
 (1653070219.612328)  can0  014   [5]  00 00 00 10 27
 (1653070219.616420)  can0  012   [8]  E8 03 10 00 00 00 00 00
 (1653070219.618892)  can0  1E5   [8]  1C 00 E1 70 00 00 01 A9
 (1653070219.622291)  can0  014   [5]  00 00 00 10 27
 (1653070219.626463)  can0  012   [8]  E8 03 10 00 00 00 00 00
 (1653070219.628877)  can0  1E5   [8]  1C 00 E1 10 00 00 01 49
 (1653070219.632111)  can0  014   [5]  00 00 00 10 27
 (1653070219.636427)  can0  012   [8]  E8 03 10 00 00 00 00 00
 (1653070219.638888)  can0  1E5   [8]  1C 00 E1 30 00 00 01 69
 (1653070219.642294)  can0  014   [5]  00 00 00 10 27
 (1653070219.646456)  can0  012   [8]  E8 03 10 00 00 00 00 00
 (1653070219.648884)  can0  1E5   [8]  1C 00 E1 50 00 00 01 89
 (1653070219.652122)  can0  014   [5]  00 00 00 10 27
 (1653070219.656476)  can0  012   [8]  E8 03 10 00 00 00 00 00
 (1653070219.658884)  can0  1E5   [8]  1C 00 E1 70 00 00 01 A9
 (1653070219.659793)  can0  010   [4]  26 73 00 00
 (1653070219.662293)  can0  014   [5]  00 00 00 13 27
 (1653070219.666481)  can0  012   [8]  E8 03 10 00 00 00 00 00
 (1653070219.668888)  can0  1E5   [8]  1C 00 E1 10 00 00 01 49
 (1653070219.672120)  can0  014   [5]  00 00 00 0D 27
 (1653070219.676515)  can0  012   [8]  E8 03 10 00 00 00 00 00
 (1653070219.678883)  can0  1E5   [8]  1C 00 E1 30 00 00 01 69
 (1653070219.682288)  can0  014   [5]  00 00 00 10 27
 (1653070219.686540)  can0  012   [8]  E8 03 10 00 00 00 00 00
 (1653070219.688888)  can0  1E5   [8]  1C 00 E1 50 00 00 01 89
 (1653070219.692122)  can0  014   [5]  00 00 00 10 27
 (1653070219.696551)  can0  012   [8]  E8 03 10 00 00 00 00 00
 (1653070219.698901)  can0  1E5   [8]  1C 00 E1 70 00 00 01 A9
 (1653070219.702287)  can0  014   [5]  00 00 00 10 27
 (1653070219.706421)  can0  012   [8]  E8 03 10 00 00 00 00 00
 (1653070219.708891)  can0  1E5   [8]  1C 00 E1 10 00 00 01 49
 (1653070219.712114)  can0  014   [5]  00 00 00 10 27
 (1653070219.716420)  can0  012   [8]  E8 03 10 00 00 00 00 00
 (1653070219.718897)  can0  1E5   [8]  1C 00 E1 30 00 00 01 69
 (1653070219.722285)  can0  014   [5]  00 00 00 10 27
 (1653070219.726249)  can0  012   [8]  E8 03 10 00 00 00 00 00
 (1653070219.728933)  can0  1E5   [8]  1C 00 E1 50 00 00 01 89
 (1653070219.732128)  can0  014   [5]  00 00 00 10 27
 (1653070219.736309)  can0  012   [8]  E8 03 10 00 00 00 00 00
 (1653070219.738877)  can0  1E5   [8]  1C 00 E1 70 00 00 01 A9
 (1653070219.742295)  can0  014   [5]  00 00 00 10 27
 (1653070219.746428)  can0  012   [8]  E8 03 10 00 00 00 00 00
 (1653070219.748874)  can0  1E5   [8]  1C 00 E1 10 00 00 01 49
 (1653070219.752126)  can0  014   [5]  00 00 00 10 27
 (1653070219.756407)  can0  012   [8]  E8 03 10 00 00 00 00 00
 (1653070219.758911)  can0  1E5   [8]  1C 00 E1 30 00 00 01 69
 (1653070219.759913)  can0  010   [4]  26 73 00 00
 (1653070219.762295)  can0  014   [5]  00 00 00 13 27
 (1653070219.766433)  can0  012   [8]  E8 03 10 00 00 00 00 00
 (1653070219.768930)  can0  1E5   [8]  1C 00 E1 50 00 00 01 89
 (1653070219.772343)  can0  014   [5]  00 00 00 0D 27
 (1653070219.776422)  can0  012   [8]  E8 03 10 00 00 00 00 00
 (1653070219.778971)  can0  1E5   [8]  1C 00 E1 70 00 00 01 A9
 (1653070219.782286)  can0  014   [5]  00 00 00 10 27
 (1653070219.786419)  can0  012   [8]  E8 03 10 00 00 00 00 00
 (1653070219.788875)  can0  1E5   [8]  1C 00 E1 10 00 00 01 49
 (1653070219.792125)  can0  014   [5]  00 00 00 10 27
 (1653070219.796419)  can0  012   [8]  E8 03 10 00 00 00 00 00
 (1653070219.799011)  can0  1E5   [8]  1C 00 E1 30 00 00 01 69
 (1653070219.802283)  can0  014   [5]  00 00 00 10 27
 (1653070219.806394)  can0  012   [8]  E8 03 10 00 00 00 00 00
 (1653070219.808875)  can0  1E5   [8]  1C 00 E1 50 00 00 01 89
 (1653070219.812115)  can0  014   [5]  00 00 00 10 27
 (1653070219.816416)  can0  012   [8]  E8 03 10 00 00 00 00 00
 (1653070219.818707)  can0  1E5   [8]  1C 00 E1 70 00 00 01 A9
 (1653070219.822284)  can0  014   [5]  00 00 00 10 27
 (1653070219.826421)  can0  012   [8]  E8 03 10 00 00 00 00 00
 (1653070219.828724)  can0  1E5   [8]  1C 00 E1 10 00 00 01 49
 (1653070219.832121)  can0  014   [5]  00 00 00 10 27
 (1653070219.836443)  can0  012   [8]  E8 03 10 00 00 00 00 00
 (1653070219.838868)  can0  1E5   [8]  1C 00 E1 30 00 00 01 69
 (1653070219.842289)  can0  014   [5]  00 00 00 10 27
 (1653070219.846411)  can0  012   [8]  E8 03 10 00 00 00 00 00
 (1653070219.849010)  can0  1E5   [8]  1C 00 E1 50 00 00 01 89
 (1653070219.852116)  can0  014   [5]  00 00 00 10 27
 (1653070219.856417)  can0  012   [8]  E8 03 10 00 00 00 00 00
 (1653070219.859013)  can0  1E5   [8]  1C 00 E1 70 00 00 01 A9
 (1653070219.859618)  can0  010   [4]  26 73 00 00
 (1653070219.862281)  can0  014   [5]  00 00 00 13 27
 (1653070219.866402)  can0  012   [8]  E8 03 10 00 00 00 00 00
 (1653070219.868717)  can0  1E5   [8]  1C 00 E1 10 00 00 01 49
 (1653070219.872109)  can0  014   [5]  00 00 00 0D 27
 (1653070219.876399)  can0  012   [8]  E8 03 10 00 00 00 00 00
 (1653070219.878728)  can0  1E5   [8]  1C 00 E1 30 00 00 01 69
 (1653070219.882353)  can0  014   [5]  00 00 00 10 27
 (1653070219.886405)  can0  012   [8]  E8 03 10 00 00 00 00 00
 (1653070219.888996)  can0  1E5   [8]  1C 00 E1 50 00 00 01 89
 (1653070219.892106)  can0  014   [5]  00 00 00 10 27
 (1653070219.896406)  can0  012   [8]  E8 03 10 00 00 00 00 00
 (1653070219.898869)  can0  1E5   [8]  1C 00 E1 70 00 00 01 A9
 (1653070219.902295)  can0  014   [5]  00 00 00 10 27
 (1653070219.906404)  can0  012   [8]  E8 03 10 00 00 00 00 00
 (1653070219.909008)  can0  1E5   [8]  1C 00 E1 10 00 00 01 49
 (1653070219.912111)  can0  014   [5]  00 00 00 10 27
 (1653070219.916215)  can0  012   [8]  E8 03 10 00 00 00 00 00
 (1653070219.918882)  can0  1E5   [8]  1C 00 E1 30 00 00 01 69
 (1653070219.922381)  can0  014   [5]  00 00 00 10 27
 (1653070219.926412)  can0  012   [8]  E8 03 10 00 00 00 00 00
 (1653070219.929012)  can0  1E5   [8]  1C 00 E1 50 00 00 01 89
 (1653070219.932140)  can0  014   [5]  00 00 00 10 27
 (1653070219.936404)  can0  012   [8]  E8 03 10 00 00 00 00 00
 (1653070219.938881)  can0  1E5   [8]  1C 00 E1 70 00 00 01 A9
 (1653070219.942093)  can0  014   [5]  00 00 00 10 27
 (1653070219.946410)  can0  012   [8]  E8 03 10 00 00 00 00 00
 (1653070219.948879)  can0  1E5   [8]  1C 00 E1 10 00 00 01 49
 (1653070219.952100)  can0  014   [5]  00 00 00 10 27
 (1653070219.956402)  can0  012   [8]  E8 03 10 00 00 00 00 00
 (1653070219.956410)  can0  0E3   [2]  C8 00
 (1653070219.958879)  can0  1E5   [8]  1C 00 E1 30 00 00 01 69
 (1653070219.959612)  can0  010   [4]  26 73 00 00
 (1653070219.959723)  can0  0E2   [2]  C8 00
 (1653070219.962312)  can0  014   [5]  00 00 00 19 27
 (1653070219.962321)  can0  0E4   [2]  C8 00
 (1653070219.966414)  can0  012   [8]  E8 03 10 00 00 00 00 00
 (1653070219.968866)  can0  1E5   [8]  1C 00 E1 50 00 00 01 89
 (1653070219.972494)  can0  014   [5]  00 00 00 07 27
 (1653070219.976421)  can0  012   [8]  E8 03 10 00 00 00 00 00
 (1653070219.978885)  can0  1E5   [8]  1C 00 E1 70 00 00 01 A9
 (1653070219.982284)  can0  014   [5]  00 00 00 10 27
 (1653070219.986413)  can0  012   [8]  E8 03 10 00 00 00 00 00
 (1653070219.988874)  can0  1E5   [8]  1C 00 E1 10 00 00 01 49
 (1653070219.992094)  can0  014   [5]  00 00 00 10 27
 (1653070219.996420)  can0  012   [8]  E8 03 10 00 00 00 00 00
 (1653070219.998895)  can0  1E5   [8]  1C 00 E1 30 00 00 01 69
 (1653070220.002285)  can0  014   [5]  00 00 00 10 27
 (1653070220.006245)  can0  012   [8]  E8 03 10 00 00 00 00 00
 (1653070220.008867)  can0  1E5   [8]  1C 00 E1 50 00 00 01 89
 (1653070220.012096)  can0  014   [5]  00 00 00 10 27
 (1653070220.016252)  can0  012   [8]  E8 03 10 00 00 00 00 00
 (1653070220.018862)  can0  1E5   [8]  1C 00 E1 70 00 00 01 A9
 (1653070220.022293)  can0  014   [5]  00 00 00 10 27
