 (1653409734.568999)  can0  012   [8]  E8 03 10 00 00 00 00 00
 (1653409734.570017)  can0  014   [5]  FF EF FF 10 27
 (1653409734.570343)  can0  1E5   [8]  1C FE D3 7F FF 00 03 A7
 (1653409734.578963)  can0  012   [8]  E8 03 10 00 00 00 00 00
 (1653409734.580016)  can0  014   [5]  FF FF FF 10 27
 (1653409734.580331)  can0  1E5   [8]  1C FE D2 1F FE 00 03 45
 (1653409734.589176)  can0  012   [8]  E8 03 10 00 00 00 00 00
 (1653409734.589997)  can0  014   [5]  FF FF FF 10 27
 (1653409734.590332)  can0  1E5   [8]  1C FE D3 30 00 00 02 59
 (1653409734.599166)  can0  012   [8]  E8 03 10 00 00 00 00 00
 (1653409734.599982)  can0  014   [5]  FF FF FF 10 27
 (1653409734.600358)  can0  1E5   [8]  1C FE D3 50 00 00 02 79
 (1653409734.609160)  can0  012   [8]  E8 03 10 00 00 00 00 00
 (1653409734.610001)  can0  014   [5]  FF FF FF 10 27
 (1653409734.610341)  can0  1E5   [8]  1C FE D2 70 00 00 02 98
 (1653409734.619178)  can0  012   [8]  E8 03 10 00 00 00 00 00
 (1653409734.619994)  can0  014   [5]  FF FF FF 10 27
 (1653409734.620354)  can0  1E5   [8]  1C FE D3 10 00 00 02 39
 (1653409734.628792)  can0  010   [4]  26 73 00 00
 (1653409734.628997)  can0  012   [8]  E8 03 10 00 00 00 00 00
 (1653409734.630019)  can0  014   [5]  FF FF FF 13 27
 (1653409734.630345)  can0  1E5   [8]  1C FE D3 30 00 00 02 59
 (1653409734.639164)  can0  012   [8]  E8 03 10 00 00 00 00 00
 (1653409734.640006)  can0  014   [5]  FF FF FF 0D 27
 (1653409734.640337)  can0  1E5   [8]  1C FE D3 50 00 00 02 79
 (1653409734.649177)  can0  012   [8]  E8 03 10 00 00 00 00 00
 (1653409734.650004)  can0  014   [5]  FF EF FF 10 27
 (1653409734.650332)  can0  1E5   [8]  1C FE D2 70 00 00 02 98
 (1653409734.658974)  can0  012   [8]  E8 03 10 00 00 00 00 00
 (1653409734.660005)  can0  014   [5]  FE FF FF 10 27
 (1653409734.660348)  can0  1E5   [8]  1C FE D3 10 00 00 02 39
 (1653409734.669171)  can0  012   [8]  E8 03 10 00 00 00 00 00
 (1653409734.670002)  can0  014   [5]  FF FF FF 10 27
 (1653409734.670337)  can0  1E5   [8]  1C FE D2 30 00 00 02 58
 (1653409734.679183)  can0  012   [8]  E8 03 10 00 00 00 00 00
 (1653409734.680007)  can0  014   [5]  FF FF FF 10 27
 (1653409734.680338)  can0  1E5   [8]  1C FE D2 50 00 00 02 78
 (1653409734.689175)  can0  012   [8]  E8 03 10 00 00 00 00 00
 (1653409734.690006)  can0  014   [5]  FF FF FF 10 27
 (1653409734.690337)  can0  1E5   [8]  1C FE D2 70 00 00 02 98
 (1653409734.699167)  can0  012   [8]  E8 03 10 00 00 00 00 00
 (1653409734.700001)  can0  014   [5]  FF FF FF 10 27
 (1653409734.700336)  can0  1E5   [8]  1C FE D2 10 00 00 02 38
 (1653409734.709195)  can0  012   [8]  E8 03 10 00 00 00 00 00
 (1653409734.710011)  can0  014   [5]  FE FF FF 10 27
 (1653409734.710323)  can0  1E5   [8]  1C FE D2 30 00 00 02 58
 (1653409734.719171)  can0  012   [8]  E8 03 10 00 00 00 00 00
 (1653409734.719993)  can0  014   [5]  FF EF FF 10 27
 (1653409734.720337)  can0  1E5   [8]  1C FE D2 50 00 00 02 78
 (1653409734.728937)  can0  010   [4]  26 73 00 00
 (1653409734.728993)  can0  012   [8]  E8 03 10 00 00 00 00 00
 (1653409734.730025)  can0  014   [5]  FF FF FF 13 27
 (1653409734.730335)  can0  1E5   [8]  1C FE D2 70 00 00 02 98
 (1653409734.738972)  can0  012   [8]  E8 03 10 00 00 00 00 00
 (1653409734.740014)  can0  014   [5]  FF FF FF 0D 27
 (1653409734.740343)  can0  1E5   [8]  1C FE D2 10 00 00 02 38
 (1653409734.749176)  can0  012   [8]  E8 03 10 00 00 00 00 00
 (1653409734.750001)  can0  014   [5]  FF FF FF 10 27
 (1653409734.750339)  can0  1E5   [8]  1C FE D2 30 00 00 02 58
 (1653409734.759177)  can0  012   [8]  E8 03 10 00 00 00 00 00
 (1653409734.759984)  can0  014   [5]  FE EF FF 10 27
 (1653409734.760333)  can0  1E5   [8]  1C FE D2 50 00 00 02 78
 (1653409734.769164)  can0  012   [8]  E8 03 10 00 00 00 00 00
 (1653409734.769990)  can0  014   [5]  FF FF FF 10 27
 (1653409734.770343)  can0  1E5   [8]  1C FE D0 7F FF 00 03 A4
 (1653409734.779184)  can0  012   [8]  E8 03 10 00 00 00 00 00
 (1653409734.779997)  can0  014   [5]  FF FF FF 10 27
 (1653409734.780338)  can0  1E5   [8]  1C FE D0 1F FF 00 03 44
 (1653409734.789168)  can0  012   [8]  E8 03 10 00 00 00 00 00
 (1653409734.789999)  can0  014   [5]  FF FF FF 10 27
 (1653409734.790346)  can0  1E5   [8]  1C FE D0 3F FF 00 03 64
 (1653409734.799168)  can0  012   [8]  E8 03 10 00 00 00 00 00
 (1653409734.800001)  can0  014   [5]  FE FF FF 10 27
 (1653409734.800332)  can0  1E5   [8]  1C FE CE 5F FE 00 03 81
 (1653409734.809178)  can0  012   [8]  E8 03 10 00 00 00 00 00
 (1653409734.809988)  can0  014   [5]  FF EF FF 10 27
 (1653409734.810348)  can0  1E5   [8]  1C FE CE 7F FE 00 03 A1
 (1653409734.819166)  can0  012   [8]  E8 03 10 00 00 00 00 00
 (1653409734.819987)  can0  014   [5]  FF FF FF 10 27
 (1653409734.820333)  can0  1E5   [8]  1C FE CD 1F FD 00 03 3F
 (1653409734.828792)  can0  010   [4]  26 73 00 00
 (1653409734.828995)  can0  012   [8]  E8 03 10 00 00 00 00 00
 (1653409734.830025)  can0  014   [5]  FE FF FF 13 27
 (1653409734.830315)  can0  1E5   [8]  1C FE CD 3F FD 00 03 5F
 (1653409734.839001)  can0  012   [8]  E8 03 10 00 00 00 00 00
 (1653409734.840017)  can0  014   [5]  FF FF FF 0D 27
 (1653409734.840346)  can0  1E5   [8]  1C FE CB 5F FC 00 03 7C
 (1653409734.849185)  can0  012   [8]  E8 03 10 00 00 00 00 00
 (1653409734.850006)  can0  014   [5]  FF EF FF 10 27
 (1653409734.850336)  can0  1E5   [8]  1C FE CA 7F FB 00 03 9A
 (1653409734.859179)  can0  012   [8]  E8 03 10 00 00 00 00 00
 (1653409734.859983)  can0  014   [5]  FE FF FF 13 27
 (1653409734.860339)  can0  1E5   [8]  1C FE C8 1F FA 00 03 37
 (1653409734.869167)  can0  012   [8]  E8 03 10 00 00 00 00 00
 (1653409734.869996)  can0  014   [5]  FF FF FF 0D 27
 (1653409734.870339)  can0  1E5   [8]  1C FE C6 3F FA 00 03 55
 (1653409734.879220)  can0  012   [8]  E8 03 10 00 00 00 00 00
 (1653409734.879997)  can0  014   [5]  FF EF FF 10 27
 (1653409734.880333)  can0  1E5   [8]  1C FE C5 5F F9 00 03 73
 (1653409734.889244)  can0  012   [8]  E8 03 10 00 00 00 00 00
 (1653409734.889997)  can0  014   [5]  FE FF FF 10 27
 (1653409734.890325)  can0  1E5   [8]  1C FE C2 7F F7 00 03 8E
 (1653409734.899247)  can0  012   [8]  E8 03 10 00 00 00 00 00
 (1653409734.899994)  can0  014   [5]  FF FF FF 10 27
 (1653409734.900338)  can0  1E5   [8]  1C FE C0 1F F7 00 03 2C
 (1653409734.909289)  can0  012   [8]  E8 03 10 00 00 00 00 00
 (1653409734.909981)  can0  014   [5]  FF EF FF 10 27
 (1653409734.910338)  can0  1E5   [8]  1C FE BD 3F F5 00 03 47
 (1653409734.919308)  can0  012   [8]  E8 03 10 00 00 00 00 00
 (1653409734.919986)  can0  014   [5]  FE FF FF 10 27
 (1653409734.920326)  can0  1E5   [8]  1C FE BB 5F F5 00 03 65
 (1653409734.928799)  can0  010   [4]  26 73 00 00
 (1653409734.929003)  can0  012   [8]  E8 03 10 00 00 00 00 00
 (1653409734.930035)  can0  014   [5]  FF FF FF 13 27
 (1653409734.930319)  can0  1E5   [8]  1C FE BA 7F F4 00 03 83
 (1653409734.939172)  can0  012   [8]  E8 03 10 00 00 00 00 00
 (1653409734.940021)  can0  014   [5]  FF EF FF 0D 27
 (1653409734.940316)  can0  1E5   [8]  1C FE B8 1F F4 00 03 21
 (1653409734.948965)  can0  012   [8]  E8 03 10 00 00 00 00 00
 (1653409734.950004)  can0  014   [5]  FE FF FF 10 27
 (1653409734.950323)  can0  1E5   [8]  1C FE B8 3F F5 00 03 42
 (1653409734.959183)  can0  012   [8]  E8 03 10 00 00 00 00 00
 (1653409734.959996)  can0  014   [5]  FF FF FF 10 27
 (1653409734.960332)  can0  1E5   [8]  1C FE B6 5F F5 00 03 60
 (1653409734.969167)  can0  012   [8]  E8 03 10 00 00 00 00 00
 (1653409734.969991)  can0  014   [5]  FE EF FF 10 27
 (1653409734.970321)  can0  1E5   [8]  1C FE B6 7F F6 00 03 81
 (1653409734.978995)  can0  012   [8]  E8 03 10 00 00 00 00 00
 (1653409734.980009)  can0  014   [5]  FF FF FF 10 27
 (1653409734.980309)  can0  1E5   [8]  1C FE B6 1F F7 00 03 22
 (1653409734.989184)  can0  012   [8]  E8 03 10 00 00 00 00 00
 (1653409734.990012)  can0  014   [5]  FE FF FF 10 27
 (1653409734.990316)  can0  1E5   [8]  1C FE B5 3F F8 00 03 42
 (1653409734.999162)  can0  012   [8]  E8 03 10 00 00 00 00 00
 (1653409735.000022)  can0  014   [5]  FF EF FF 10 27
 (1653409735.000316)  can0  1E5   [8]  1C FE B6 50 00 00 02 5C
 (1653409735.009177)  can0  012   [8]  E8 03 10 00 00 00 00 00
 (1653409735.010016)  can0  014   [5]  FE FF FF 10 27
 (1653409735.010316)  can0  1E5   [8]  1C FE B5 70 00 00 02 7B
 (1653409735.019206)  can0  012   [8]  E8 03 10 00 00 00 00 00
 (1653409735.020011)  can0  014   [5]  FF EF FF 10 27
 (1653409735.020303)  can0  1E5   [8]  1C FE B5 10 00 00 02 1B
 (1653409735.028786)  can0  010   [4]  26 73 00 00
 (1653409735.028960)  can0  012   [8]  E8 03 10 00 00 00 00 00
 (1653409735.029992)  can0  014   [5]  FE FF FF 13 27
 (1653409735.030322)  can0  1E5   [8]  1C FE B5 30 00 00 02 3B
 (1653409735.039173)  can0  012   [8]  E8 03 10 00 00 00 00 00
 (1653409735.039989)  can0  014   [5]  FF EF FF 0D 27
 (1653409735.040314)  can0  1E5   [8]  1C FE B5 50 00 00 02 5B
 (1653409735.049174)  can0  012   [8]  E8 03 10 00 00 00 00 00
 (1653409735.050021)  can0  014   [5]  FF FF FF 10 27
 (1653409735.050312)  can0  1E5   [8]  1C FE B5 70 00 00 02 7B
 (1653409735.059170)  can0  012   [8]  E8 03 10 00 00 00 00 00
 (1653409735.060016)  can0  014   [5]  FE EF FF 10 27
 (1653409735.060305)  can0  1E5   [8]  1C FE B6 10 00 00 02 1C
 (1653409735.069198)  can0  012   [8]  E8 03 10 00 00 00 00 00
 (1653409735.069993)  can0  014   [5]  FF FF FF 10 27
 (1653409735.070314)  can0  1E5   [8]  1C FE B6 30 00 00 02 3C
 (1653409735.078998)  can0  012   [8]  E8 03 10 00 00 00 00 00
 (1653409735.079979)  can0  014   [5]  FE EF FF 10 27
 (1653409735.080315)  can0  1E5   [8]  1C FE B6 50 00 00 02 5C
 (1653409735.089146)  can0  012   [8]  E8 03 10 00 00 00 00 00
 (1653409735.090009)  can0  014   [5]  FE FF FF 10 27
 (1653409735.090315)  can0  1E5   [8]  1C FE B6 70 00 00 02 7C
 (1653409735.098997)  can0  012   [8]  E8 03 10 00 00 00 00 00
 (1653409735.100004)  can0  014   [5]  FF FF FF 10 27
 (1653409735.100309)  can0  1E5   [8]  1C FE B6 10 00 00 02 1C
 (1653409735.109174)  can0  012   [8]  E8 03 10 00 00 00 00 00
 (1653409735.109987)  can0  014   [5]  FE EF FF 10 27
 (1653409735.110327)  can0  1E5   [8]  1C FE B5 30 00 00 02 3B
 (1653409735.119170)  can0  012   [8]  E8 03 10 00 00 00 00 00
 (1653409735.119992)  can0  014   [5]  FF FF FF 10 27
 (1653409735.120313)  can0  1E5   [8]  1C FE B6 50 00 00 02 5C
 (1653409735.128781)  can0  010   [4]  26 73 00 00
 (1653409735.128947)  can0  012   [8]  E8 03 10 00 00 00 00 00
 (1653409735.129989)  can0  014   [5]  FF EF FF 13 27
 (1653409735.130314)  can0  1E5   [8]  1C FE B6 70 00 00 02 7C
 (1653409735.139168)  can0  012   [8]  E8 03 10 00 00 00 00 00
 (1653409735.139988)  can0  014   [5]  FE FF FF 0D 27
 (1653409735.140309)  can0  1E5   [8]  1C FE B5 10 00 00 02 1B
 (1653409735.149157)  can0  012   [8]  E8 03 10 00 00 00 00 00
 (1653409735.149980)  can0  014   [5]  FE EF FF 10 27
 (1653409735.150320)  can0  1E5   [8]  1C FE B5 30 00 00 02 3B
 (1653409735.159154)  can0  012   [8]  E8 03 10 00 00 00 00 00
 (1653409735.159997)  can0  014   [5]  FF FF FF 10 27
 (1653409735.160329)  can0  1E5   [8]  1C FE B5 50 00 00 02 5B
 (1653409735.169170)  can0  012   [8]  E8 03 10 00 00 00 00 00
 (1653409735.169997)  can0  014   [5]  FE EF FF 10 27
 (1653409735.170323)  can0  1E5   [8]  1C FE B5 70 00 00 02 7B
 (1653409735.179161)  can0  012   [8]  E8 03 10 00 00 00 00 00
 (1653409735.180000)  can0  014   [5]  FF FF FF 10 27
 (1653409735.180310)  can0  1E5   [8]  1C FE B5 10 00 00 02 1B
 (1653409735.189172)  can0  012   [8]  E8 03 10 00 00 00 00 00
 (1653409735.189994)  can0  014   [5]  FE EF FF 10 27
 (1653409735.190336)  can0  1E5   [8]  1C FE B5 30 00 00 02 3B
 (1653409735.199166)  can0  012   [8]  E8 03 10 00 00 00 00 00
 (1653409735.199989)  can0  014   [5]  FF FF FF 10 27
 (1653409735.200303)  can0  1E5   [8]  1C FE B5 50 00 00 02 5B
 (1653409735.209166)  can0  012   [8]  E8 03 10 00 00 00 00 00
 (1653409735.210009)  can0  014   [5]  FE EF FF 10 27
 (1653409735.210316)  can0  1E5   [8]  1C FE B5 70 00 00 02 7B
 (1653409735.219159)  can0  012   [8]  E8 03 10 00 00 00 00 00
 (1653409735.219993)  can0  014   [5]  FE EF FF 10 27
 (1653409735.220314)  can0  1E5   [8]  1C FE B5 10 00 00 02 1B
 (1653409735.228893)  can0  010   [4]  26 73 00 00
 (1653409735.228955)  can0  012   [8]  E8 03 10 00 00 00 00 00
 (1653409735.230026)  can0  014   [5]  FF FF FF 13 27
 (1653409735.230332)  can0  1E5   [8]  1C FE B5 30 00 00 02 3B
 (1653409735.238965)  can0  012   [8]  E8 03 10 00 00 00 00 00
 (1653409735.239981)  can0  014   [5]  FE EF FF 0D 27
 (1653409735.240361)  can0  1E5   [8]  1C FE B5 50 00 00 02 5B
 (1653409735.249170)  can0  012   [8]  E8 03 10 00 00 00 00 00
 (1653409735.250000)  can0  014   [5]  FF FF FF 10 27
 (1653409735.250327)  can0  1E5   [8]  1C FE B5 70 00 00 02 7B
 (1653409735.259175)  can0  012   [8]  E8 03 10 00 00 00 00 00
 (1653409735.260002)  can0  014   [5]  FE EF FF 10 27
 (1653409735.260312)  can0  1E5   [8]  1C FE B5 10 00 00 02 1B
 (1653409735.269175)  can0  012   [8]  E8 03 10 00 00 00 00 00
 (1653409735.270002)  can0  014   [5]  FE FF FF 10 27
 (1653409735.270339)  can0  1E5   [8]  1C FE B5 30 00 00 02 3B
 (1653409735.279177)  can0  012   [8]  E8 03 10 00 00 00 00 00
 (1653409735.280000)  can0  014   [5]  FF EF FF 10 27
 (1653409735.280301)  can0  1E5   [8]  1C FE B5 50 00 00 02 5B
 (1653409735.289168)  can0  012   [8]  E8 03 10 00 00 00 00 00
 (1653409735.289996)  can0  014   [5]  FE EF FF 10 27
 (1653409735.290324)  can0  1E5   [8]  1C FE B5 70 00 00 02 7B
 (1653409735.299168)  can0  012   [8]  E8 03 10 00 00 00 00 00
 (1653409735.299998)  can0  014   [5]  FF FF FF 10 27
 (1653409735.300314)  can0  1E5   [8]  1C FE B5 10 00 00 02 1B
 (1653409735.309242)  can0  012   [8]  E8 03 10 00 00 00 00 00
 (1653409735.309997)  can0  014   [5]  FE EF FF 10 27
 (1653409735.310303)  can0  1E5   [8]  1C FE B5 30 00 00 02 3B
 (1653409735.319201)  can0  012   [8]  E8 03 10 00 00 00 00 00
 (1653409735.320010)  can0  014   [5]  FE EF FF 10 27
 (1653409735.320317)  can0  1E5   [8]  1C FE B5 50 00 00 02 5B
 (1653409735.328807)  can0  010   [4]  26 73 00 00
 (1653409735.328941)  can0  012   [8]  E8 03 10 00 00 00 00 00
 (1653409735.329991)  can0  014   [5]  FF FF FF 13 27
 (1653409735.330304)  can0  1E5   [8]  1C FE B5 70 00 00 02 7B
 (1653409735.339180)  can0  012   [8]  E8 03 10 00 00 00 00 00
 (1653409735.340006)  can0  014   [5]  FE EF FF 0D 27
 (1653409735.340302)  can0  1E5   [8]  1C FE B5 10 00 00 02 1B
 (1653409735.349166)  can0  012   [8]  E8 03 10 00 00 00 00 00
 (1653409735.350006)  can0  014   [5]  FE FF FF 10 27
 (1653409735.350326)  can0  1E5   [8]  1C FE B5 30 00 00 02 3B
 (1653409735.359180)  can0  012   [8]  E8 03 10 00 00 00 00 00
 (1653409735.360006)  can0  014   [5]  FE EF FF 10 27
 (1653409735.360311)  can0  1E5   [8]  1C FE B5 50 00 00 02 5B
 (1653409735.369175)  can0  012   [8]  E8 03 10 00 00 00 00 00
 (1653409735.370009)  can0  014   [5]  FF EF FF 10 27
 (1653409735.370311)  can0  1E5   [8]  1C FE B3 7F FF 00 03 87
 (1653409735.379170)  can0  012   [8]  E8 03 10 00 00 00 00 00
 (1653409735.379995)  can0  014   [5]  FE FF FF 10 27
 (1653409735.380297)  can0  1E5   [8]  1C FE B5 10 00 00 02 1B
 (1653409735.389202)  can0  012   [8]  E8 03 10 00 00 00 00 00
 (1653409735.389985)  can0  014   [5]  FE EF FF 10 27
 (1653409735.390329)  can0  1E5   [8]  1C FE B3 30 00 00 02 39
 (1653409735.399218)  can0  012   [8]  E8 03 10 00 00 00 00 00
 (1653409735.400003)  can0  014   [5]  FF EF FF 10 27
 (1653409735.400310)  can0  1E5   [8]  1C FE B5 50 00 00 02 5B
 (1653409735.409239)  can0  012   [8]  E8 03 10 00 00 00 00 00
 (1653409735.409994)  can0  014   [5]  FE EF FF 10 27
 (1653409735.410310)  can0  1E5   [8]  1C FE B5 70 00 00 02 7B
 (1653409735.419263)  can0  012   [8]  E8 03 10 00 00 00 00 00
 (1653409735.420008)  can0  014   [5]  FE FF FF 12 27
 (1653409735.420294)  can0  1E5   [8]  1C FE B5 10 00 00 02 1B
 (1653409735.428786)  can0  010   [4]  26 73 00 00
 (1653409735.428795)  can0  0E2   [2]  10 00
 (1653409735.429009)  can0  012   [8]  E8 03 10 00 00 00 00 00
 (1653409735.429087)  can0  0E3   [2]  10 00
 (1653409735.429994)  can0  014   [5]  FF EF FF 16 27
 (1653409735.430120)  can0  0E4   [2]  10 00
 (1653409735.430373)  can0  1E5   [8]  1C FE B5 30 00 00 02 3B
 (1653409735.439300)  can0  012   [8]  E8 03 10 00 00 00 00 00
 (1653409735.440012)  can0  014   [5]  FE EF FF 08 27
 (1653409735.440295)  can0  1E5   [8]  1C FE B3 50 00 00 02 59
 (1653409735.449156)  can0  012   [8]  E8 03 10 00 00 00 00 00
 (1653409735.449989)  can0  014   [5]  FE EF FF 10 27
 (1653409735.450321)  can0  1E5   [8]  1C FE B3 70 00 00 02 79
 (1653409735.459174)  can0  012   [8]  E8 03 10 00 00 00 00 00
 (1653409735.459984)  can0  014   [5]  FF FF FF 10 27
 (1653409735.460310)  can0  1E5   [8]  1C FE B3 10 00 00 02 19
 (1653409735.469169)  can0  012   [8]  E8 03 10 00 00 00 00 00
 (1653409735.469996)  can0  014   [5]  FE EF FF 10 27
 (1653409735.470319)  can0  1E5   [8]  1C FE B3 30 00 00 02 39
 (1653409735.479154)  can0  012   [8]  E8 03 10 00 00 00 00 00
 (1653409735.479978)  can0  014   [5]  FE EF FF 10 27
 (1653409735.480303)  can0  1E5   [8]  1C FE B3 50 00 00 02 59
 (1653409735.489168)  can0  012   [8]  E8 03 10 00 00 00 00 00
 (1653409735.489996)  can0  014   [5]  FE EF FF 13 27
 (1653409735.490303)  can0  1E5   [8]  1C FE B3 70 00 00 02 79
 (1653409735.499036)  can0  012   [8]  E8 03 10 00 00 00 00 00
 (1653409735.499994)  can0  014   [5]  FF EF FF 0D 27
 (1653409735.500315)  can0  1E5   [8]  1C FE B3 10 00 00 02 19
 (1653409735.509169)  can0  012   [8]  E8 03 10 00 00 00 00 00
 (1653409735.510016)  can0  014   [5]  FE FF FF 10 27
 (1653409735.510298)  can0  1E5   [8]  1C FE B3 30 00 00 02 39
 (1653409735.519175)  can0  012   [8]  E8 03 10 00 00 00 00 00
 (1653409735.520017)  can0  014   [5]  FE EF FF 10 27
 (1653409735.520293)  can0  1E5   [8]  1C FE B2 5F FF 00 03 66
 (1653409735.528626)  can0  010   [4]  26 73 00 00
 (1653409735.528957)  can0  012   [8]  E8 03 10 00 00 00 00 00
 (1653409735.529984)  can0  014   [5]  FE EF FF 13 27
 (1653409735.530317)  can0  1E5   [8]  1C FE B2 7F FF 00 03 86
 (1653409735.539173)  can0  012   [8]  E8 03 10 00 00 00 00 00
 (1653409735.539985)  can0  014   [5]  FF FF FF 0D 27
 (1653409735.540307)  can0  1E5   [8]  1C FE B0 1F FE 00 03 23
 (1653409735.549171)  can0  012   [8]  E8 03 10 00 00 00 00 00
 (1653409735.550021)  can0  014   [5]  FE EF FF 10 27
 (1653409735.550298)  can0  1E5   [8]  1C FE AE 3F FD 00 03 40
 (1653409735.559161)  can0  012   [8]  E8 03 10 00 00 00 00 00
 (1653409735.560021)  can0  014   [5]  FE EF FF 10 27
 (1653409735.560286)  can0  1E5   [8]  1C FE AE 5F FD 00 03 60
 (1653409735.569170)  can0  012   [8]  E8 03 10 00 00 00 00 00
 (1653409735.570005)  can0  014   [5]  FE EF FF 10 27
 (1653409735.570293)  can0  1E5   [8]  1C FE AD 7F FC 00 03 7E
 (1653409735.579159)  can0  012   [8]  E8 03 10 00 00 00 00 00
 (1653409735.580009)  can0  014   [5]  FF EF FF 10 27
 (1653409735.580298)  can0  1E5   [8]  1C FE AB 1F FB 00 03 1B
 (1653409735.589178)  can0  012   [8]  E8 03 10 00 00 00 00 00
 (1653409735.590015)  can0  014   [5]  FE FF FF 10 27
 (1653409735.590298)  can0  1E5   [8]  1C FE AA 3F FA 00 03 39
 (1653409735.599163)  can0  012   [8]  E8 03 10 00 00 00 00 00
 (1653409735.600021)  can0  014   [5]  FE EF FF 10 27
 (1653409735.600292)  can0  1E5   [8]  1C FE AA 5F FA 00 03 59
 (1653409735.609163)  can0  012   [8]  E8 03 10 00 00 00 00 00
 (1653409735.609987)  can0  014   [5]  FE EF FF 10 27
 (1653409735.610295)  can0  1E5   [8]  1C FE AA 7F FA 00 03 79
 (1653409735.619168)  can0  012   [8]  E8 03 10 00 00 00 00 00
 (1653409735.619975)  can0  014   [5]  FE EF FF 10 27
 (1653409735.620296)  can0  1E5   [8]  1C FE A8 1F FA 00 03 17
 (1653409735.628791)  can0  010   [4]  26 73 00 00
 (1653409735.628947)  can0  012   [8]  E8 03 10 00 00 00 00 00
 (1653409735.629997)  can0  014   [5]  FF FF FF 13 27
 (1653409735.630289)  can0  1E5   [8]  1C FE A6 3F F9 00 03 34
 (1653409735.639194)  can0  012   [8]  E8 03 10 00 00 00 00 00
 (1653409735.639987)  can0  014   [5]  FE EF FF 0D 27
 (1653409735.640286)  can0  1E5   [8]  1C FE A6 5F FA 00 03 55
 (1653409735.649177)  can0  012   [8]  E8 03 10 00 00 00 00 00
 (1653409735.649983)  can0  014   [5]  FE EF FF 10 27
 (1653409735.650285)  can0  1E5   [8]  1C FE A6 7F FB 00 03 76
 (1653409735.659171)  can0  012   [8]  E8 03 10 00 00 00 00 00
 (1653409735.659974)  can0  014   [5]  FE EF FF 10 27
 (1653409735.660302)  can0  1E5   [8]  1C FE A6 1F FB 00 03 16
 (1653409735.669177)  can0  012   [8]  E8 03 10 00 00 00 00 00
 (1653409735.669981)  can0  014   [5]  FE EF FF 10 27
 (1653409735.670302)  can0  1E5   [8]  1C FE A5 3F FB 00 03 35
 (1653409735.679182)  can0  012   [8]  E8 03 10 00 00 00 00 00
 (1653409735.679991)  can0  014   [5]  FF EF FF 10 27
 (1653409735.680295)  can0  1E5   [8]  1C FE A5 5F FC 00 03 56
 (1653409735.689158)  can0  012   [8]  E8 03 10 00 00 00 00 00
 (1653409735.690013)  can0  014   [5]  FE FF FF 10 27
 (1653409735.690287)  can0  1E5   [8]  1C FE A5 7F FD 00 03 77
 (1653409735.699178)  can0  012   [8]  E8 03 10 00 00 00 00 00
 (1653409735.699987)  can0  014   [5]  FE EF FF 10 27
 (1653409735.700289)  can0  1E5   [8]  1C FE A5 1F FD 00 03 17
 (1653409735.709183)  can0  012   [8]  E8 03 10 00 00 00 00 00
 (1653409735.709988)  can0  014   [5]  FE EF FF 10 27
 (1653409735.710310)  can0  1E5   [8]  1C FE A5 3F FD 00 03 37
 (1653409735.719167)  can0  012   [8]  E8 03 10 00 00 00 00 00
 (1653409735.719985)  can0  014   [5]  FE EF FF 10 27
 (1653409735.720303)  can0  1E5   [8]  1C FE A5 5F FE 00 03 58
 (1653409735.728858)  can0  010   [4]  26 73 00 00
 (1653409735.728967)  can0  012   [8]  E8 03 10 00 00 00 00 00
 (1653409735.730018)  can0  014   [5]  FE EF FF 13 27
 (1653409735.730299)  can0  1E5   [8]  1C FE A6 70 00 00 02 6C
 (1653409735.739170)  can0  012   [8]  E8 03 10 00 00 00 00 00
 (1653409735.740000)  can0  014   [5]  FF FF FF 0D 27
 (1653409735.740319)  can0  1E5   [8]  1C FE A5 10 00 00 02 0B
 (1653409735.749164)  can0  012   [8]  E8 03 10 00 00 00 00 00
 (1653409735.749989)  can0  014   [5]  FE EF FF 10 27
 (1653409735.750305)  can0  1E5   [8]  1C FE A6 30 00 00 02 2C
 (1653409735.759157)  can0  012   [8]  E8 03 10 00 00 00 00 00
 (1653409735.760004)  can0  014   [5]  FE EF FF 10 27
 (1653409735.760303)  can0  1E5   [8]  1C FE A6 50 00 00 02 4C
 (1653409735.769170)  can0  012   [8]  E8 03 10 00 00 00 00 00
 (1653409735.769984)  can0  014   [5]  FE EF FF 10 27
 (1653409735.770309)  can0  1E5   [8]  1C FE A5 70 00 00 02 6B
 (1653409735.779174)  can0  012   [8]  E8 03 10 00 00 00 00 00
 (1653409735.780003)  can0  014   [5]  FE EF FF 10 27
 (1653409735.780291)  can0  1E5   [8]  1C FE A5 10 00 00 02 0B
 (1653409735.789162)  can0  012   [8]  E8 03 10 00 00 00 00 00
 (1653409735.790001)  can0  014   [5]  FE EF FF 10 27
 (1653409735.790293)  can0  1E5   [8]  1C FE A6 30 00 00 02 2C
 (1653409735.799170)  can0  012   [8]  E8 03 10 00 00 00 00 00
 (1653409735.799997)  can0  014   [5]  FE EF FF 10 27
 (1653409735.800283)  can0  1E5   [8]  1C FE A6 50 00 00 02 4C
 (1653409735.809180)  can0  012   [8]  E8 03 10 00 00 00 00 00
 (1653409735.810007)  can0  014   [5]  FE EF FF 10 27
 (1653409735.810293)  can0  1E5   [8]  1C FE A6 70 00 00 02 6C
 (1653409735.818995)  can0  012   [8]  E8 03 10 00 00 00 00 00
 (1653409735.820038)  can0  014   [5]  FF FF FF 10 27
 (1653409735.820281)  can0  1E5   [8]  1C FE A6 10 00 00 02 0C
 (1653409735.828784)  can0  010   [4]  26 73 00 00
 (1653409735.828953)  can0  012   [8]  E8 03 10 00 00 00 00 00
 (1653409735.829972)  can0  014   [5]  FE EF FF 13 27
 (1653409735.830305)  can0  1E5   [8]  1C FE A6 30 00 00 02 2C
 (1653409735.839170)  can0  012   [8]  E8 03 10 00 00 00 00 00
 (1653409735.839975)  can0  014   [5]  FE EF FF 0D 27
 (1653409735.840303)  can0  1E5   [8]  1C FE A6 50 00 00 02 4C
 (1653409735.849168)  can0  012   [8]  E8 03 10 00 00 00 00 00
 (1653409735.850015)  can0  014   [5]  FE EF FF 10 27
 (1653409735.850296)  can0  1E5   [8]  1C FE A6 70 00 00 02 6C
 (1653409735.859163)  can0  012   [8]  E8 03 10 00 00 00 00 00
 (1653409735.860009)  can0  014   [5]  FE EF FF 10 27
 (1653409735.860291)  can0  1E5   [8]  1C FE A6 10 00 00 02 0C
 (1653409735.869164)  can0  012   [8]  E8 03 10 00 00 00 00 00
 (1653409735.869983)  can0  014   [5]  FE FF FF 10 27
 (1653409735.870301)  can0  1E5   [8]  1C FE A6 30 00 00 02 2C
 (1653409735.879183)  can0  012   [8]  E8 03 10 00 00 00 00 00
 (1653409735.879988)  can0  014   [5]  FE EF FF 10 27
 (1653409735.880302)  can0  1E5   [8]  1C FE A6 50 00 00 02 4C
 (1653409735.889180)  can0  012   [8]  E8 03 10 00 00 00 00 00
 (1653409735.889993)  can0  014   [5]  FF EF FF 10 27
 (1653409735.890285)  can0  1E5   [8]  1C FE A6 70 00 00 02 6C
 (1653409735.899172)  can0  012   [8]  E8 03 10 00 00 00 00 00
 (1653409735.899972)  can0  014   [5]  FE EF FF 10 27
 (1653409735.900304)  can0  1E5   [8]  1C FE A6 10 00 00 02 0C
 (1653409735.909198)  can0  012   [8]  E8 03 10 00 00 00 00 00
 (1653409735.910001)  can0  014   [5]  FE EF FF 10 27
 (1653409735.910304)  can0  1E5   [8]  1C FE A6 30 00 00 02 2C
 (1653409735.919211)  can0  012   [8]  E8 03 10 00 00 00 00 00
 (1653409735.919986)  can0  014   [5]  FE EF FF 10 27
 (1653409735.920273)  can0  1E5   [8]  1C FE A8 50 01 00 02 4F
 (1653409735.928782)  can0  010   [4]  26 73 00 00
 (1653409735.928947)  can0  012   [8]  E8 03 10 00 00 00 00 00
 (1653409735.929994)  can0  014   [5]  FE FF FF 13 27
 (1653409735.930287)  can0  1E5   [8]  1C FE A8 70 01 00 02 6F
 (1653409735.939260)  can0  012   [8]  E8 03 10 00 00 00 00 00
 (1653409735.940062)  can0  014   [5]  FE EF FF 0D 27
 (1653409735.940304)  can0  1E5   [8]  1C FE A6 10 00 00 02 0C
 (1653409735.949316)  can0  012   [8]  E8 03 10 00 00 00 00 00
 (1653409735.950009)  can0  014   [5]  FE EF FF 10 27
 (1653409735.950285)  can0  1E5   [8]  1C FE A6 30 00 00 02 2C
 (1653409735.959300)  can0  012   [8]  E8 03 10 00 00 00 00 00
 (1653409735.960016)  can0  014   [5]  FE EF FF 10 27
 (1653409735.960294)  can0  1E5   [8]  1C FE A6 50 00 00 02 4C
 (1653409735.969307)  can0  012   [8]  E8 03 10 00 00 00 00 00
 (1653409735.969987)  can0  014   [5]  FF EF FF 10 27
 (1653409735.970307)  can0  1E5   [8]  1C FE A6 70 00 00 02 6C
 (1653409735.979171)  can0  012   [8]  E8 03 10 00 00 00 00 00
 (1653409735.980015)  can0  014   [5]  FE EF FF 10 27
 (1653409735.980307)  can0  1E5   [8]  1C FE A8 10 00 00 02 0E
 (1653409735.989165)  can0  012   [8]  E8 03 10 00 00 00 00 00
 (1653409735.990012)  can0  014   [5]  FE EF FF 10 27
 (1653409735.990287)  can0  1E5   [8]  1C FE A6 30 00 00 02 2C
 (1653409735.999181)  can0  012   [8]  E8 03 10 00 00 00 00 00
 (1653409736.000022)  can0  014   [5]  FE FF FF 10 27
 (1653409736.000273)  can0  1E5   [8]  1C FE A8 50 00 00 02 4E
 (1653409736.008994)  can0  012   [8]  E8 03 10 00 00 00 00 00
 (1653409736.010033)  can0  014   [5]  FE EF FF 10 27
 (1653409736.010312)  can0  1E5   [8]  1C FE A6 70 00 00 02 6C
 (1653409736.019148)  can0  012   [8]  E8 03 10 00 00 00 00 00
 (1653409736.020020)  can0  014   [5]  FE EF FF 10 27
 (1653409736.020294)  can0  1E5   [8]  1C FE A6 10 00 00 02 0C
 (1653409736.028630)  can0  010   [4]  26 73 00 00
 (1653409736.028973)  can0  012   [8]  E8 03 10 00 00 00 00 00
 (1653409736.030005)  can0  014   [5]  FE EF FF 13 27
 (1653409736.030289)  can0  1E5   [8]  1C FE A6 30 00 00 02 2C
 (1653409736.039177)  can0  012   [8]  E8 03 10 00 00 00 00 00
 (1653409736.040019)  can0  014   [5]  FE EF FF 0D 27
 (1653409736.040290)  can0  1E5   [8]  1C FE A8 50 00 00 02 4E
 (1653409736.049159)  can0  012   [8]  E8 03 10 00 00 00 00 00
 (1653409736.050019)  can0  014   [5]  FE EF FF 10 27
 (1653409736.050312)  can0  1E5   [8]  1C FE A8 70 00 00 02 6E
 (1653409736.059170)  can0  012   [8]  E8 03 10 00 00 00 00 00
 (1653409736.060015)  can0  014   [5]  FF EF FF 10 27
 (1653409736.060302)  can0  1E5   [8]  1C FE A6 10 00 00 02 0C
 (1653409736.069169)  can0  012   [8]  E8 03 10 00 00 00 00 00
 (1653409736.070013)  can0  014   [5]  FD EF FF 10 27
 (1653409736.070311)  can0  1E5   [8]  1C FE A6 30 00 00 02 2C
 (1653409736.079174)  can0  012   [8]  E8 03 10 00 00 00 00 00
 (1653409736.080014)  can0  014   [5]  FF FF FF 10 27
 (1653409736.080287)  can0  1E5   [8]  1C FE A8 50 00 00 02 4E
 (1653409736.088996)  can0  012   [8]  E8 03 10 00 00 00 00 00
 (1653409736.090010)  can0  014   [5]  FE EF FF 10 27
 (1653409736.090276)  can0  1E5   [8]  1C FE A8 70 00 00 02 6E
 (1653409736.098995)  can0  012   [8]  E8 03 10 00 00 00 00 00
 (1653409736.100020)  can0  014   [5]  FE EF FF 10 27
 (1653409736.100277)  can0  1E5   [8]  1C FE A6 10 00 00 02 0C
 (1653409736.109165)  can0  012   [8]  E8 03 10 00 00 00 00 00
 (1653409736.109984)  can0  014   [5]  FE EF FF 10 27
 (1653409736.110296)  can0  1E5   [8]  1C FE A8 30 00 00 02 2E
 (1653409736.119162)  can0  012   [8]  E8 03 10 00 00 00 00 00
 (1653409736.119979)  can0  014   [5]  FE EF FF 10 27
 (1653409736.120283)  can0  1E5   [8]  1C FE A8 50 00 00 02 4E
 (1653409736.128779)  can0  010   [4]  26 73 00 00
 (1653409736.128990)  can0  012   [8]  E8 03 10 00 00 00 00 00
 (1653409736.130017)  can0  014   [5]  FE EF FF 13 27
 (1653409736.130303)  can0  1E5   [8]  1C FE A8 70 00 00 02 6E
 (1653409736.139155)  can0  012   [8]  E8 03 10 00 00 00 00 00
 (1653409736.140009)  can0  014   [5]  FE EF FF 0D 27
 (1653409736.140287)  can0  1E5   [8]  1C FE A6 10 00 00 02 0C
 (1653409736.149170)  can0  012   [8]  E8 03 10 00 00 00 00 00
 (1653409736.149981)  can0  014   [5]  FE EF FF 10 27
 (1653409736.150296)  can0  1E5   [8]  1C FE A8 30 00 00 02 2E
 (1653409736.159155)  can0  012   [8]  E8 03 10 00 00 00 00 00
 (1653409736.160004)  can0  014   [5]  FE EF FF 10 27
 (1653409736.160275)  can0  1E5   [8]  1C FE A8 50 00 00 02 4E
 (1653409736.169153)  can0  012   [8]  E8 03 10 00 00 00 00 00
 (1653409736.170012)  can0  014   [5]  FE EF FF 10 27
 (1653409736.170287)  can0  1E5   [8]  1C FE A8 70 00 00 02 6E
 (1653409736.179170)  can0  012   [8]  E8 03 10 00 00 00 00 00
 (1653409736.179983)  can0  014   [5]  FE EF FF 10 27
 (1653409736.180274)  can0  1E5   [8]  1C FE A8 10 00 00 02 0E
 (1653409736.189158)  can0  012   [8]  E8 03 10 00 00 00 00 00
 (1653409736.190021)  can0  014   [5]  FE EF FF 10 27
 (1653409736.190273)  can0  1E5   [8]  1C FE A8 30 00 00 02 2E
 (1653409736.199161)  can0  012   [8]  E8 03 10 00 00 00 00 00
 (1653409736.200005)  can0  014   [5]  FE EF FF 10 27
 (1653409736.200281)  can0  1E5   [8]  1C FE A8 50 00 00 02 4E
 (1653409736.209166)  can0  012   [8]  E8 03 10 00 00 00 00 00
 (1653409736.209986)  can0  014   [5]  FE FF FF 10 27
 (1653409736.210280)  can0  1E5   [8]  1C FE A8 70 00 00 02 6E
 (1653409736.219158)  can0  012   [8]  E8 03 10 00 00 00 00 00
 (1653409736.219999)  can0  014   [5]  FF EF FF 10 27
 (1653409736.220268)  can0  1E5   [8]  1C FE A6 10 00 00 02 0C
 (1653409736.228805)  can0  010   [4]  26 73 00 00
 (1653409736.228942)  can0  012   [8]  E8 03 10 00 00 00 00 00
 (1653409736.229984)  can0  014   [5]  FD EF FF 13 27
 (1653409736.230289)  can0  1E5   [8]  1C FE A6 30 00 00 02 2C
 (1653409736.239159)  can0  012   [8]  E8 03 10 00 00 00 00 00
 (1653409736.239993)  can0  014   [5]  FF EF FF 0D 27
 (1653409736.240287)  can0  1E5   [8]  1C FE A6 50 00 00 02 4C
 (1653409736.249158)  can0  012   [8]  E8 03 10 00 00 00 00 00
 (1653409736.249991)  can0  014   [5]  FE EF FF 10 27
 (1653409736.250281)  can0  1E5   [8]  1C FE A8 70 00 00 02 6E
 (1653409736.259190)  can0  012   [8]  E8 03 10 00 00 00 00 00
 (1653409736.260008)  can0  014   [5]  FE EF FF 10 27
 (1653409736.260277)  can0  1E5   [8]  1C FE A6 10 00 00 02 0C
 (1653409736.269171)  can0  012   [8]  E8 03 10 00 00 00 00 00
 (1653409736.269980)  can0  014   [5]  FE EF FF 10 27
 (1653409736.270294)  can0  1E5   [8]  1C FE A6 30 00 00 02 2C
 (1653409736.279165)  can0  012   [8]  E8 03 10 00 00 00 00 00
 (1653409736.279996)  can0  014   [5]  FE EF FF 10 27
 (1653409736.280296)  can0  1E5   [8]  1C FE A6 50 00 00 02 4C
 (1653409736.289152)  can0  012   [8]  E8 03 10 00 00 00 00 00
 (1653409736.290018)  can0  014   [5]  FE EF FF 10 27
 (1653409736.290263)  can0  1E5   [8]  1C FE A6 70 00 00 02 6C
 (1653409736.299150)  can0  012   [8]  E8 03 10 00 00 00 00 00
 (1653409736.300012)  can0  014   [5]  FE EF FF 10 27
 (1653409736.300278)  can0  1E5   [8]  1C FE A6 10 00 00 02 0C
 (1653409736.309219)  can0  012   [8]  E8 03 10 00 00 00 00 00
 (1653409736.310006)  can0  014   [5]  FE EF FF 10 27
 (1653409736.310266)  can0  1E5   [8]  1C FE A6 30 00 00 02 2C
 (1653409736.319206)  can0  012   [8]  E8 03 10 00 00 00 00 00
 (1653409736.320004)  can0  014   [5]  FE EF FF 10 27
 (1653409736.320282)  can0  1E5   [8]  1C FE A5 5F FF 00 03 59
 (1653409736.328778)  can0  010   [4]  26 73 00 00
 (1653409736.328951)  can0  012   [8]  E8 03 10 00 00 00 00 00
 (1653409736.330025)  can0  014   [5]  FE EF FF 13 27
 (1653409736.330268)  can0  1E5   [8]  1C FE A5 7F FF 00 03 79
 (1653409736.339159)  can0  012   [8]  E8 03 10 00 00 00 00 00
 (1653409736.339998)  can0  014   [5]  FE EF FF 0D 27
 (1653409736.340272)  can0  1E5   [8]  1C FE A5 1F FF 00 03 19
 (1653409736.349159)  can0  012   [8]  E8 03 10 00 00 00 00 00
 (1653409736.349991)  can0  014   [5]  FE EF FF 10 27
 (1653409736.350276)  can0  1E5   [8]  1C FE A5 3F FF 00 03 39
 (1653409736.359174)  can0  012   [8]  E8 03 10 00 00 00 00 00
 (1653409736.360001)  can0  014   [5]  FE EF FF 10 27
 (1653409736.360265)  can0  1E5   [8]  1C FE A5 5F FF 00 03 59
 (1653409736.369163)  can0  012   [8]  E8 03 10 00 00 00 00 00
 (1653409736.370012)  can0  014   [5]  FE EF FF 10 27
 (1653409736.370275)  can0  1E5   [8]  1C FE A3 7F FE 00 03 76
 (1653409736.379158)  can0  012   [8]  E8 03 10 00 00 00 00 00
 (1653409736.380014)  can0  014   [5]  FE EF FF 10 27
 (1653409736.380274)  can0  1E5   [8]  1C FE A3 1F FE 00 03 16
 (1653409736.389165)  can0  012   [8]  E8 03 10 00 00 00 00 00
 (1653409736.389981)  can0  014   [5]  FF EF FF 10 27
 (1653409736.390293)  can0  1E5   [8]  1C FE A3 3F FE 00 03 36
 (1653409736.399174)  can0  012   [8]  E8 03 10 00 00 00 00 00
 (1653409736.399976)  can0  014   [5]  FD EF FF 10 27
 (1653409736.400273)  can0  1E5   [8]  1C FE A2 5F FD 00 03 54
 (1653409736.409160)  can0  012   [8]  E8 03 10 00 00 00 00 00
 (1653409736.410017)  can0  014   [5]  FF EF FF 10 27
 (1653409736.410275)  can0  1E5   [8]  1C FE A2 7F FD 00 03 74
 (1653409736.419175)  can0  012   [8]  E8 03 10 00 00 00 00 00
 (1653409736.419982)  can0  014   [5]  FD EF FF 10 27
 (1653409736.420286)  can0  1E5   [8]  1C FE A2 1F FE 00 03 15
 (1653409736.428769)  can0  010   [4]  26 73 00 00
 (1653409736.428777)  can0  0E2   [2]  38 00
 (1653409736.428947)  can0  012   [8]  E8 03 10 00 00 00 00 00
 (1653409736.429074)  can0  0E3   [2]  38 00
 (1653409736.429995)  can0  014   [5]  FF EF FF 1A 27
 (1653409736.430114)  can0  0E4   [2]  38 00
 (1653409736.430349)  can0  1E5   [8]  1C FE A2 3F FE 00 03 35
 (1653409736.439215)  can0  012   [8]  E8 03 10 00 00 00 00 00
 (1653409736.440015)  can0  014   [5]  FE EF FF 06 27
 (1653409736.440272)  can0  1E5   [8]  1C FE A0 5F FD 00 03 52
 (1653409736.449246)  can0  012   [8]  E8 03 10 00 00 00 00 00
 (1653409736.449992)  can0  014   [5]  FE EF FF 10 27
 (1653409736.450262)  can0  1E5   [8]  1C FE 9E 7F FC 00 03 6F
 (1653409736.459251)  can0  012   [8]  E8 03 10 00 00 00 00 00
 (1653409736.460052)  can0  014   [5]  FE EF FF 10 27
 (1653409736.460276)  can0  1E5   [8]  1C FE 9E 1F FC 00 03 0F
 (1653409736.469271)  can0  012   [8]  E8 03 10 00 00 00 00 00
 (1653409736.469966)  can0  014   [5]  FE EF FF 10 27
 (1653409736.470267)  can0  1E5   [8]  1C FE 9D 3F FC 00 03 2E
 (1653409736.478995)  can0  012   [8]  E8 03 10 00 00 00 00 00
 (1653409736.479980)  can0  014   [5]  FE EF FF 10 27
 (1653409736.480277)  can0  1E5   [8]  1C FE 9D 5F FC 00 03 4E
 (1653409736.489166)  can0  012   [8]  E8 03 10 00 00 00 00 00
 (1653409736.489985)  can0  014   [5]  FE EF FF 10 27
 (1653409736.490271)  can0  1E5   [8]  1C FE 9D 7F FC 00 03 6E
 (1653409736.499159)  can0  012   [8]  E8 03 10 00 00 00 00 00
 (1653409736.500015)  can0  014   [5]  FE EF FF 10 27
 (1653409736.500272)  can0  1E5   [8]  1C FE 9D 1F FD 00 03 0F
 (1653409736.508994)  can0  012   [8]  E8 03 10 00 00 00 00 00
 (1653409736.510012)  can0  014   [5]  FE EF FF 10 27
 (1653409736.510270)  can0  1E5   [8]  1C FE 9D 3F FD 00 03 2F
 (1653409736.519170)  can0  012   [8]  E8 03 10 00 00 00 00 00
 (1653409736.520014)  can0  014   [5]  FE EF FF 10 27
 (1653409736.520315)  can0  1E5   [8]  1C FE 9D 5F FD 00 03 4F
 (1653409736.528609)  can0  010   [4]  26 73 00 00
 (1653409736.528958)  can0  012   [8]  E8 03 10 00 00 00 00 00
 (1653409736.530010)  can0  014   [5]  FE EF FF 13 27
 (1653409736.530271)  can0  1E5   [8]  1C FE 9D 7F FD 00 03 6F
 (1653409736.539160)  can0  012   [8]  E8 03 10 00 00 00 00 00
 (1653409736.539989)  can0  014   [5]  FE EF FF 0D 27
 (1653409736.540278)  can0  1E5   [8]  1C FE 9D 1F FE 00 03 10
 (1653409736.549172)  can0  012   [8]  E8 03 10 00 00 00 00 00
 (1653409736.549981)  can0  014   [5]  FE EF FF 10 27
 (1653409736.550272)  can0  1E5   [8]  1C FE 9D 3F FF 00 03 31
 (1653409736.559158)  can0  012   [8]  E8 03 10 00 00 00 00 00
 (1653409736.559995)  can0  014   [5]  FE EF FF 10 27
 (1653409736.560281)  can0  1E5   [8]  1C FE 9D 5F FF 00 03 51
 (1653409736.569066)  can0  012   [8]  E8 03 10 00 00 00 00 00
 (1653409736.570014)  can0  014   [5]  FE EF FF 10 27
 (1653409736.570261)  can0  1E5   [8]  1C FE 9D 70 00 00 02 63
 (1653409736.578983)  can0  012   [8]  E8 03 10 00 00 00 00 00
 (1653409736.579980)  can0  014   [5]  FE EF FF 10 27
 (1653409736.580276)  can0  1E5   [8]  1C FE 9D 10 00 00 02 03
 (1653409736.588983)  can0  012   [8]  E8 03 10 00 00 00 00 00
 (1653409736.590013)  can0  014   [5]  FE FF FF 10 27
 (1653409736.590253)  can0  1E5   [8]  1C FE 9D 30 00 00 02 23
 (1653409736.598978)  can0  012   [8]  E8 03 10 00 00 00 00 00
 (1653409736.599991)  can0  014   [5]  FE DF FF 10 27
 (1653409736.600272)  can0  1E5   [8]  1C FE 9D 50 00 00 02 43
 (1653409736.608993)  can0  012   [8]  E8 03 10 00 00 00 00 00
 (1653409736.609985)  can0  014   [5]  FE FF FF 10 27
 (1653409736.610261)  can0  1E5   [8]  1C FE 9D 70 00 00 02 63
 (1653409736.618984)  can0  012   [8]  E8 03 10 00 00 00 00 00
 (1653409736.619996)  can0  014   [5]  FE EF FF 10 27
 (1653409736.620262)  can0  1E5   [8]  1C FE 9E 10 00 00 02 04
 (1653409736.628567)  can0  010   [4]  26 73 00 00
 (1653409736.628934)  can0  012   [8]  E8 03 10 00 00 00 00 00
 (1653409736.629960)  can0  014   [5]  FE EF FF 13 27
 (1653409736.630256)  can0  1E5   [8]  1C FE 9D 30 00 00 02 23
 (1653409736.638947)  can0  012   [8]  E8 03 10 00 00 00 00 00
 (1653409736.639962)  can0  014   [5]  FD EF FF 0D 27
 (1653409736.640259)  can0  1E5   [8]  1C FE 9D 50 00 00 02 43
 (1653409736.648937)  can0  012   [8]  E8 03 10 00 00 00 00 00
 (1653409736.649977)  can0  014   [5]  FE EF FF 10 27
 (1653409736.650271)  can0  1E5   [8]  1C FE 9D 70 00 00 02 63
 (1653409736.658925)  can0  012   [8]  E8 03 10 00 00 00 00 00
 (1653409736.659966)  can0  014   [5]  FE EF FF 10 27
 (1653409736.660260)  can0  1E5   [8]  1C FE 9D 10 00 00 02 03
 (1653409736.668937)  can0  012   [8]  E8 03 10 00 00 00 00 00
 (1653409736.669974)  can0  014   [5]  FE EF FF 10 27
 (1653409736.670253)  can0  1E5   [8]  1C FE 9D 30 00 00 02 23
 (1653409736.678931)  can0  012   [8]  E8 03 10 00 00 00 00 00
 (1653409736.679961)  can0  014   [5]  FE DF FF 10 27
 (1653409736.680254)  can0  1E5   [8]  1C FE 9E 50 00 00 02 44
 (1653409736.688941)  can0  012   [8]  E8 03 10 00 00 00 00 00
 (1653409736.689961)  can0  014   [5]  FE EF FF 10 27
 (1653409736.690255)  can0  1E5   [8]  1C FE 9E 70 00 00 02 64
 (1653409736.698935)  can0  012   [8]  E8 03 10 00 00 00 00 00
 (1653409736.699977)  can0  014   [5]  FE EF FF 10 27
 (1653409736.700253)  can0  1E5   [8]  1C FE 9D 10 00 00 02 03
 (1653409736.708930)  can0  012   [8]  E8 03 10 00 00 00 00 00
 (1653409736.709971)  can0  014   [5]  FE EF FF 10 27
 (1653409736.710265)  can0  1E5   [8]  1C FE 9E 30 00 00 02 24
 (1653409736.718942)  can0  012   [8]  E8 03 10 00 00 00 00 00
 (1653409736.719977)  can0  014   [5]  FE EF FF 10 27
 (1653409736.720253)  can0  1E5   [8]  1C FE 9E 50 00 00 02 44
 (1653409736.728555)  can0  010   [4]  26 73 00 00
 (1653409736.728936)  can0  012   [8]  E8 03 10 00 00 00 00 00
 (1653409736.729964)  can0  014   [5]  FD EF FF 13 27
 (1653409736.730251)  can0  1E5   [8]  1C FE 9D 70 00 00 02 63
 (1653409736.738992)  can0  012   [8]  E8 03 10 00 00 00 00 00
 (1653409736.739983)  can0  014   [5]  FE EF FF 0D 27
 (1653409736.740259)  can0  1E5   [8]  1C FE 9D 10 00 00 02 03
 (1653409736.748992)  can0  012   [8]  E8 03 10 00 00 00 00 00
 (1653409736.750005)  can0  014   [5]  FE EF FF 10 27
 (1653409736.750270)  can0  1E5   [8]  1C FE 9E 30 00 00 02 24
 (1653409736.758987)  can0  012   [8]  E8 03 10 00 00 00 00 00
 (1653409736.759985)  can0  014   [5]  FE DF FF 10 27
 (1653409736.760278)  can0  1E5   [8]  1C FE 9E 50 00 00 02 44
 (1653409736.768998)  can0  012   [8]  E8 03 10 00 00 00 00 00
 (1653409736.769977)  can0  014   [5]  FE EF FF 10 27
 (1653409736.770268)  can0  1E5   [8]  1C FE 9E 70 00 00 02 64
 (1653409736.779019)  can0  012   [8]  E8 03 10 00 00 00 00 00
 (1653409736.780009)  can0  014   [5]  FE EF FF 10 27
 (1653409736.780268)  can0  1E5   [8]  1C FE 9E 10 00 00 02 04
 (1653409736.788994)  can0  012   [8]  E8 03 10 00 00 00 00 00
 (1653409736.789988)  can0  014   [5]  FD EF FF 10 27
 (1653409736.790259)  can0  1E5   [8]  1C FE 9E 30 00 00 02 24
 (1653409736.798989)  can0  012   [8]  E8 03 10 00 00 00 00 00
 (1653409736.799988)  can0  014   [5]  FE EF FF 10 27
 (1653409736.800251)  can0  1E5   [8]  1C FE 9E 50 00 00 02 44
 (1653409736.809002)  can0  012   [8]  E8 03 10 00 00 00 00 00
 (1653409736.809990)  can0  014   [5]  FE DF FF 10 27
 (1653409736.810259)  can0  1E5   [8]  1C FE 9E 70 00 00 02 64
 (1653409736.818996)  can0  012   [8]  E8 03 10 00 00 00 00 00
 (1653409736.820017)  can0  014   [5]  FE EF FF 10 27
 (1653409736.820270)  can0  1E5   [8]  1C FE 9E 10 00 00 02 04
 (1653409736.828612)  can0  010   [4]  26 73 00 00
 (1653409736.829065)  can0  012   [8]  E8 03 10 00 00 00 00 00
 (1653409736.830009)  can0  014   [5]  FE EF FF 13 27
 (1653409736.830263)  can0  1E5   [8]  1C FE 9E 30 00 00 02 24
 (1653409736.839007)  can0  012   [8]  E8 03 10 00 00 00 00 00
 (1653409736.839984)  can0  014   [5]  FD EF FF 0D 27
 (1653409736.840356)  can0  1E5   [8]  1C FE 9E 50 00 00 02 44
 (1653409736.848987)  can0  012   [8]  E8 03 10 00 00 00 00 00
 (1653409736.849971)  can0  014   [5]  FE DF FF 10 27
 (1653409736.850257)  can0  1E5   [8]  1C FE 9E 70 00 00 02 64
 (1653409736.858983)  can0  012   [8]  E8 03 10 00 00 00 00 00
 (1653409736.860007)  can0  014   [5]  FE EF FF 10 27
 (1653409736.860270)  can0  1E5   [8]  1C FE 9E 10 00 00 02 04
 (1653409736.868994)  can0  012   [8]  E8 03 10 00 00 00 00 00
 (1653409736.869972)  can0  014   [5]  FE EF FF 10 27
 (1653409736.870321)  can0  1E5   [8]  1C FE 9E 30 00 00 02 24
 (1653409736.878988)  can0  012   [8]  E8 03 10 00 00 00 00 00
 (1653409736.879979)  can0  014   [5]  FD DF FF 10 27
 (1653409736.880263)  can0  1E5   [8]  1C FE 9E 50 00 00 02 44
 (1653409736.889001)  can0  012   [8]  E8 03 10 00 00 00 00 00
 (1653409736.889977)  can0  014   [5]  FE EF FF 10 27
 (1653409736.890263)  can0  1E5   [8]  1C FE 9E 70 00 00 02 64
 (1653409736.899026)  can0  012   [8]  E8 03 10 00 00 00 00 00
 (1653409736.899987)  can0  014   [5]  FE EF FF 10 27
 (1653409736.900255)  can0  1E5   [8]  1C FE 9E 10 00 00 02 04
 (1653409736.908990)  can0  012   [8]  E8 03 10 00 00 00 00 00
 (1653409736.909983)  can0  014   [5]  FD EF FF 10 27
 (1653409736.910269)  can0  1E5   [8]  1C FE 9E 30 00 00 02 24
 (1653409736.919004)  can0  012   [8]  E8 03 10 00 00 00 00 00
 (1653409736.919977)  can0  014   [5]  FE DF FF 10 27
 (1653409736.920356)  can0  1E5   [8]  1C FE 9E 50 00 00 02 44
 (1653409736.928611)  can0  010   [4]  26 73 00 00
 (1653409736.928962)  can0  012   [8]  E8 03 10 00 00 00 00 00
 (1653409736.930020)  can0  014   [5]  FE EF FF 13 27
 (1653409736.930264)  can0  1E5   [8]  1C FE 9E 70 00 00 02 64
 (1653409736.936887)  can0  0F0   [1]  01
 (1653409736.937769)  can0  011   [2]  51 01
 (1653409736.938622)  can0  013   [1]  00
 (1653409736.939031)  can0  012   [8]  E8 03 10 00 00 00 00 00
 (1653409736.940022)  can0  014   [5]  FE EF FF 19 27
 (1653409736.940252)  can0  1E5   [8]  1C FE 9E 10 00 00 02 04
 (1653409736.948957)  can0  012   [8]  E8 03 10 00 00 00 00 00
 (1653409736.949985)  can0  014   [5]  FD DF FF 04 27
 (1653409736.950264)  can0  1E5   [8]  1C FE 9E 30 00 00 02 24
 (1653409736.958981)  can0  012   [8]  E8 03 10 00 00 00 00 00
 (1653409736.960009)  can0  014   [5]  FE EF FF 10 27
 (1653409736.960252)  can0  1E5   [8]  1C FE 9E 50 00 00 02 44
 (1653409736.968987)  can0  012   [8]  E8 03 10 00 00 00 00 00
 (1653409736.970008)  can0  014   [5]  FE DF FF 10 27
 (1653409736.970272)  can0  1E5   [8]  1C FE 9E 70 00 00 02 64
 (1653409736.978973)  can0  012   [8]  E8 03 10 00 00 00 00 00
 (1653409736.979975)  can0  014   [5]  FD EF FF 10 27
 (1653409736.980244)  can0  1E5   [8]  1C FE 9E 10 00 00 02 04
 (1653409736.988974)  can0  012   [8]  E8 03 10 00 00 00 00 00
 (1653409736.989989)  can0  014   [5]  FE EF FF 10 27
 (1653409736.990250)  can0  1E5   [8]  1C FE 9E 30 00 00 02 24
 (1653409736.998974)  can0  012   [8]  E8 03 10 00 00 00 00 00
 (1653409736.999992)  can0  014   [5]  FD DF FF 10 27
 (1653409737.000246)  can0  1E5   [8]  1C FE 9E 50 00 00 02 44
 (1653409737.008995)  can0  012   [8]  E8 03 10 00 00 00 00 00
 (1653409737.010021)  can0  014   [5]  FE EF FF 10 27
 (1653409737.010255)  can0  1E5   [8]  1C FE 9E 70 00 00 02 64
 (1653409737.018978)  can0  012   [8]  E8 03 10 00 00 00 00 00
 (1653409737.019985)  can0  014   [5]  FE DF FF 10 27
 (1653409737.020254)  can0  1E5   [8]  1C FE 9E 10 00 00 02 04
 (1653409737.028597)  can0  010   [4]  73 E7 32 00
 (1653409737.028946)  can0  012   [8]  E8 03 10 00 00 00 00 00
 (1653409737.030040)  can0  014   [5]  FD EF FF 13 27
 (1653409737.030261)  can0  1E5   [8]  1C FE 9E 30 00 00 02 24
 (1653409737.038712)  can0  0F0   [1]  01
 (1653409737.039028)  can0  012   [8]  E8 03 10 00 00 00 00 00
 (1653409737.039685)  can0  011   [2]  00 01
 (1653409737.039987)  can0  014   [5]  FE DF FF 10 27
 (1653409737.040237)  can0  1E5   [8]  1C FE 9E 50 00 00 02 44
 (1653409737.040509)  can0  013   [1]  3C
 (1653409737.048988)  can0  012   [8]  E8 03 10 00 5C 0F 05 00
 (1653409737.050020)  can0  014   [5]  FD EF FF 13 27
 (1653409737.050252)  can0  1E5   [8]  1C FE 9E 70 00 00 02 64
 (1653409737.058966)  can0  012   [8]  E8 03 10 00 2E 1D 0B 00
 (1653409737.059977)  can0  014   [5]  FE DF FF 0A 27
 (1653409737.060266)  can0  1E5   [8]  1C FE A0 10 01 00 02 07
 (1653409737.068965)  can0  012   [8]  E8 03 10 00 9F 29 10 00
 (1653409737.070006)  can0  014   [5]  FD EF FF 10 27
 (1653409737.070246)  can0  1E5   [8]  1C FE 9E 30 00 00 02 24
 (1653409737.078952)  can0  012   [8]  E8 03 10 00 D2 34 14 00
 (1653409737.079981)  can0  014   [5]  FE DF FF 10 27
 (1653409737.080234)  can0  1E5   [8]  1C FE 9E 50 00 00 02 44
 (1653409737.088946)  can0  012   [8]  E8 03 10 00 E6 3E 18 00
 (1653409737.089971)  can0  014   [5]  FD EF FF 10 27
 (1653409737.090263)  can0  1E5   [8]  1C FE 9E 70 00 00 02 64
 (1653409737.098976)  can0  012   [8]  E8 03 10 00 F8 47 1C 00
 (1653409737.099980)  can0  014   [5]  FE DF FF 10 27
 (1653409737.100257)  can0  1E5   [8]  1C FE 9E 10 00 00 02 04
 (1653409737.108947)  can0  012   [8]  E8 03 10 00 21 50 1F 00
 (1653409737.109984)  can0  014   [5]  FD EF FF 10 27
 (1653409737.110250)  can0  1E5   [8]  1C FE 9E 30 00 00 02 24
 (1653409737.118939)  can0  012   [8]  E8 03 10 00 7A 57 22 00
 (1653409737.119967)  can0  014   [5]  FE DF FF 10 27
 (1653409737.120255)  can0  1E5   [8]  1C FE 9E 50 00 00 02 44
 (1653409737.128574)  can0  010   [4]  26 73 00 00
 (1653409737.128932)  can0  012   [8]  E8 03 10 00 17 5E 24 00
 (1653409737.129985)  can0  014   [5]  FD DF FF 16 27
 (1653409737.130254)  can0  1E5   [8]  1C FE A0 70 00 00 02 66
 (1653409737.138979)  can0  012   [8]  E8 03 10 00 0A 64 27 00
 (1653409737.139985)  can0  014   [5]  FE EF FF 0A 27
 (1653409737.140251)  can0  1E5   [8]  1C FE A0 10 00 00 02 06
 (1653409737.140490)  can0  0F0   [1]  01
 (1653409737.141424)  can0  011   [2]  00 01
 (1653409737.141606)  can0  013   [1]  3C
 (1653409737.148947)  can0  012   [8]  E8 03 10 00 65 69 29 00
 (1653409737.149999)  can0  014   [5]  FD EF FF 19 27
 (1653409737.150271)  can0  1E5   [8]  1C FE 9E 30 00 00 02 24
 (1653409737.158938)  can0  012   [8]  E8 03 10 00 37 6E 2B 00
 (1653409737.159975)  can0  014   [5]  FE DF FF 07 27
 (1653409737.160266)  can0  1E5   [8]  1C FE 9E 50 00 00 02 44
 (1653409737.168955)  can0  012   [8]  E8 03 10 00 8E 72 2C 00
 (1653409737.169984)  can0  014   [5]  FD EF FF 10 27
 (1653409737.170254)  can0  1E5   [8]  1C FE A0 70 00 00 02 66
 (1653409737.178926)  can0  012   [8]  E8 03 10 00 75 76 2E 00
 (1653409737.179974)  can0  014   [5]  FE DF FF 10 27
 (1653409737.180264)  can0  1E5   [8]  1C FE A0 10 00 00 02 06
 (1653409737.188955)  can0  012   [8]  E8 03 10 00 F9 79 2F 00
 (1653409737.189979)  can0  014   [5]  FD DF FF 10 27
 (1653409737.190241)  can0  1E5   [8]  1C FE A0 30 00 00 02 26
 (1653409737.198936)  can0  012   [8]  E8 03 10 00 22 7D 30 00
 (1653409737.199994)  can0  014   [5]  FE EF FF 10 27
 (1653409737.200258)  can0  1E5   [8]  1C FE 9E 50 00 00 02 44
 (1653409737.208969)  can0  012   [8]  E8 03 10 00 FB 7F 31 00
 (1653409737.209988)  can0  014   [5]  FD DF FF 10 27
 (1653409737.210240)  can0  1E5   [8]  1C FE A0 70 00 00 02 66
 (1653409737.218942)  can0  012   [8]  E8 03 10 00 8B 82 32 00
 (1653409737.219986)  can0  014   [5]  FD DF FF 10 27
 (1653409737.220257)  can0  1E5   [8]  1C FE A0 10 00 00 02 06
 (1653409737.228594)  can0  010   [4]  26 73 00 00
 (1653409737.228934)  can0  012   [8]  E8 03 10 00 D9 84 33 00
 (1653409737.229991)  can0  014   [5]  FE EF FF 13 27
 (1653409737.230242)  can0  1E5   [8]  1C FE 9E 30 00 00 02 24
 (1653409737.238970)  can0  012   [8]  E8 03 10 00 EC 86 34 00
 (1653409737.239972)  can0  014   [5]  FD DF FF 0D 27
 (1653409737.240240)  can0  1E5   [8]  1C FE 9E 50 00 00 02 44
 (1653409737.242333)  can0  0F0   [1]  01
 (1653409737.243383)  can0  011   [2]  00 01
 (1653409737.244328)  can0  013   [1]  3C
 (1653409737.248949)  can0  012   [8]  E8 03 10 00 CA 88 35 00
 (1653409737.249981)  can0  014   [5]  FD DF FF 19 27
 (1653409737.250246)  can0  1E5   [8]  1C FE A0 70 00 00 02 66
 (1653409737.258973)  can0  012   [8]  E8 03 10 00 78 8A 36 00
 (1653409737.260024)  can0  014   [5]  FE EF FF 07 27
 (1653409737.260249)  can0  1E5   [8]  1C FE 9E 10 00 00 02 04
 (1653409737.268970)  can0  012   [8]  E8 03 10 00 FC 8B 36 00
 (1653409737.269980)  can0  014   [5]  FE EF FF 10 27
 (1653409737.270234)  can0  1E5   [8]  1C FE A0 30 00 00 02 26
 (1653409737.278965)  can0  012   [8]  E8 03 10 00 58 8D 37 00
 (1653409737.279981)  can0  014   [5]  FE FF FF 10 27
 (1653409737.280233)  can0  1E5   [8]  1C FE 9E 50 00 00 02 44
 (1653409737.288965)  can0  012   [8]  E8 03 10 00 92 8E 37 00
 (1653409737.289986)  can0  014   [5]  FE EF FF 10 27
 (1653409737.290257)  can0  1E5   [8]  1C FE 9E 70 00 00 02 64
 (1653409737.298964)  can0  012   [8]  E8 03 10 00 AC 8F 38 00
 (1653409737.299993)  can0  014   [5]  FE EF FF 10 27
 (1653409737.300245)  can0  1E5   [8]  1C FE 9E 10 00 00 02 04
 (1653409737.308978)  can0  012   [8]  E8 03 10 00 AA 90 38 00
 (1653409737.310005)  can0  014   [5]  FE FF FF 10 27
 (1653409737.310248)  can0  1E5   [8]  1C FE 9E 30 00 00 02 24
 (1653409737.318952)  can0  012   [8]  E8 03 10 00 8F 91 38 00
 (1653409737.319989)  can0  014   [5]  FF FF FF 10 27
 (1653409737.320237)  can0  1E5   [8]  1C FE 9E 50 00 00 02 44
 (1653409737.328600)  can0  010   [4]  26 73 00 00
 (1653409737.328954)  can0  012   [8]  E8 03 10 00 5C 92 39 00
 (1653409737.329992)  can0  014   [5]  00 00 00 13 27
 (1653409737.330251)  can0  1E5   [8]  1C FE A0 70 00 00 02 66
 (1653409737.338951)  can0  012   [8]  E8 03 10 00 16 93 39 00
 (1653409737.339987)  can0  014   [5]  FF 0F 00 0D 27
 (1653409737.340249)  can0  1E5   [8]  1C FE A0 10 00 00 02 06
 (1653409737.344448)  can0  0F0   [1]  01
 (1653409737.345413)  can0  011   [2]  00 01
 (1653409737.345624)  can0  013   [1]  3C
 (1653409737.348987)  can0  012   [8]  E8 03 10 00 BC 93 39 00
 (1653409737.349993)  can0  014   [5]  01 F0 FF 19 27
 (1653409737.350226)  can0  1E5   [8]  1C FE A0 30 00 00 02 26
 (1653409737.359139)  can0  012   [8]  E8 03 10 00 52 94 39 00
 (1653409737.359966)  can0  014   [5]  00 F0 FF 07 27
 (1653409737.360227)  can0  1E5   [8]  1C FE A0 50 00 00 02 46
 (1653409737.368964)  can0  012   [8]  E8 03 10 00 D9 94 3A 00
 (1653409737.369982)  can0  014   [5]  00 F0 FF 10 27
 (1653409737.370239)  can0  1E5   [8]  1C FE A0 70 00 00 02 66
 (1653409737.379145)  can0  012   [8]  E8 03 10 00 53 95 3A 00
 (1653409737.379966)  can0  014   [5]  00 00 00 10 27
 (1653409737.380232)  can0  1E5   [8]  1C FE A0 10 00 00 02 06
 (1653409737.389143)  can0  012   [8]  E8 03 10 00 C0 95 3A 00
 (1653409737.390032)  can0  014   [5]  00 F0 FF 10 27
 (1653409737.390239)  can0  1E5   [8]  1C FE A0 30 00 00 02 26
 (1653409737.398967)  can0  012   [8]  E8 03 10 00 23 96 3A 00
 (1653409737.399986)  can0  014   [5]  00 00 00 10 27
 (1653409737.400227)  can0  1E5   [8]  1C FE A2 50 01 00 02 49
 (1653409737.408971)  can0  012   [8]  E8 03 10 00 7B 96 3A 00
 (1653409737.409996)  can0  014   [5]  00 00 00 10 27
 (1653409737.410234)  can0  1E5   [8]  1C FE A0 70 00 00 02 66
 (1653409737.418966)  can0  012   [8]  E8 03 10 00 CB 96 3A 00
 (1653409737.420007)  can0  014   [5]  00 00 00 10 27
 (1653409737.420240)  can0  1E5   [8]  1C FE A2 10 00 00 02 08
 (1653409737.428597)  can0  010   [4]  26 73 00 00
 (1653409737.428689)  can0  0E2   [2]  62 00
 (1653409737.428933)  can0  012   [8]  E8 03 10 00 13 97 3B 00
 (1653409737.429061)  can0  0E3   [2]  62 00
 (1653409737.429992)  can0  014   [5]  00 00 00 18 27
 (1653409737.430108)  can0  0E4   [2]  62 00
 (1653409737.430357)  can0  1E5   [8]  1C FE A0 30 00 00 02 26
 (1653409737.439220)  can0  012   [8]  E8 03 10 00 53 97 3B 00
 (1653409737.439975)  can0  014   [5]  00 00 00 08 27
 (1653409737.440238)  can0  1E5   [8]  1C FE A0 50 00 00 02 46
 (1653409737.446236)  can0  0F0   [1]  01
 (1653409737.447299)  can0  011   [2]  41 01
 (1653409737.447454)  can0  013   [1]  00
 (1653409737.448980)  can0  012   [8]  E8 03 10 00 31 88 35 00
 (1653409737.449990)  can0  014   [5]  00 00 00 19 27
 (1653409737.450244)  can0  1E5   [8]  1C FE A0 70 00 00 02 66
 (1653409737.459171)  can0  012   [8]  E8 03 10 00 93 7A 2F 00
 (1653409737.459977)  can0  014   [5]  FF 0F 00 07 27
 (1653409737.460243)  can0  1E5   [8]  1C FE A0 10 00 00 02 06
 (1653409737.469284)  can0  012   [8]  E8 03 10 00 51 6E 2B 00
 (1653409737.469966)  can0  014   [5]  00 F0 FF 10 27
 (1653409737.470227)  can0  1E5   [8]  1C FE A0 30 00 00 02 26
 (1653409737.478973)  can0  012   [8]  E8 03 10 00 49 63 26 00
 (1653409737.479993)  can0  014   [5]  FF 0F 00 10 27
 (1653409737.480233)  can0  1E5   [8]  1C FE A0 50 00 00 02 46
 (1653409737.488962)  can0  012   [8]  E8 03 10 00 5B 59 22 00
 (1653409737.489987)  can0  014   [5]  FF FF FF 10 27
 (1653409737.490245)  can0  1E5   [8]  1C FE A0 70 00 00 02 66
 (1653409737.498963)  can0  012   [8]  E8 03 10 00 6B 50 1F 00
 (1653409737.500012)  can0  014   [5]  FF 0F 00 10 27
 (1653409737.500226)  can0  1E5   [8]  1C FE A0 10 00 00 02 06
 (1653409737.508971)  can0  012   [8]  E8 03 10 00 61 48 1C 00
 (1653409737.509978)  can0  014   [5]  00 00 00 10 27
 (1653409737.510237)  can0  1E5   [8]  1C FE A0 30 00 00 02 26
 (1653409737.518972)  can0  012   [8]  E8 03 10 00 24 41 19 00
 (1653409737.520019)  can0  014   [5]  FF FF FF 10 27
 (1653409737.520227)  can0  1E5   [8]  1C FE A0 50 00 00 02 46
 (1653409737.528594)  can0  010   [4]  73 E7 32 01
 (1653409737.528914)  can0  012   [8]  E8 03 10 00 A0 3A 16 00
 (1653409737.529997)  can0  014   [5]  00 F0 FF 13 27
 (1653409737.530227)  can0  1E5   [8]  1C FE A0 70 00 00 02 66
 (1653409737.538977)  can0  012   [8]  E8 03 10 00 C3 34 14 00
 (1653409737.540006)  can0  014   [5]  FF 0F 00 0D 27
 (1653409737.540233)  can0  1E5   [8]  1C FE A0 10 00 00 02 06
 (1653409737.547718)  can0  0F0   [1]  01
 (1653409737.548591)  can0  011   [2]  00 01
 (1653409737.548794)  can0  013   [1]  3C
 (1653409737.548971)  can0  012   [8]  E8 03 10 00 7C 2F 12 00
 (1653409737.549985)  can0  014   [5]  00 F0 FF 19 27
 (1653409737.550233)  can0  1E5   [8]  1C FE A0 30 00 00 02 26
 (1653409737.558980)  can0  012   [8]  E8 03 10 00 19 3A 16 00
 (1653409737.559977)  can0  014   [5]  00 00 00 07 27
 (1653409737.560232)  can0  1E5   [8]  1C FE A0 50 00 00 02 46
 (1653409737.568950)  can0  012   [8]  E8 03 10 00 A6 43 1A 00
 (1653409737.570005)  can0  014   [5]  FF 0F 00 10 27
 (1653409737.570243)  can0  1E5   [8]  1C FE A0 70 00 00 02 66
 (1653409737.578976)  can0  012   [8]  E8 03 10 00 3E 4C 1D 00
 (1653409737.580011)  can0  014   [5]  00 00 00 10 27
 (1653409737.580227)  can0  1E5   [8]  1C FE 9E 1F FF 00 03 12
 (1653409737.588975)  can0  012   [8]  E8 03 10 00 FA 53 20 00
 (1653409737.590004)  can0  014   [5]  00 00 00 10 27
 (1653409737.590215)  can0  1E5   [8]  1C FE 9E 3F FF 00 03 32
 (1653409737.598963)  can0  012   [8]  E8 03 10 00 F0 5A 23 00
 (1653409737.599994)  can0  014   [5]  00 00 00 10 27
 (1653409737.600226)  can0  1E5   [8]  1C FE 9E 5F FF 00 03 52
 (1653409737.608931)  can0  012   [8]  E8 03 10 00 34 61 25 00
 (1653409737.610019)  can0  014   [5]  00 10 00 10 27
 (1653409737.610247)  can0  1E5   [8]  1C FE 9E 7F FF 00 03 72
 (1653409737.618960)  can0  012   [8]  E8 03 10 00 D8 66 28 00
 (1653409737.619982)  can0  014   [5]  00 00 00 10 27
 (1653409737.620222)  can0  1E5   [8]  1C FE 9E 1F FF 00 03 12
 (1653409737.628599)  can0  010   [4]  26 73 00 01
 (1653409737.628933)  can0  012   [8]  E8 03 10 00 EB 6B 2A 00
 (1653409737.629998)  can0  014   [5]  00 00 00 13 27
 (1653409737.630230)  can0  1E5   [8]  1C FE 9D 3F FE 00 03 30
 (1653409737.638950)  can0  012   [8]  E8 03 10 00 7D 70 2B 00
 (1653409737.639989)  can0  014   [5]  01 00 00 0D 27
 (1653409737.640233)  can0  1E5   [8]  1C FE 9D 5F FE 00 03 50
 (1653409737.648962)  can0  0F0   [1]  01
 (1653409737.648982)  can0  012   [8]  E8 03 10 00 99 74 2D 00
 (1653409737.650034)  can0  014   [5]  00 10 00 13 27
 (1653409737.650051)  can0  011   [2]  3C 01
 (1653409737.650172)  can0  013   [1]  00
 (1653409737.650221)  can0  1E5   [8]  1C FE 9B 7F FD 00 03 6D
 (1653409737.658954)  can0  012   [8]  E8 03 10 00 F0 68 28 00
 (1653409737.659971)  can0  014   [5]  01 00 00 12 27
 (1653409737.660228)  can0  1E5   [8]  1C FE 9B 1F FD 00 03 0D
 (1653409737.668939)  can0  012   [8]  E8 03 10 00 72 5E 24 00
 (1653409737.669971)  can0  014   [5]  00 00 00 0B 27
 (1653409737.670219)  can0  1E5   [8]  1C FE 9B 3F FD 00 03 2D
 (1653409737.678930)  can0  012   [8]  E8 03 10 00 00 55 21 00
 (1653409737.679970)  can0  014   [5]  00 00 00 10 27
 (1653409737.680216)  can0  1E5   [8]  1C FE 9A 5F FD 00 03 4C
 (1653409737.688947)  can0  012   [8]  E8 03 10 00 80 4C 1D 00
 (1653409737.689975)  can0  014   [5]  00 00 00 10 27
 (1653409737.690230)  can0  1E5   [8]  1C FE 9A 7F FD 00 03 6C
 (1653409737.698922)  can0  012   [8]  E8 03 10 00 D9 44 1A 00
 (1653409737.699966)  can0  014   [5]  00 00 00 10 27
 (1653409737.700225)  can0  1E5   [8]  1C FE 9A 1F FD 00 03 0C
 (1653409737.708956)  can0  012   [8]  E8 03 10 00 F7 3D 18 00
 (1653409737.709973)  can0  014   [5]  00 00 00 10 27
 (1653409737.710232)  can0  1E5   [8]  1C FE 9A 3F FD 00 03 2C
 (1653409737.719139)  can0  012   [8]  E8 03 10 00 C4 37 15 00
 (1653409737.720019)  can0  014   [5]  00 00 00 10 27
 (1653409737.720240)  can0  1E5   [8]  1C FE 98 5F FC 00 03 49
 (1653409737.728790)  can0  010   [4]  73 E7 32 01
 (1653409737.728919)  can0  012   [8]  E8 03 10 00 31 32 13 00
 (1653409737.730008)  can0  014   [5]  00 10 00 13 27
 (1653409737.730224)  can0  1E5   [8]  1C FE 98 7F FD 00 03 6A
 (1653409737.739141)  can0  012   [8]  E8 03 10 00 2C 2D 11 00
 (1653409737.740020)  can0  014   [5]  00 00 00 0D 27
 (1653409737.740236)  can0  1E5   [8]  1C FE 98 1F FD 00 03 0A
 (1653409737.748942)  can0  012   [8]  E8 03 10 00 A7 28 0F 00
 (1653409737.749973)  can0  014   [5]  00 00 00 10 27
 (1653409737.750222)  can0  1E5   [8]  1C FE 96 3F FD 00 03 28
 (1653409737.750324)  can0  0F0   [1]  01
 (1653409737.751003)  can0  011   [2]  3B 01
 (1653409737.751238)  can0  013   [1]  00
 (1653409737.758941)  can0  012   [8]  E8 03 10 00 97 24 0E 00
 (1653409737.759973)  can0  014   [5]  01 00 00 19 27
 (1653409737.760232)  can0  1E5   [8]  1C FE 96 5F FD 00 03 48
 (1653409737.768942)  can0  012   [8]  E8 03 10 00 EE 20 0C 00
 (1653409737.769972)  can0  014   [5]  00 10 00 07 27
 (1653409737.770243)  can0  1E5   [8]  1C FE 96 7F FD 00 03 68
 (1653409737.778923)  can0  012   [8]  E8 03 10 00 A3 1D 0B 00
 (1653409737.779981)  can0  014   [5]  00 F0 FF 10 27
 (1653409737.780224)  can0  1E5   [8]  1C FE 95 1F FD 00 03 07
 (1653409737.788950)  can0  012   [8]  E8 03 10 00 AC 1A 0A 00
 (1653409737.789984)  can0  014   [5]  00 10 00 10 27
 (1653409737.790231)  can0  1E5   [8]  1C FE 95 3F FD 00 03 27
 (1653409737.798934)  can0  012   [8]  E8 03 10 00 01 18 09 00
 (1653409737.799965)  can0  014   [5]  02 10 00 10 27
 (1653409737.800228)  can0  1E5   [8]  1C FE 93 5F FC 00 03 44
 (1653409737.808937)  can0  012   [8]  E8 03 10 00 9B 15 08 00
 (1653409737.809976)  can0  014   [5]  02 10 00 10 27
 (1653409737.810237)  can0  1E5   [8]  1C FE 93 7F FC 00 03 64
 (1653409737.818941)  can0  012   [8]  E8 03 10 00 72 13 07 00
 (1653409737.819974)  can0  014   [5]  03 30 00 10 27
 (1653409737.820223)  can0  1E5   [8]  1C FE 92 1F FC 00 03 03
 (1653409737.828571)  can0  010   [4]  73 E7 32 01
 (1653409737.828934)  can0  012   [8]  E8 03 10 00 80 11 06 00
 (1653409737.829968)  can0  014   [5]  03 20 00 13 27
 (1653409737.830234)  can0  1E5   [8]  1C FE 92 3F FC 00 03 23
 (1653409737.839139)  can0  012   [8]  E8 03 10 00 C0 0F 06 00
 (1653409737.839999)  can0  014   [5]  03 30 00 0D 27
 (1653409737.840242)  can0  1E5   [8]  1C FE 90 5F FB 00 03 40
 (1653409737.849145)  can0  012   [8]  E8 03 10 00 2C 0E 05 00
 (1653409737.849997)  can0  014   [5]  03 10 00 10 27
 (1653409737.850235)  can0  1E5   [8]  1C FE 90 7F FC 00 03 61
 (1653409737.851918)  can0  0F0   [1]  01
 (1653409737.853050)  can0  011   [2]  35 01
 (1653409737.853779)  can0  013   [1]  00
 (1653409737.859159)  can0  012   [8]  E8 03 10 00 C2 0C 04 00
 (1653409737.860002)  can0  014   [5]  FE EF FF 19 27
 (1653409737.860226)  can0  1E5   [8]  1C FE 8E 1F FB 00 02 FE
 (1653409737.869145)  can0  012   [8]  E8 03 10 00 7B 0B 04 00
 (1653409737.869992)  can0  014   [5]  FE EF FF 07 27
 (1653409737.870218)  can0  1E5   [8]  1C FE 8E 3F FB 00 03 1E
 (1653409737.879150)  can0  012   [8]  E8 03 10 00 55 0A 04 00
 (1653409737.879970)  can0  014   [5]  01 20 00 10 27
 (1653409737.880229)  can0  1E5   [8]  1C FE 8E 5F FC 00 03 3F
 (1653409737.888970)  can0  012   [8]  E8 03 10 00 4C 09 03 00
 (1653409737.890011)  can0  014   [5]  03 20 00 10 27
 (1653409737.890219)  can0  1E5   [8]  1C FE 8E 7F FC 00 03 5F
 (1653409737.898972)  can0  012   [8]  E8 03 10 00 5E 08 03 00
 (1653409737.900017)  can0  014   [5]  03 20 00 10 27
 (1653409737.900220)  can0  1E5   [8]  1C FE 8E 1F FD 00 03 00
 (1653409737.909149)  can0  012   [8]  E8 03 10 00 88 07 02 00
 (1653409737.910008)  can0  014   [5]  01 10 00 10 27
 (1653409737.910219)  can0  1E5   [8]  1C FE 8D 3F FC 00 03 1E
 (1653409737.919155)  can0  012   [8]  E8 03 10 00 C7 06 02 00
 (1653409737.920013)  can0  014   [5]  02 10 00 10 27
 (1653409737.920230)  can0  1E5   [8]  1C FE 8D 5F FD 00 03 3F
 (1653409737.928599)  can0  010   [4]  73 E7 32 01
 (1653409737.928950)  can0  012   [8]  E8 03 10 00 1A 06 02 00
 (1653409737.929969)  can0  014   [5]  00 00 00 13 27
 (1653409737.930216)  can0  1E5   [8]  1C FE 8D 7F FD 00 03 5F
 (1653409737.938943)  can0  012   [8]  E8 03 10 00 7D 05 02 00
 (1653409737.939972)  can0  014   [5]  00 00 00 0D 27
 (1653409737.940222)  can0  1E5   [8]  1C FE 8D 1F FE 00 03 00
 (1653409737.948940)  can0  012   [8]  E8 03 10 00 F1 04 01 00
 (1653409737.949982)  can0  014   [5]  FF FF FF 10 27
 (1653409737.950238)  can0  1E5   [8]  1C FE 8E 30 00 00 02 14
 (1653409737.953929)  can0  0F0   [1]  01
 (1653409737.954770)  can0  011   [2]  37 01
 (1653409737.954904)  can0  013   [1]  00
 (1653409737.958947)  can0  012   [8]  E8 03 10 00 72 04 01 00
 (1653409737.959974)  can0  014   [5]  FF FF FF 19 27
 (1653409737.960222)  can0  1E5   [8]  1C FE 8E 50 00 00 02 34
 (1653409737.968946)  can0  012   [8]  E8 03 10 00 00 04 01 00
 (1653409737.969975)  can0  014   [5]  FF FF FF 07 27
 (1653409737.970227)  can0  1E5   [8]  1C FE 8E 70 00 00 02 54
 (1653409737.978937)  can0  012   [8]  E8 03 10 00 9A 03 01 00
 (1653409737.979986)  can0  014   [5]  FF 0F 00 10 27
 (1653409737.980233)  can0  1E5   [8]  1C FE 8E 10 00 00 01 F4
 (1653409737.988935)  can0  012   [8]  E8 03 10 00 3E 03 01 00
 (1653409737.989960)  can0  014   [5]  00 00 00 10 27
 (1653409737.990221)  can0  1E5   [8]  1C FE 8E 30 00 00 02 14
 (1653409737.998962)  can0  012   [8]  E8 03 10 00 EB 02 01 00
 (1653409737.999972)  can0  014   [5]  00 00 00 10 27
 (1653409738.000230)  can0  1E5   [8]  1C FE 8E 50 00 00 02 34
 (1653409738.008931)  can0  012   [8]  E8 03 10 00 A0 02 01 00
 (1653409738.009972)  can0  014   [5]  01 00 00 10 27
 (1653409738.010213)  can0  1E5   [8]  1C FE 8E 70 00 00 02 54
 (1653409738.018935)  can0  012   [8]  E8 03 10 00 5D 02 00 00
 (1653409738.019978)  can0  014   [5]  01 20 00 10 27
 (1653409738.020223)  can0  1E5   [8]  1C FE 8E 10 00 00 01 F4
 (1653409738.028556)  can0  010   [4]  73 E7 32 01
 (1653409738.028928)  can0  012   [8]  E8 03 10 00 20 02 00 00
 (1653409738.029966)  can0  014   [5]  02 10 00 13 27
 (1653409738.030224)  can0  1E5   [8]  1C FE 8E 30 00 00 02 14
 (1653409738.038936)  can0  012   [8]  E8 03 10 00 EA 01 00 00
 (1653409738.039954)  can0  014   [5]  02 20 00 0D 27
 (1653409738.040212)  can0  1E5   [8]  1C FE 8E 50 00 00 02 34
 (1653409738.048939)  can0  012   [8]  E8 03 10 00 B9 01 00 00
 (1653409738.049972)  can0  014   [5]  02 10 00 10 27
 (1653409738.050217)  can0  1E5   [8]  1C FE 8E 70 00 00 02 54
 (1653409738.055143)  can0  0F0   [1]  01
 (1653409738.055841)  can0  011   [2]  34 01
 (1653409738.056870)  can0  013   [1]  00
 (1653409738.058964)  can0  012   [8]  E8 03 10 00 8D 01 00 00
 (1653409738.060015)  can0  014   [5]  02 20 00 19 27
 (1653409738.060225)  can0  1E5   [8]  1C FE 8E 10 00 00 01 F4
 (1653409738.068962)  can0  012   [8]  E8 03 10 00 65 01 00 00
 (1653409738.069979)  can0  014   [5]  02 10 00 07 27
 (1653409738.070225)  can0  1E5   [8]  1C FE 8E 30 00 00 02 14
 (1653409738.078962)  can0  012   [8]  E8 03 10 00 41 01 00 00
 (1653409738.080008)  can0  014   [5]  02 20 00 10 27
 (1653409738.080201)  can0  1E5   [8]  1C FE 8E 50 00 00 02 34
 (1653409738.088961)  can0  012   [8]  E8 03 10 00 21 01 00 00
 (1653409738.089980)  can0  014   [5]  02 10 00 10 27
 (1653409738.090203)  can0  1E5   [8]  1C FE 8E 70 00 00 02 54
 (1653409738.098953)  can0  012   [8]  E8 03 10 00 04 01 00 00
 (1653409738.099978)  can0  014   [5]  02 20 00 10 27
 (1653409738.100215)  can0  1E5   [8]  1C FE 8E 10 00 00 01 F4
 (1653409738.108966)  can0  012   [8]  E8 03 10 00 EA 00 00 00
 (1653409738.109977)  can0  014   [5]  02 10 00 10 27
 (1653409738.110230)  can0  1E5   [8]  1C FE 90 30 01 00 02 17
 (1653409738.118976)  can0  012   [8]  E8 03 10 00 D3 00 00 00
 (1653409738.120012)  can0  014   [5]  02 20 00 10 27
 (1653409738.120232)  can0  1E5   [8]  1C FE 90 50 01 00 02 37
 (1653409738.128577)  can0  010   [4]  73 E7 32 01
 (1653409738.128974)  can0  012   [8]  E8 03 10 00 BD 00 00 00
 (1653409738.129980)  can0  014   [5]  03 20 00 13 27
 (1653409738.130210)  can0  1E5   [8]  1C FE 8E 70 00 00 02 54
 (1653409738.138978)  can0  012   [8]  E8 03 10 00 AA 00 00 00
 (1653409738.139985)  can0  014   [5]  03 30 00 0D 27
 (1653409738.140218)  can0  1E5   [8]  1C FE 90 10 00 00 01 F6
 (1653409738.148937)  can0  012   [8]  E8 03 10 00 99 00 00 00
 (1653409738.149988)  can0  014   [5]  03 20 00 10 27
 (1653409738.150215)  can0  1E5   [8]  1C FE 90 30 00 00 02 16
 (1653409738.158668)  can0  0F0   [1]  01
 (1653409738.159079)  can0  012   [8]  E8 03 10 00 8A 00 00 00
 (1653409738.159768)  can0  011   [2]  31 01
 (1653409738.159920)  can0  013   [1]  00
 (1653409738.159972)  can0  014   [5]  04 40 00 13 27
 (1653409738.160453)  can0  1E5   [8]  1C FE 90 50 00 00 02 36
 (1653409738.168976)  can0  012   [8]  E8 03 10 00 7C 00 00 00
 (1653409738.169991)  can0  014   [5]  05 40 00 13 27
 (1653409738.170204)  can0  1E5   [8]  1C FE 90 70 00 00 02 56
 (1653409738.178966)  can0  012   [8]  E8 03 10 00 70 00 00 00
 (1653409738.179977)  can0  014   [5]  05 40 00 0A 27
 (1653409738.180210)  can0  1E5   [8]  1C FE 90 10 00 00 01 F6
 (1653409738.188964)  can0  012   [8]  E8 03 10 00 64 00 00 00
 (1653409738.190012)  can0  014   [5]  05 50 00 10 27
 (1653409738.190209)  can0  1E5   [8]  1C FE 90 30 00 00 02 16
 (1653409738.198969)  can0  012   [8]  E8 03 10 00 5A 00 00 00
 (1653409738.199986)  can0  014   [5]  06 60 00 14 27
 (1653409738.200218)  can0  1E5   [8]  1C FE 90 50 00 00 02 36
 (1653409738.208969)  can0  012   [8]  E8 03 10 00 51 00 00 00
 (1653409738.209981)  can0  014   [5]  05 40 00 0C 27
 (1653409738.210221)  can0  1E5   [8]  1C FE 90 70 00 00 02 56
 (1653409738.218956)  can0  012   [8]  E8 03 10 00 49 00 00 00
 (1653409738.220011)  can0  014   [5]  05 50 00 10 27
 (1653409738.220215)  can0  1E5   [8]  1C FE 90 10 00 00 01 F6
 (1653409738.228594)  can0  010   [4]  72 E5 30 01
 (1653409738.228945)  can0  012   [8]  E8 03 10 00 42 00 00 00
 (1653409738.229990)  can0  014   [5]  05 40 00 13 27
 (1653409738.230208)  can0  1E5   [8]  1C FE 90 30 00 00 02 16
 (1653409738.238972)  can0  012   [8]  E8 03 10 00 3B 00 00 00
 (1653409738.239998)  can0  014   [5]  04 40 00 0D 27
 (1653409738.240202)  can0  1E5   [8]  1C FE 90 50 00 00 02 36
 (1653409738.248954)  can0  012   [8]  E8 03 10 00 35 00 00 00
 (1653409738.249993)  can0  014   [5]  04 30 00 10 27
 (1653409738.250212)  can0  1E5   [8]  1C FE 90 70 00 00 02 56
 (1653409738.258958)  can0  012   [8]  E8 03 10 00 30 00 00 00
 (1653409738.259955)  can0  014   [5]  03 30 00 10 27
 (1653409738.260101)  can0  0F0   [1]  01
 (1653409738.260205)  can0  1E5   [8]  1C FE 90 10 00 00 01 F6
 (1653409738.261032)  can0  011   [2]  2D 01
 (1653409738.261708)  can0  013   [1]  00
 (1653409738.268958)  can0  012   [8]  E8 03 10 00 2B 00 00 00
 (1653409738.269978)  can0  014   [5]  03 20 00 19 27
 (1653409738.270207)  can0  1E5   [8]  1C FE 90 30 00 00 02 16
 (1653409738.278963)  can0  012   [8]  E8 03 10 00 27 00 00 00
 (1653409738.280000)  can0  014   [5]  03 30 00 07 27
 (1653409738.280200)  can0  1E5   [8]  1C FE 90 50 00 00 02 36
 (1653409738.288956)  can0  012   [8]  E8 03 10 00 23 00 00 00
 (1653409738.289999)  can0  014   [5]  03 30 00 10 27
 (1653409738.290238)  can0  1E5   [8]  1C FE 90 70 00 00 02 56
 (1653409738.298966)  can0  012   [8]  E8 03 10 00 1F 00 00 00
 (1653409738.299995)  can0  014   [5]  04 50 00 10 27
 (1653409738.300223)  can0  1E5   [8]  1C FE 90 10 00 00 01 F6
 (1653409738.308948)  can0  012   [8]  E8 03 10 00 1C 00 00 00
 (1653409738.309999)  can0  014   [5]  04 50 00 10 27
 (1653409738.310205)  can0  1E5   [8]  1C FE 90 30 00 00 02 16
 (1653409738.318964)  can0  012   [8]  E8 03 10 00 19 00 00 00
 (1653409738.319975)  can0  014   [5]  06 50 00 10 27
 (1653409738.320203)  can0  1E5   [8]  1C FE 90 50 00 00 02 36
 (1653409738.328553)  can0  010   [4]  6C DC 2D 01
 (1653409738.328929)  can0  012   [8]  E8 03 10 00 17 00 00 00
 (1653409738.329963)  can0  014   [5]  06 60 00 13 27
 (1653409738.330202)  can0  1E5   [8]  1C FE 90 70 00 00 02 56
 (1653409738.338932)  can0  012   [8]  E8 03 10 00 14 00 00 00
 (1653409738.339954)  can0  014   [5]  07 70 00 0D 27
 (1653409738.340211)  can0  1E5   [8]  1C FE 90 10 00 00 01 F6
 (1653409738.348944)  can0  012   [8]  E8 03 10 00 12 00 00 00
 (1653409738.349969)  can0  014   [5]  07 70 00 10 27
 (1653409738.350201)  can0  1E5   [8]  1C FE 90 30 00 00 02 16
 (1653409738.358944)  can0  012   [8]  E8 03 10 00 10 00 00 00
 (1653409738.359972)  can0  014   [5]  07 80 00 10 27
 (1653409738.360207)  can0  1E5   [8]  1C FE 90 50 00 00 02 36
 (1653409738.361734)  can0  0F0   [1]  01
 (1653409738.362316)  can0  011   [2]  28 01
 (1653409738.362417)  can0  013   [1]  00
 (1653409738.368941)  can0  012   [8]  E8 03 10 00 0F 00 00 00
 (1653409738.369978)  can0  014   [5]  08 70 00 19 27
 (1653409738.370212)  can0  1E5   [8]  1C FE 90 70 00 00 02 56
 (1653409738.378944)  can0  012   [8]  E8 03 10 00 0D 00 00 00
 (1653409738.379969)  can0  014   [5]  07 70 00 07 27
 (1653409738.380220)  can0  1E5   [8]  1C FE 90 10 00 00 01 F6
 (1653409738.388928)  can0  012   [8]  E8 03 10 00 0C 00 00 00
 (1653409738.389977)  can0  014   [5]  08 70 00 10 27
 (1653409738.390199)  can0  1E5   [8]  1C FE 90 30 00 00 02 16
 (1653409738.398936)  can0  012   [8]  E8 03 10 00 0B 00 00 00
 (1653409738.399957)  can0  014   [5]  08 70 00 10 27
 (1653409738.400216)  can0  1E5   [8]  1C FE 90 50 00 00 02 36
 (1653409738.408926)  can0  012   [8]  E8 03 10 00 09 00 00 00
 (1653409738.409959)  can0  014   [5]  08 80 00 10 27
 (1653409738.410212)  can0  1E5   [8]  1C FE 90 70 00 00 02 56
 (1653409738.418931)  can0  012   [8]  E8 03 10 00 08 00 00 00
 (1653409738.419972)  can0  014   [5]  08 70 00 10 27
 (1653409738.420210)  can0  1E5   [8]  1C FE 90 10 00 00 01 F6
 (1653409738.428565)  can0  010   [4]  64 D0 27 01
 (1653409738.428674)  can0  0E2   [2]  8A 00
 (1653409738.428938)  can0  012   [8]  E8 03 10 00 08 00 00 00
 (1653409738.429066)  can0  0E3   [2]  8A 00
 (1653409738.429965)  can0  014   [5]  08 80 00 18 27
 (1653409738.430094)  can0  0E4   [2]  8A 00
 (1653409738.430339)  can0  1E5   [8]  1C FE 8E 30 00 00 02 14
 (1653409738.438952)  can0  012   [8]  E8 03 10 00 07 00 00 00
 (1653409738.439964)  can0  014   [5]  09 90 00 08 27
 (1653409738.440200)  can0  1E5   [8]  1C FE 90 50 00 00 02 36
 (1653409738.448930)  can0  012   [8]  E8 03 10 00 06 00 00 00
 (1653409738.449961)  can0  014   [5]  09 90 00 10 27
 (1653409738.450204)  can0  1E5   [8]  1C FE 90 70 00 00 02 56
 (1653409738.458938)  can0  012   [8]  E8 03 10 00 05 00 00 00
 (1653409738.459958)  can0  014   [5]  09 A0 00 10 27
 (1653409738.460202)  can0  1E5   [8]  1C FE 90 10 00 00 01 F6
 (1653409738.462983)  can0  0F0   [1]  01
 (1653409738.463761)  can0  011   [2]  24 01
 (1653409738.463851)  can0  013   [1]  00
 (1653409738.468937)  can0  012   [8]  E8 03 10 00 05 00 00 00
 (1653409738.469963)  can0  014   [5]  0B A0 00 19 27
 (1653409738.470223)  can0  1E5   [8]  1C FE 8E 30 00 00 02 14
 (1653409738.478924)  can0  012   [8]  E8 03 10 00 04 00 00 00
 (1653409738.479956)  can0  014   [5]  0B B0 00 07 27
 (1653409738.480210)  can0  1E5   [8]  1C FE 8E 50 00 00 02 34
 (1653409738.488936)  can0  012   [8]  E8 03 10 00 04 00 00 00
 (1653409738.489946)  can0  014   [5]  0B B0 00 10 27
 (1653409738.490204)  can0  1E5   [8]  1C FE 8E 70 00 00 02 54
 (1653409738.498938)  can0  012   [8]  E8 03 10 00 03 00 00 00
 (1653409738.499966)  can0  014   [5]  0C B0 00 10 27
 (1653409738.500199)  can0  1E5   [8]  1C FE 8D 1F FF 00 03 01
 (1653409738.509265)  can0  012   [8]  E8 03 10 00 03 00 00 00
 (1653409738.509987)  can0  014   [5]  0B C0 00 10 27
 (1653409738.510204)  can0  1E5   [8]  1C FE 8B 3F FE 00 03 1E
 (1653409738.519298)  can0  012   [8]  E8 03 10 00 03 00 00 00
 (1653409738.519968)  can0  014   [5]  0C C0 00 10 27
 (1653409738.520206)  can0  1E5   [8]  1C FE 8B 5F FE 00 03 3E
 (1653409738.528549)  can0  010   [4]  5E C7 24 01
 (1653409738.528928)  can0  012   [8]  E8 03 10 00 02 00 00 00
 (1653409738.529972)  can0  014   [5]  0B B0 00 13 27
 (1653409738.530201)  can0  1E5   [8]  1C FE 8A 7F FD 00 03 5C
 (1653409738.538939)  can0  012   [8]  E8 03 10 00 02 00 00 00
 (1653409738.539953)  can0  014   [5]  0C B0 00 0D 27
 (1653409738.540209)  can0  1E5   [8]  1C FE 88 1F FC 00 02 F9
 (1653409738.548933)  can0  012   [8]  E8 03 10 00 02 00 00 00
 (1653409738.549962)  can0  014   [5]  0C D0 00 10 27
 (1653409738.550196)  can0  1E5   [8]  1C FE 86 3F FB 00 03 16
 (1653409738.558940)  can0  012   [8]  E8 03 10 00 02 00 00 00
 (1653409738.559958)  can0  014   [5]  0D C0 00 10 27
 (1653409738.560198)  can0  1E5   [8]  1C FE 86 5F FB 00 03 36
 (1653409738.564370)  can0  0F0   [1]  01
 (1653409738.565049)  can0  011   [2]  1D 01
 (1653409738.565186)  can0  013   [1]  00
 (1653409738.568947)  can0  012   [8]  E8 03 10 00 01 00 00 00
 (1653409738.569971)  can0  014   [5]  0C D0 00 19 27
 (1653409738.570213)  can0  1E5   [8]  1C FE 85 7F FA 00 03 54
 (1653409738.578941)  can0  012   [8]  E8 03 10 00 01 00 00 00
 (1653409738.579963)  can0  014   [5]  0E E0 00 0A 27
 (1653409738.580213)  can0  1E5   [8]  1C FE 83 1F F9 00 02 F1
 (1653409738.588918)  can0  012   [8]  E8 03 10 00 01 00 00 00
 (1653409738.589959)  can0  014   [5]  0E E0 00 0D 27
 (1653409738.590196)  can0  1E5   [8]  1C FE 82 3F F8 00 03 0F
 (1653409738.598933)  can0  012   [8]  E8 03 10 00 01 00 00 00
 (1653409738.599958)  can0  014   [5]  0F F0 00 10 27
 (1653409738.600202)  can0  1E5   [8]  1C FE 7E 5F F7 00 03 2A
 (1653409738.608936)  can0  012   [8]  E8 03 10 00 01 00 00 00
 (1653409738.609957)  can0  014   [5]  10 F0 00 10 27
 (1653409738.610197)  can0  1E5   [8]  1C FE 7D 7F F7 00 03 49
 (1653409738.618932)  can0  012   [8]  E8 03 10 00 01 00 00 00
 (1653409738.619958)  can0  014   [5]  10 00 01 10 27
 (1653409738.620202)  can0  1E5   [8]  1C FE 7A 1F F5 00 02 E4
 (1653409738.628549)  can0  010   [4]  53 B7 1D 01
 (1653409738.628929)  can0  012   [8]  E8 03 10 00 00 00 00 00
 (1653409738.629957)  can0  014   [5]  11 10 01 13 27
 (1653409738.630199)  can0  1E5   [8]  1C FE 76 3F F4 00 02 FF
 (1653409738.638928)  can0  012   [8]  E8 03 10 00 00 00 00 00
 (1653409738.639967)  can0  014   [5]  11 10 01 0D 27
 (1653409738.640196)  can0  1E5   [8]  1C FE 73 5F F3 00 03 1B
 (1653409738.648937)  can0  012   [8]  E8 03 10 00 00 00 00 00
 (1653409738.649952)  can0  014   [5]  12 10 01 10 27
 (1653409738.650189)  can0  1E5   [8]  1C FE 72 7F F3 00 03 3A
 (1653409738.658925)  can0  012   [8]  E8 03 10 00 00 00 00 00
 (1653409738.659958)  can0  014   [5]  12 10 01 10 27
 (1653409738.660200)  can0  1E5   [8]  1C FE 6E 1F F1 00 02 D4
 (1653409738.665272)  can0  0F0   [1]  01
 (1653409738.665872)  can0  011   [2]  14 01
 (1653409738.666310)  can0  013   [1]  00
 (1653409738.668928)  can0  012   [8]  E8 03 10 00 00 00 00 00
 (1653409738.669975)  can0  014   [5]  12 20 01 19 27
 (1653409738.670210)  can0  1E5   [8]  1C FE 6D 3F F1 00 02 F3
 (1653409738.678937)  can0  012   [8]  E8 03 10 00 00 00 00 00
 (1653409738.679960)  can0  014   [5]  12 10 01 07 27
 (1653409738.680194)  can0  1E5   [8]  1C FE 6B 5F F1 00 03 11
 (1653409738.688940)  can0  012   [8]  E8 03 10 00 00 00 00 00
 (1653409738.689959)  can0  014   [5]  12 20 01 10 27
 (1653409738.690200)  can0  1E5   [8]  1C FE 6A 7F F1 00 03 30
 (1653409738.698947)  can0  012   [8]  E8 03 10 00 00 00 00 00
 (1653409738.699970)  can0  014   [5]  11 20 01 10 27
 (1653409738.700183)  can0  1E5   [8]  1C FE 66 1F F1 00 02 CC
 (1653409738.708927)  can0  012   [8]  E8 03 10 00 00 00 00 00
 (1653409738.709946)  can0  014   [5]  12 20 01 10 27
 (1653409738.710184)  can0  1E5   [8]  1C FE 65 3F F1 00 02 EB
 (1653409738.718926)  can0  012   [8]  E8 03 10 00 00 00 00 00
 (1653409738.719972)  can0  014   [5]  13 20 01 12 27
 (1653409738.720202)  can0  1E5   [8]  1C FE 63 5F F2 00 03 0A
 (1653409738.728548)  can0  010   [4]  45 A2 13 01
 (1653409738.728924)  can0  012   [8]  E8 03 10 00 00 00 00 00
 (1653409738.729970)  can0  014   [5]  13 40 01 11 27
 (1653409738.730209)  can0  1E5   [8]  1C FE 62 7F F3 00 03 2A
 (1653409738.738925)  can0  012   [8]  E8 03 10 00 00 00 00 00
 (1653409738.739950)  can0  014   [5]  15 40 01 10 27
 (1653409738.740194)  can0  1E5   [8]  1C FE 60 1F F4 00 02 C9
 (1653409738.748946)  can0  012   [8]  E8 03 10 00 00 00 00 00
 (1653409738.749958)  can0  014   [5]  14 40 01 0D 27
 (1653409738.750195)  can0  1E5   [8]  1C FE 60 3F F5 00 02 EA
 (1653409738.758937)  can0  012   [8]  E8 03 10 00 00 00 00 00
 (1653409738.759958)  can0  014   [5]  15 50 01 10 27
 (1653409738.760198)  can0  1E5   [8]  1C FE 60 5F F7 00 03 0C
 (1653409738.767392)  can0  0F0   [1]  01
 (1653409738.768170)  can0  011   [2]  0E 01
 (1653409738.768310)  can0  013   [1]  00
 (1653409738.768982)  can0  012   [8]  E8 03 10 00 00 00 00 00
 (1653409738.769972)  can0  014   [5]  16 50 01 19 27
 (1653409738.770217)  can0  1E5   [8]  1C FE 60 7F F8 00 03 2D
 (1653409738.778925)  can0  012   [8]  E8 03 10 00 00 00 00 00
 (1653409738.779947)  can0  014   [5]  15 60 01 07 27
 (1653409738.780203)  can0  1E5   [8]  1C FE 60 1F F9 00 02 CE
 (1653409738.788933)  can0  012   [8]  E8 03 10 00 00 00 00 00
 (1653409738.789946)  can0  014   [5]  15 60 01 10 27
 (1653409738.790195)  can0  1E5   [8]  1C FE 60 3F FA 00 02 EF
 (1653409738.798924)  can0  012   [8]  E8 03 10 00 00 00 00 00
 (1653409738.799969)  can0  014   [5]  15 50 01 10 27
 (1653409738.800206)  can0  1E5   [8]  1C FE 60 5F FC 00 03 11
 (1653409738.808938)  can0  012   [8]  E8 03 10 00 00 00 00 00
 (1653409738.809969)  can0  014   [5]  15 50 01 14 27
 (1653409738.810210)  can0  1E5   [8]  1C FE 60 7F FD 00 03 32
 (1653409738.818917)  can0  012   [8]  E8 03 10 00 00 00 00 00
 (1653409738.819947)  can0  014   [5]  15 40 01 0C 27
 (1653409738.820202)  can0  1E5   [8]  1C FE 60 1F FE 00 02 D3
 (1653409738.828553)  can0  010   [4]  3C 94 0E 01
 (1653409738.828925)  can0  012   [8]  E8 03 10 00 00 00 00 00
 (1653409738.829974)  can0  014   [5]  14 50 01 13 27
 (1653409738.830210)  can0  1E5   [8]  1C FE 60 3F FF 00 02 F4
 (1653409738.838940)  can0  012   [8]  E8 03 10 00 00 00 00 00
 (1653409738.839951)  can0  014   [5]  15 60 01 0D 27
 (1653409738.840195)  can0  1E5   [8]  1C FE 60 50 00 00 02 06
 (1653409738.848928)  can0  012   [8]  E8 03 10 00 00 00 00 00
 (1653409738.849956)  can0  014   [5]  16 60 01 10 27
 (1653409738.850194)  can0  1E5   [8]  1C FE 60 70 00 00 02 26
 (1653409738.858934)  can0  012   [8]  E8 03 10 00 00 00 00 00
 (1653409738.859963)  can0  014   [5]  18 80 01 10 27
 (1653409738.860198)  can0  1E5   [8]  1C FE 5E 1F FF 00 02 D2
 (1653409738.868510)  can0  0F0   [1]  01
 (1653409738.868925)  can0  012   [8]  E8 03 10 00 00 00 00 00
 (1653409738.869218)  can0  011   [2]  0B 01
 (1653409738.869517)  can0  013   [1]  00
 (1653409738.869966)  can0  014   [5]  19 90 01 19 27
 (1653409738.870195)  can0  1E5   [8]  1C FE 5E 3F FF 00 02 F2
 (1653409738.878941)  can0  012   [8]  E8 03 10 00 00 00 00 00
 (1653409738.879954)  can0  014   [5]  19 A0 01 07 27
 (1653409738.880194)  can0  1E5   [8]  1C FE 5E 5F FF 00 03 12
 (1653409738.888946)  can0  012   [8]  E8 03 10 00 00 00 00 00
 (1653409738.889955)  can0  014   [5]  1A 90 01 10 27
 (1653409738.890212)  can0  1E5   [8]  1C FE 5D 7F FE 00 03 30
 (1653409738.898936)  can0  012   [8]  E8 03 10 00 00 00 00 00
 (1653409738.899953)  can0  014   [5]  19 B0 01 10 27
 (1653409738.900191)  can0  1E5   [8]  1C FE 5D 1F FE 00 02 D0
 (1653409738.908931)  can0  012   [8]  E8 03 10 00 00 00 00 00
 (1653409738.909961)  can0  014   [5]  1B A0 01 10 27
 (1653409738.910204)  can0  1E5   [8]  1C FE 5B 3F FD 00 02 ED
 (1653409738.918933)  can0  012   [8]  E8 03 10 00 00 00 00 00
 (1653409738.919961)  can0  014   [5]  1A 90 01 10 27
 (1653409738.920194)  can0  1E5   [8]  1C FE 5A 5F FC 00 03 0B
 (1653409738.928549)  can0  010   [4]  37 8D 0B 01
 (1653409738.928941)  can0  012   [8]  E8 03 10 00 00 00 00 00
 (1653409738.929957)  can0  014   [5]  19 90 01 13 27
 (1653409738.930190)  can0  1E5   [8]  1C FE 56 7F FA 00 03 25
 (1653409738.938944)  can0  012   [8]  E8 03 10 00 00 00 00 00
 (1653409738.939955)  can0  014   [5]  18 80 01 0D 27
 (1653409738.940189)  can0  1E5   [8]  1C FE 55 1F F9 00 02 C3
 (1653409738.948934)  can0  012   [8]  E8 03 10 00 00 00 00 00
 (1653409738.949948)  can0  014   [5]  17 90 01 10 27
 (1653409738.950190)  can0  1E5   [8]  1C FE 52 3F F7 00 02 DE
 (1653409738.958923)  can0  012   [8]  E8 03 10 00 00 00 00 00
 (1653409738.959965)  can0  014   [5]  19 90 01 10 27
 (1653409738.960197)  can0  1E5   [8]  1C FE 4E 5F F6 00 02 F9
 (1653409738.968930)  can0  012   [8]  E8 03 10 00 00 00 00 00
 (1653409738.969957)  can0  014   [5]  19 A0 01 10 27
 (1653409738.970177)  can0  0F0   [1]  01
 (1653409738.970236)  can0  1E5   [8]  1C FE 4D 7F F5 00 03 17
 (1653409738.970842)  can0  011   [2]  08 01
 (1653409738.971534)  can0  013   [1]  00
 (1653409738.978933)  can0  012   [8]  E8 03 10 00 00 00 00 00
 (1653409738.979957)  can0  014   [5]  1B A0 01 1C 27
 (1653409738.980198)  can0  1E5   [8]  1C FE 4A 1F F3 00 02 B2
 (1653409738.988931)  can0  012   [8]  E8 03 10 00 00 00 00 00
 (1653409738.989969)  can0  014   [5]  19 A0 01 04 27
 (1653409738.990194)  can0  1E5   [8]  1C FE 48 3F F3 00 02 D0
 (1653409738.998940)  can0  012   [8]  E8 03 10 00 00 00 00 00
 (1653409738.999958)  can0  014   [5]  1B C0 01 10 27
 (1653409739.000190)  can0  1E5   [8]  1C FE 46 5F F2 00 02 ED
 (1653409739.008934)  can0  012   [8]  E8 03 10 00 00 00 00 00
 (1653409739.009959)  can0  014   [5]  1B C0 01 10 27
 (1653409739.010198)  can0  1E5   [8]  1C FE 43 7F F1 00 03 09
 (1653409739.018932)  can0  012   [8]  E8 03 10 00 00 00 00 00
 (1653409739.019955)  can0  014   [5]  1B D0 01 10 27
 (1653409739.020199)  can0  1E5   [8]  1C FE 42 1F F1 00 02 A8
 (1653409739.028561)  can0  010   [4]  32 86 08 01
 (1653409739.028935)  can0  012   [8]  E8 03 10 00 00 00 00 00
 (1653409739.029950)  can0  014   [5]  1E D0 01 13 27
 (1653409739.030193)  can0  1E5   [8]  1C FE 42 3F F3 00 02 CA
 (1653409739.038936)  can0  012   [8]  E8 03 10 00 00 00 00 00
 (1653409739.039965)  can0  014   [5]  1C C0 01 0D 27
 (1653409739.040231)  can0  1E5   [8]  1C FE 42 5F F4 00 02 EB
 (1653409739.048945)  can0  012   [8]  E8 03 10 00 00 00 00 00
 (1653409739.049958)  can0  014   [5]  1C D0 01 10 27
 (1653409739.050206)  can0  1E5   [8]  1C FE 42 7F F6 00 03 0D
 (1653409739.058929)  can0  012   [8]  E8 03 10 00 00 00 00 00
 (1653409739.059950)  can0  014   [5]  1C E0 01 13 27
 (1653409739.060207)  can0  1E5   [8]  1C FE 42 1F F8 00 02 AF
 (1653409739.068923)  can0  012   [8]  E8 03 10 00 00 00 00 00
 (1653409739.069947)  can0  014   [5]  1E D0 01 0D 27
 (1653409739.070182)  can0  1E5   [8]  1C FE 42 3F F9 00 02 D0
 (1653409739.071574)  can0  0F0   [1]  01
 (1653409739.072400)  can0  011   [2]  01 01
 (1653409739.073146)  can0  013   [1]  00
 (1653409739.078938)  can0  012   [8]  E8 03 10 00 00 00 00 00
 (1653409739.079969)  can0  014   [5]  1D D0 01 1F 27
 (1653409739.080207)  can0  1E5   [8]  1C FE 43 50 00 00 01 E9
 (1653409739.088938)  can0  012   [8]  E8 03 10 00 00 00 00 00
 (1653409739.089952)  can0  014   [5]  1B B0 01 01 27
 (1653409739.090184)  can0  1E5   [8]  1C FE 45 70 01 00 02 0C
 (1653409739.098928)  can0  012   [8]  E8 03 10 00 00 00 00 00
 (1653409739.099952)  can0  014   [5]  1B D0 01 10 27
 (1653409739.100191)  can0  1E5   [8]  1C FE 45 10 01 00 01 AC
 (1653409739.108928)  can0  012   [8]  E8 03 10 00 00 00 00 00
 (1653409739.109966)  can0  014   [5]  1B C0 01 10 27
 (1653409739.110189)  can0  1E5   [8]  1C FE 46 30 02 00 01 CE
 (1653409739.118956)  can0  012   [8]  E8 03 10 00 00 00 00 00
 (1653409739.119984)  can0  014   [5]  1B C0 01 10 27
 (1653409739.120226)  can0  1E5   [8]  1C FE 46 50 02 00 01 EE
 (1653409739.128552)  can0  010   [4]  28 76 01 01
 (1653409739.128936)  can0  012   [8]  E8 03 10 00 00 00 00 00
 (1653409739.129948)  can0  014   [5]  1B C0 01 13 27
 (1653409739.130193)  can0  1E5   [8]  1C FE 46 70 02 00 02 0E
 (1653409739.138947)  can0  012   [8]  E8 03 10 00 00 00 00 00
 (1653409739.139961)  can0  014   [5]  1A C0 01 0D 27
 (1653409739.140205)  can0  1E5   [8]  1C FE 48 10 03 00 01 B1
 (1653409739.148934)  can0  012   [8]  E8 03 10 00 00 00 00 00
 (1653409739.149955)  can0  014   [5]  1A D0 01 10 27
 (1653409739.150193)  can0  1E5   [8]  1C FE 48 30 03 00 01 D1
 (1653409739.158924)  can0  012   [8]  E8 03 10 00 00 00 00 00
 (1653409739.159948)  can0  014   [5]  1D E0 01 10 27
 (1653409739.160189)  can0  1E5   [8]  1C FE 48 50 03 00 01 F1
 (1653409739.168924)  can0  012   [8]  E8 03 10 00 00 00 00 00
 (1653409739.169960)  can0  014   [5]  1E E0 01 10 27
 (1653409739.170198)  can0  1E5   [8]  1C FE 48 70 03 00 02 11
 (1653409739.173741)  can0  0F0   [1]  01
 (1653409739.174327)  can0  011   [2]  04 01
 (1653409739.174789)  can0  013   [1]  00
 (1653409739.178949)  can0  012   [8]  E8 03 10 00 00 00 00 00
 (1653409739.179980)  can0  014   [5]  1D F0 01 1C 27
 (1653409739.180213)  can0  1E5   [8]  1C FE 48 10 03 00 01 B1
 (1653409739.188932)  can0  012   [8]  E8 03 10 00 00 00 00 00
 (1653409739.189956)  can0  014   [5]  1E E0 01 04 27
 (1653409739.190193)  can0  1E5   [8]  1C FE 4A 30 03 00 01 D3
 (1653409739.198919)  can0  012   [8]  E8 03 10 00 00 00 00 00
 (1653409739.199961)  can0  014   [5]  1E 00 02 13 27
 (1653409739.200194)  can0  1E5   [8]  1C FE 48 50 00 00 01 EE
 (1653409739.208932)  can0  012   [8]  E8 03 10 00 00 00 00 00
 (1653409739.209959)  can0  014   [5]  1E F0 01 0D 27
 (1653409739.210198)  can0  1E5   [8]  1C FE 48 70 00 00 02 0E
 (1653409739.218939)  can0  012   [8]  E8 03 10 00 00 00 00 00
 (1653409739.219958)  can0  014   [5]  1F E0 01 10 27
 (1653409739.220197)  can0  1E5   [8]  1C FE 4A 10 00 00 01 B0
 (1653409739.228539)  can0  010   [4]  2C 7D 04 01
 (1653409739.228921)  can0  012   [8]  E8 03 10 00 00 00 00 00
 (1653409739.229958)  can0  014   [5]  1D E0 01 13 27
 (1653409739.230199)  can0  1E5   [8]  1C FE 4A 30 00 00 01 D0
 (1653409739.238936)  can0  012   [8]  E8 03 10 00 00 00 00 00
 (1653409739.239946)  can0  014   [5]  1C E0 01 0D 27
 (1653409739.240208)  can0  1E5   [8]  1C FE 4A 50 00 00 01 F0
 (1653409739.248926)  can0  012   [8]  E8 03 10 00 00 00 00 00
 (1653409739.249953)  can0  014   [5]  1C D0 01 10 27
 (1653409739.250188)  can0  1E5   [8]  1C FE 4B 70 01 00 02 12
 (1653409739.258928)  can0  012   [8]  E8 03 10 00 00 00 00 00
 (1653409739.259962)  can0  014   [5]  1B D0 01 10 27
 (1653409739.260194)  can0  1E5   [8]  1C FE 4D 10 02 00 01 B5
 (1653409739.268931)  can0  012   [8]  E8 03 10 00 00 00 00 00
 (1653409739.269953)  can0  014   [5]  18 C0 01 10 27
 (1653409739.270188)  can0  1E5   [8]  1C FE 4D 30 02 00 01 D5
 (1653409739.275320)  can0  0F0   [1]  01
 (1653409739.276023)  can0  011   [2]  03 01
 (1653409739.276173)  can0  013   [1]  00
 (1653409739.278926)  can0  012   [8]  E8 03 10 00 00 00 00 00
 (1653409739.279973)  can0  014   [5]  1A E0 01 19 27
 (1653409739.280205)  can0  1E5   [8]  1C FE 4E 50 03 00 01 F7
 (1653409739.288933)  can0  012   [8]  E8 03 10 00 00 00 00 00
 (1653409739.289951)  can0  014   [5]  1C E0 01 07 27
 (1653409739.290195)  can0  1E5   [8]  1C FE 4E 70 03 00 02 17
 (1653409739.298935)  can0  012   [8]  E8 03 10 00 00 00 00 00
 (1653409739.299956)  can0  014   [5]  1E F0 01 10 27
 (1653409739.300181)  can0  1E5   [8]  1C FE 4E 10 03 00 01 B7
 (1653409739.308944)  can0  012   [8]  E8 03 10 00 00 00 00 00
 (1653409739.309964)  can0  014   [5]  1F F0 01 10 27
 (1653409739.310198)  can0  1E5   [8]  1C FE 4E 30 03 00 01 D7
 (1653409739.318921)  can0  012   [8]  E8 03 10 00 00 00 00 00
 (1653409739.319966)  can0  014   [5]  1F E0 01 10 27
 (1653409739.320193)  can0  1E5   [8]  1C FE 50 50 04 00 01 FA
 (1653409739.328541)  can0  010   [4]  2B 7A 03 01
 (1653409739.328925)  can0  012   [8]  E8 03 10 00 00 00 00 00
 (1653409739.329951)  can0  014   [5]  21 10 02 13 27
 (1653409739.330192)  can0  1E5   [8]  1C FE 50 70 04 00 02 1A
 (1653409739.338918)  can0  012   [8]  E8 03 10 00 00 00 00 00
 (1653409739.339973)  can0  014   [5]  20 20 02 10 27
 (1653409739.340211)  can0  1E5   [8]  1C FE 50 10 04 00 01 BA
 (1653409739.348921)  can0  012   [8]  E8 03 10 00 00 00 00 00
 (1653409739.349956)  can0  014   [5]  22 10 02 0E 27
 (1653409739.350211)  can0  1E5   [8]  1C FE 50 30 03 00 01 D9
 (1653409739.358924)  can0  012   [8]  E8 03 10 00 00 00 00 00
 (1653409739.359961)  can0  014   [5]  20 00 02 0F 27
 (1653409739.360202)  can0  1E5   [8]  1C FE 52 50 03 00 01 FB
 (1653409739.368942)  can0  012   [8]  E8 03 10 00 00 00 00 00
 (1653409739.369964)  can0  014   [5]  1F 00 02 10 27
 (1653409739.370188)  can0  1E5   [8]  1C FE 52 70 03 00 02 1B
 (1653409739.376580)  can0  0F0   [1]  01
 (1653409739.377254)  can0  011   [2]  00 01
 (1653409739.377960)  can0  013   [1]  02
 (1653409739.378929)  can0  012   [8]  E8 03 10 00 83 00 00 00
 (1653409739.379960)  can0  014   [5]  1F F0 01 18 27
 (1653409739.380195)  can0  1E5   [8]  1C FE 52 10 02 00 01 BA
 (1653409739.388933)  can0  012   [8]  E8 03 10 00 F9 00 00 00
 (1653409739.389953)  can0  014   [5]  1E D0 01 08 27
 (1653409739.390200)  can0  1E5   [8]  1C FE 52 30 02 00 01 DA
 (1653409739.398917)  can0  012   [8]  E8 03 10 00 63 01 00 00
 (1653409739.399953)  can0  014   [5]  1D C0 01 10 27
 (1653409739.400199)  can0  1E5   [8]  1C FE 52 50 02 00 01 FA
 (1653409739.408912)  can0  012   [8]  E8 03 10 00 C2 01 00 00
 (1653409739.409964)  can0  014   [5]  1D B0 01 10 27
 (1653409739.410194)  can0  1E5   [8]  1C FE 53 70 03 00 02 1C
 (1653409739.418934)  can0  012   [8]  E8 03 10 00 18 02 00 00
 (1653409739.419961)  can0  014   [5]  1C B0 01 10 27
 (1653409739.420188)  can0  1E5   [8]  1C FE 53 10 02 00 01 BB
 (1653409739.428552)  can0  010   [4]  26 73 00 01
 (1653409739.428669)  can0  0E2   [2]  B2 00
 (1653409739.428933)  can0  012   [8]  E8 03 10 00 66 02 00 00
 (1653409739.429037)  can0  0E3   [2]  B2 00
 (1653409739.429955)  can0  014   [5]  1B C0 01 18 27
 (1653409739.430089)  can0  0E4   [2]  B2 00
 (1653409739.430325)  can0  1E5   [8]  1C FE 55 30 03 00 01 DE
 (1653409739.438918)  can0  012   [8]  E8 03 10 00 AB 02 01 00
 (1653409739.439974)  can0  014   [5]  1B D0 01 08 27
 (1653409739.440192)  can0  1E5   [8]  1C FE 55 50 03 00 01 FE
 (1653409739.448925)  can0  012   [8]  E8 03 10 00 EA 02 01 00
 (1653409739.449955)  can0  014   [5]  1D D0 01 10 27
 (1653409739.450193)  can0  1E5   [8]  1C FE 56 70 04 00 02 20
 (1653409739.458930)  can0  012   [8]  E8 03 10 00 22 03 01 00
 (1653409739.459962)  can0  014   [5]  1C F0 01 10 27
 (1653409739.460198)  can0  1E5   [8]  1C FE 56 10 03 00 01 BF
 (1653409739.468906)  can0  012   [8]  E8 03 10 00 55 03 01 00
 (1653409739.469950)  can0  014   [5]  1D F0 01 12 27
 (1653409739.470187)  can0  1E5   [8]  1C FE 58 30 04 00 01 E2
 (1653409739.477932)  can0  0F0   [1]  01
 (1653409739.478670)  can0  011   [2]  05 01
 (1653409739.478918)  can0  012   [8]  E8 03 10 00 83 03 01 00
 (1653409739.479035)  can0  013   [1]  00
 (1653409739.479972)  can0  014   [5]  1F F0 01 17 27
 (1653409739.480206)  can0  1E5   [8]  1C FE 5A 50 05 00 02 05
 (1653409739.488934)  can0  012   [8]  E8 03 10 00 29 03 01 00
 (1653409739.489964)  can0  014   [5]  20 F0 01 07 27
 (1653409739.490189)  can0  1E5   [8]  1C FE 5B 70 06 00 02 27
 (1653409739.498915)  can0  012   [8]  E8 03 10 00 D8 02 01 00
 (1653409739.499962)  can0  014   [5]  1F 00 02 10 27
 (1653409739.500182)  can0  1E5   [8]  1C FE 5D 10 07 00 01 CA
 (1653409739.508926)  can0  012   [8]  E8 03 10 00 8F 02 00 00
 (1653409739.509957)  can0  014   [5]  1F 00 02 10 27
 (1653409739.510194)  can0  1E5   [8]  1C FE 5D 30 06 00 01 E9
 (1653409739.519199)  can0  012   [8]  E8 03 10 00 4E 02 00 00
 (1653409739.519951)  can0  014   [5]  1E F0 01 10 27
 (1653409739.520187)  can0  1E5   [8]  1C FE 5E 50 07 00 02 0B
 (1653409739.528584)  can0  010   [4]  2E 7F 04 01
 (1653409739.528942)  can0  012   [8]  E8 03 10 00 13 02 00 00
 (1653409739.529990)  can0  014   [5]  1D D0 01 13 27
 (1653409739.530226)  can0  1E5   [8]  1C FE 5E 70 06 00 02 2A
 (1653409739.538915)  can0  012   [8]  E8 03 10 00 DD 01 00 00
 (1653409739.539952)  can0  014   [5]  1E D0 01 0D 27
 (1653409739.540179)  can0  1E5   [8]  1C FE 60 10 07 00 01 CD
 (1653409739.548926)  can0  012   [8]  E8 03 10 00 AE 01 00 00
 (1653409739.549974)  can0  014   [5]  1C D0 01 10 27
 (1653409739.550200)  can0  1E5   [8]  1C FE 60 30 06 00 01 EC
 (1653409739.558928)  can0  012   [8]  E8 03 10 00 83 01 00 00
 (1653409739.559951)  can0  014   [5]  1B D0 01 13 27
 (1653409739.560192)  can0  1E5   [8]  1C FE 62 50 07 00 02 0F
 (1653409739.568923)  can0  012   [8]  E8 03 10 00 5C 01 00 00
 (1653409739.569965)  can0  014   [5]  1B C0 01 10 27
 (1653409739.570182)  can0  1E5   [8]  1C FE 62 70 06 00 02 2E
 (1653409739.578930)  can0  012   [8]  E8 03 10 00 39 01 00 00
 (1653409739.579230)  can0  0F0   [1]  01
 (1653409739.579970)  can0  014   [5]  1A D0 01 10 27
 (1653409739.580011)  can0  011   [2]  07 01
 (1653409739.580147)  can0  013   [1]  00
 (1653409739.580198)  can0  1E5   [8]  1C FE 62 10 05 00 01 CD
 (1653409739.588931)  can0  012   [8]  E8 03 10 00 1A 01 00 00
 (1653409739.589948)  can0  014   [5]  1F 20 02 13 27
 (1653409739.590199)  can0  1E5   [8]  1C FE 62 30 04 00 01 EC
 (1653409739.598925)  can0  012   [8]  E8 03 10 00 FE 00 00 00
 (1653409739.599959)  can0  014   [5]  1D F0 01 0A 27
 (1653409739.600188)  can0  1E5   [8]  1C FE 62 50 03 00 02 0B
 (1653409739.608916)  can0  012   [8]  E8 03 10 00 E4 00 00 00
 (1653409739.609961)  can0  014   [5]  20 A0 01 10 27
 (1653409739.610198)  can0  1E5   [8]  1C FE 62 70 03 00 02 2B
 (1653409739.618913)  can0  012   [8]  E8 03 10 00 CD 00 00 00
 (1653409739.619952)  can0  014   [5]  1D C0 01 10 27
 (1653409739.620190)  can0  1E5   [8]  1C FE 62 10 02 00 01 CA
 (1653409739.628556)  can0  010   [4]  31 84 07 01
 (1653409739.628907)  can0  012   [8]  E8 03 10 00 B9 00 00 00
 (1653409739.629951)  can0  014   [5]  1D C0 01 13 27
 (1653409739.630192)  can0  1E5   [8]  1C FE 62 30 02 00 01 EA
 (1653409739.638930)  can0  012   [8]  E8 03 10 00 A6 00 00 00
 (1653409739.639948)  can0  014   [5]  1D E0 01 0D 27
 (1653409739.640176)  can0  1E5   [8]  1C FE 62 50 01 00 02 09
 (1653409739.648915)  can0  012   [8]  E8 03 10 00 95 00 00 00
 (1653409739.649969)  can0  014   [5]  1D E0 01 10 27
 (1653409739.650183)  can0  1E5   [8]  1C FE 62 70 01 00 02 29
 (1653409739.658927)  can0  012   [8]  E8 03 10 00 86 00 00 00
 (1653409739.659967)  can0  014   [5]  1E 00 02 11 27
 (1653409739.660183)  can0  1E5   [8]  1C FE 62 10 00 00 01 C8
 (1653409739.668926)  can0  012   [8]  E8 03 10 00 79 00 00 00
 (1653409739.669968)  can0  014   [5]  20 00 02 0F 27
 (1653409739.670199)  can0  1E5   [8]  1C FE 62 30 00 00 01 E8
 (1653409739.678928)  can0  012   [8]  E8 03 10 00 6D 00 00 00
 (1653409739.679961)  can0  014   [5]  1E 00 02 10 27
 (1653409739.680194)  can0  1E5   [8]  1C FE 62 50 00 00 02 08
 (1653409739.680593)  can0  0F0   [1]  01
 (1653409739.681359)  can0  011   [2]  04 01
 (1653409739.681487)  can0  013   [1]  00
 (1653409739.688940)  can0  012   [8]  E8 03 10 00 62 00 00 00
 (1653409739.689957)  can0  014   [5]  19 E0 01 19 27
 (1653409739.690195)  can0  1E5   [8]  1C FE 62 70 00 00 02 28
 (1653409739.698919)  can0  012   [8]  E8 03 10 00 58 00 00 00
 (1653409739.699956)  can0  014   [5]  1C E0 01 07 27
 (1653409739.700194)  can0  1E5   [8]  1C FE 62 10 00 00 01 C8
 (1653409739.708920)  can0  012   [8]  E8 03 10 00 4F 00 00 00
 (1653409739.709954)  can0  014   [5]  1F 30 02 10 27
 (1653409739.710195)  can0  1E5   [8]  1C FE 63 30 01 00 01 EA
 (1653409739.718913)  can0  012   [8]  E8 03 10 00 47 00 00 00
 (1653409739.719966)  can0  014   [5]  24 20 02 10 27
 (1653409739.720183)  can0  1E5   [8]  1C FE 63 50 01 00 02 0A
 (1653409739.728546)  can0  010   [4]  2C 7D 04 01
 (1653409739.728924)  can0  012   [8]  E8 03 10 00 40 00 00 00
 (1653409739.729957)  can0  014   [5]  1F 20 02 13 27
 (1653409739.730199)  can0  1E5   [8]  1C FE 63 70 01 00 02 2A
