 (1653408893.192078)  can0  014   [5]  00 00 00 10 27
 (1653408893.200513)  can0  1E5   [8]  1C 06 D2 10 00 00 01 40
 (1653408893.200903)  can0  012   [8]  E8 03 10 00 00 00 00 00
 (1653408893.202069)  can0  014   [5]  00 00 00 10 27
 (1653408893.210551)  can0  1E5   [8]  1C 06 D2 30 00 00 01 60
 (1653408893.210667)  can0  010   [4]  26 73 00 00
 (1653408893.210916)  can0  012   [8]  E8 03 10 00 00 00 00 00
 (1653408893.211036)  can0  0E2   [2]  B0 02
 (1653408893.211161)  can0  0E3   [2]  B0 02
 (1653408893.212056)  can0  014   [5]  00 00 00 19 27
 (1653408893.212160)  can0  0E4   [2]  B0 02
 (1653408893.220553)  can0  1E5   [8]  1C 06 D2 50 00 00 01 80
 (1653408893.220866)  can0  012   [8]  E8 03 10 00 00 00 00 00
 (1653408893.222061)  can0  014   [5]  00 00 00 07 27
 (1653408893.230713)  can0  1E5   [8]  1C 06 D2 70 00 00 01 A0
 (1653408893.230846)  can0  012   [8]  E8 03 10 00 00 00 00 00
 (1653408893.232048)  can0  014   [5]  00 00 00 10 27
 (1653408893.240540)  can0  1E5   [8]  1C 06 D2 10 00 00 01 40
 (1653408893.240854)  can0  012   [8]  E8 03 10 00 00 00 00 00
 (1653408893.242045)  can0  014   [5]  00 00 00 10 27
 (1653408893.250547)  can0  1E5   [8]  1C 06 D2 30 00 00 01 60
 (1653408893.250852)  can0  012   [8]  E8 03 10 00 00 00 00 00
 (1653408893.252062)  can0  014   [5]  00 00 00 10 27
 (1653408893.260522)  can0  1E5   [8]  1C 06 D2 50 00 00 01 80
 (1653408893.260895)  can0  012   [8]  E8 03 10 00 00 00 00 00
 (1653408893.262052)  can0  014   [5]  00 00 00 10 27
 (1653408893.270552)  can0  1E5   [8]  1C 06 D2 70 00 00 01 A0
 (1653408893.270883)  can0  012   [8]  E8 03 10 00 00 00 00 00
 (1653408893.272061)  can0  014   [5]  00 00 00 10 27
 (1653408893.280555)  can0  1E5   [8]  1C 06 D2 10 00 00 01 40
 (1653408893.280856)  can0  012   [8]  E8 03 10 00 00 00 00 00
 (1653408893.282077)  can0  014   [5]  00 00 00 10 27
 (1653408893.290780)  can0  1E5   [8]  1C 06 D2 30 00 00 01 60
 (1653408893.290843)  can0  012   [8]  E8 03 10 00 00 00 00 00
 (1653408893.292077)  can0  014   [5]  00 00 00 10 27
 (1653408893.300538)  can0  1E5   [8]  1C 06 D2 50 00 00 01 80
 (1653408893.300859)  can0  012   [8]  E8 03 10 00 00 00 00 00
 (1653408893.302056)  can0  014   [5]  00 00 00 10 27
 (1653408893.310534)  can0  1E5   [8]  1C 06 D2 70 00 00 01 A0
 (1653408893.310858)  can0  010   [4]  26 73 00 00
 (1653408893.310940)  can0  012   [8]  E8 03 10 00 00 00 00 00
 (1653408893.312143)  can0  014   [5]  00 00 00 13 27
 (1653408893.320707)  can0  1E5   [8]  1C 06 D2 10 00 00 01 40
 (1653408893.320911)  can0  012   [8]  E8 03 10 00 00 00 00 00
 (1653408893.322068)  can0  014   [5]  00 00 00 0D 27
 (1653408893.330718)  can0  1E5   [8]  1C 06 D2 30 00 00 01 60
 (1653408893.330909)  can0  012   [8]  E8 03 10 00 00 00 00 00
 (1653408893.332075)  can0  014   [5]  00 00 00 10 27
 (1653408893.340753)  can0  1E5   [8]  1C 06 D2 50 00 00 01 80
 (1653408893.340860)  can0  012   [8]  E8 03 10 00 00 00 00 00
 (1653408893.342075)  can0  014   [5]  00 00 00 10 27
 (1653408893.350706)  can0  1E5   [8]  1C 06 D2 70 00 00 01 A0
 (1653408893.350871)  can0  012   [8]  E8 03 10 00 00 00 00 00
 (1653408893.352075)  can0  014   [5]  00 00 00 10 27
 (1653408893.360545)  can0  1E5   [8]  1C 06 D2 10 00 00 01 40
 (1653408893.360852)  can0  012   [8]  E8 03 10 00 00 00 00 00
 (1653408893.362086)  can0  014   [5]  00 00 00 10 27
 (1653408893.370706)  can0  1E5   [8]  1C 06 D2 30 00 00 01 60
 (1653408893.370870)  can0  012   [8]  E8 03 10 00 00 00 00 00
 (1653408893.372071)  can0  014   [5]  00 00 00 10 27
 (1653408893.380548)  can0  1E5   [8]  1C 06 D2 50 00 00 01 80
 (1653408893.380856)  can0  012   [8]  E8 03 10 00 00 00 00 00
 (1653408893.382079)  can0  014   [5]  00 00 00 10 27
 (1653408893.390706)  can0  1E5   [8]  1C 06 D2 70 00 00 01 A0
 (1653408893.390846)  can0  012   [8]  E8 03 10 00 00 00 00 00
 (1653408893.392078)  can0  014   [5]  00 00 00 10 27
 (1653408893.400552)  can0  1E5   [8]  1C 06 D2 10 00 00 01 40
 (1653408893.400856)  can0  012   [8]  E8 03 10 00 00 00 00 00
 (1653408893.402084)  can0  014   [5]  00 00 00 10 27
 (1653408893.410715)  can0  1E5   [8]  1C 06 D2 30 00 00 01 60
 (1653408893.410722)  can0  010   [4]  26 73 00 00
 (1653408893.410917)  can0  012   [8]  E8 03 10 00 00 00 00 00
 (1653408893.412072)  can0  014   [5]  00 00 00 13 27
 (1653408893.420719)  can0  1E5   [8]  1C 06 D2 50 00 00 01 80
 (1653408893.420914)  can0  012   [8]  E8 03 10 00 00 00 00 00
 (1653408893.422064)  can0  014   [5]  00 00 00 0D 27
 (1653408893.430722)  can0  1E5   [8]  1C 06 D2 70 00 00 01 A0
 (1653408893.430920)  can0  012   [8]  E8 03 10 00 00 00 00 00
 (1653408893.432069)  can0  014   [5]  00 00 00 10 27
 (1653408893.440713)  can0  1E5   [8]  1C 06 D2 10 00 00 01 40
 (1653408893.440908)  can0  012   [8]  E8 03 10 00 00 00 00 00
 (1653408893.442069)  can0  014   [5]  00 00 00 10 27
 (1653408893.450759)  can0  1E5   [8]  1C 06 D2 30 00 00 01 60
 (1653408893.450857)  can0  012   [8]  E8 03 10 00 00 00 00 00
 (1653408893.452071)  can0  014   [5]  00 00 00 10 27
 (1653408893.460559)  can0  1E5   [8]  1C 06 D2 50 00 00 01 80
 (1653408893.460862)  can0  012   [8]  E8 03 10 00 00 00 00 00
 (1653408893.462098)  can0  014   [5]  00 00 00 10 27
 (1653408893.470551)  can0  1E5   [8]  1C 06 D4 70 01 00 01 A3
 (1653408893.470851)  can0  012   [8]  E8 03 10 00 00 00 00 00
 (1653408893.472050)  can0  014   [5]  00 00 00 10 27
 (1653408893.480551)  can0  1E5   [8]  1C 06 D4 10 01 00 01 43
 (1653408893.480908)  can0  012   [8]  E8 03 10 00 00 00 00 00
 (1653408893.482080)  can0  014   [5]  00 00 00 10 27
 (1653408893.490536)  can0  1E5   [8]  1C 06 D4 30 01 00 01 63
 (1653408893.490861)  can0  012   [8]  E8 03 10 00 00 00 00 00
 (1653408893.492113)  can0  014   [5]  00 00 00 10 27
 (1653408893.500534)  can0  1E5   [8]  1C 06 D4 50 01 00 01 83
 (1653408893.500858)  can0  012   [8]  E8 03 10 00 00 00 00 00
 (1653408893.502054)  can0  014   [5]  00 00 00 10 27
 (1653408893.510503)  can0  1E5   [8]  1C 06 D5 70 02 00 01 A5
 (1653408893.510669)  can0  010   [4]  26 73 00 00
 (1653408893.510905)  can0  012   [8]  E8 03 10 00 00 00 00 00
 (1653408893.512100)  can0  014   [5]  00 00 00 13 27
 (1653408893.520535)  can0  1E5   [8]  1C 06 D5 10 02 00 01 45
 (1653408893.520926)  can0  012   [8]  E8 03 10 00 00 00 00 00
 (1653408893.522073)  can0  014   [5]  00 00 00 0D 27
 (1653408893.530541)  can0  1E5   [8]  1C 06 D5 30 02 00 01 65
 (1653408893.530891)  can0  012   [8]  E8 03 10 00 00 00 00 00
 (1653408893.532075)  can0  014   [5]  00 00 00 10 27
 (1653408893.540543)  can0  1E5   [8]  1C 06 D7 50 03 00 01 88
 (1653408893.540899)  can0  012   [8]  E8 03 10 00 00 00 00 00
 (1653408893.542074)  can0  014   [5]  00 00 00 10 27
 (1653408893.550514)  can0  1E5   [8]  1C 06 D9 70 04 00 01 AB
 (1653408893.550854)  can0  012   [8]  E8 03 10 00 00 00 00 00
 (1653408893.552031)  can0  014   [5]  00 00 00 10 27
 (1653408893.560683)  can0  1E5   [8]  1C 06 DA 10 05 00 01 4D
 (1653408893.560870)  can0  012   [8]  E8 03 10 00 00 00 00 00
 (1653408893.562068)  can0  014   [5]  00 00 00 10 27
 (1653408893.570707)  can0  1E5   [8]  1C 06 DA 30 04 00 01 6C
 (1653408893.570905)  can0  012   [8]  E8 03 10 00 00 00 00 00
 (1653408893.572069)  can0  014   [5]  00 00 00 10 27
 (1653408893.580704)  can0  1E5   [8]  1C 06 DC 50 05 00 01 8F
 (1653408893.580917)  can0  012   [8]  E8 03 10 00 00 00 00 00
 (1653408893.582066)  can0  014   [5]  00 00 00 10 27
 (1653408893.590701)  can0  1E5   [8]  1C 06 DC 70 05 00 01 AF
 (1653408893.590886)  can0  012   [8]  E8 03 10 00 00 00 00 00
 (1653408893.592067)  can0  014   [5]  00 00 00 10 27
 (1653408893.600721)  can0  1E5   [8]  1C 06 DD 10 06 00 01 51
 (1653408893.600849)  can0  012   [8]  E8 03 10 00 00 00 00 00
 (1653408893.602068)  can0  014   [5]  00 00 00 10 27
 (1653408893.610690)  can0  1E5   [8]  1C 06 DD 30 05 00 01 70
 (1653408893.610699)  can0  010   [4]  26 73 00 00
 (1653408893.610916)  can0  012   [8]  E8 03 10 00 00 00 00 00
 (1653408893.612067)  can0  014   [5]  00 00 00 13 27
 (1653408893.620704)  can0  1E5   [8]  1C 06 DD 50 05 00 01 90
 (1653408893.620911)  can0  012   [8]  E8 03 10 00 00 00 00 00
 (1653408893.622079)  can0  014   [5]  00 00 00 0D 27
 (1653408893.630704)  can0  1E5   [8]  1C 06 DD 70 05 00 01 B0
 (1653408893.630912)  can0  012   [8]  E8 03 10 00 00 00 00 00
 (1653408893.632082)  can0  014   [5]  00 00 00 10 27
 (1653408893.640707)  can0  1E5   [8]  1C 06 DD 10 04 00 01 4F
 (1653408893.640908)  can0  012   [8]  E8 03 10 00 00 00 00 00
 (1653408893.642079)  can0  014   [5]  00 00 00 10 27
 (1653408893.650697)  can0  1E5   [8]  1C 06 DD 30 03 00 01 6E
 (1653408893.650906)  can0  012   [8]  E8 03 10 00 00 00 00 00
 (1653408893.652080)  can0  014   [5]  00 00 00 10 27
 (1653408893.660706)  can0  1E5   [8]  1C 06 DD 50 02 00 01 8D
 (1653408893.660911)  can0  012   [8]  E8 03 10 00 00 00 00 00
 (1653408893.662077)  can0  014   [5]  00 00 00 10 27
 (1653408893.670710)  can0  1E5   [8]  1C 06 DD 70 02 00 01 AD
 (1653408893.670914)  can0  012   [8]  E8 03 10 00 00 00 00 00
 (1653408893.672069)  can0  014   [5]  00 00 00 10 27
 (1653408893.680706)  can0  1E5   [8]  1C 06 DD 10 01 00 01 4C
 (1653408893.680867)  can0  012   [8]  E8 03 10 00 00 00 00 00
 (1653408893.682068)  can0  014   [5]  00 00 00 10 27
 (1653408893.690706)  can0  1E5   [8]  1C 06 DD 30 01 00 01 6C
 (1653408893.690907)  can0  012   [8]  E8 03 10 00 00 00 00 00
 (1653408893.692073)  can0  014   [5]  00 00 00 10 27
 (1653408893.700712)  can0  1E5   [8]  1C 06 DF 50 01 00 01 8E
 (1653408893.700881)  can0  012   [8]  E8 03 10 00 00 00 00 00
 (1653408893.702070)  can0  014   [5]  00 00 00 10 27
 (1653408893.710541)  can0  1E5   [8]  1C 06 DF 70 01 00 01 AE
 (1653408893.710655)  can0  010   [4]  26 73 00 00
 (1653408893.710905)  can0  012   [8]  E8 03 10 00 00 00 00 00
 (1653408893.712079)  can0  014   [5]  00 00 00 13 27
 (1653408893.720540)  can0  1E5   [8]  1C 06 DF 10 01 00 01 4E
 (1653408893.720889)  can0  012   [8]  E8 03 10 00 00 00 00 00
 (1653408893.722083)  can0  014   [5]  00 00 00 0D 27
 (1653408893.730538)  can0  1E5   [8]  1C 06 DF 30 01 00 01 6E
 (1653408893.730906)  can0  012   [8]  E8 03 10 00 00 00 00 00
 (1653408893.732081)  can0  014   [5]  00 00 00 10 27
 (1653408893.740538)  can0  1E5   [8]  1C 06 DF 50 01 00 01 8E
 (1653408893.740904)  can0  012   [8]  E8 03 10 00 00 00 00 00
 (1653408893.742080)  can0  014   [5]  00 00 00 10 27
 (1653408893.750539)  can0  1E5   [8]  1C 06 DF 70 01 00 01 AE
 (1653408893.750909)  can0  012   [8]  E8 03 10 00 00 00 00 00
 (1653408893.752075)  can0  014   [5]  00 00 00 10 27
 (1653408893.760529)  can0  1E5   [8]  1C 06 DF 10 01 00 01 4E
 (1653408893.760845)  can0  012   [8]  E8 03 10 00 00 00 00 00
 (1653408893.762103)  can0  014   [5]  00 00 00 10 27
 (1653408893.770538)  can0  1E5   [8]  1C 06 DF 30 01 00 01 6E
 (1653408893.770884)  can0  012   [8]  E8 03 10 00 00 00 00 00
 (1653408893.772068)  can0  014   [5]  00 00 00 10 27
 (1653408893.780539)  can0  1E5   [8]  1C 06 DF 50 01 00 01 8E
 (1653408893.780908)  can0  012   [8]  E8 03 10 00 00 00 00 00
 (1653408893.782065)  can0  014   [5]  00 00 00 10 27
 (1653408893.790537)  can0  1E5   [8]  1C 06 E1 70 02 00 01 B1
 (1653408893.790903)  can0  012   [8]  E8 03 10 00 00 00 00 00
 (1653408893.792063)  can0  014   [5]  00 00 00 10 27
 (1653408893.800514)  can0  1E5   [8]  1C 06 E1 10 01 00 01 50
 (1653408893.800854)  can0  012   [8]  E8 03 10 00 00 00 00 00
 (1653408893.802070)  can0  014   [5]  00 00 00 10 27
 (1653408893.810683)  can0  1E5   [8]  1C 06 E1 30 01 00 01 70
 (1653408893.810691)  can0  010   [4]  26 73 00 00
 (1653408893.810901)  can0  012   [8]  E8 03 10 00 00 00 00 00
 (1653408893.812071)  can0  014   [5]  00 00 00 13 27
 (1653408893.820701)  can0  1E5   [8]  1C 06 E1 50 01 00 01 90
 (1653408893.820908)  can0  012   [8]  E8 03 10 00 00 00 00 00
 (1653408893.822069)  can0  014   [5]  00 00 00 0D 27
 (1653408893.830706)  can0  1E5   [8]  1C 06 E1 70 01 00 01 B0
 (1653408893.830845)  can0  012   [8]  E8 03 10 00 00 00 00 00
 (1653408893.832049)  can0  014   [5]  00 00 00 10 27
 (1653408893.840696)  can0  1E5   [8]  1C 06 E2 10 02 00 01 52
 (1653408893.840845)  can0  012   [8]  E8 03 10 00 00 00 00 00
 (1653408893.842060)  can0  014   [5]  00 00 00 10 27
 (1653408893.850707)  can0  1E5   [8]  1C 06 E2 30 02 00 01 72
 (1653408893.850846)  can0  012   [8]  E8 03 10 00 00 00 00 00
 (1653408893.852042)  can0  014   [5]  00 00 00 10 27
 (1653408893.860768)  can0  1E5   [8]  1C 06 E2 50 02 00 01 92
 (1653408893.860860)  can0  012   [8]  E8 03 10 00 00 00 00 00
 (1653408893.862035)  can0  014   [5]  00 00 00 10 27
 (1653408893.870705)  can0  1E5   [8]  1C 06 E2 70 02 00 01 B2
 (1653408893.870845)  can0  012   [8]  E8 03 10 00 00 00 00 00
 (1653408893.872048)  can0  014   [5]  00 00 00 10 27
 (1653408893.880699)  can0  1E5   [8]  1C 06 E4 10 03 00 01 55
 (1653408893.880847)  can0  012   [8]  E8 03 10 00 00 00 00 00
 (1653408893.882054)  can0  014   [5]  00 00 00 10 27
 (1653408893.890703)  can0  1E5   [8]  1C 06 E4 30 02 00 01 74
 (1653408893.890846)  can0  012   [8]  E8 03 10 00 00 00 00 00
 (1653408893.892044)  can0  014   [5]  00 00 00 10 27
 (1653408893.900701)  can0  1E5   [8]  1C 06 E4 50 02 00 01 94
 (1653408893.900845)  can0  012   [8]  E8 03 10 00 00 00 00 00
 (1653408893.902048)  can0  014   [5]  00 00 00 10 27
 (1653408893.910703)  can0  1E5   [8]  1C 06 E5 70 03 00 01 B6
 (1653408893.910711)  can0  010   [4]  26 73 00 00
 (1653408893.910875)  can0  012   [8]  E8 03 10 00 00 00 00 00
 (1653408893.912046)  can0  014   [5]  00 00 00 13 27
 (1653408893.920699)  can0  1E5   [8]  1C 06 E5 10 03 00 01 56
 (1653408893.920845)  can0  012   [8]  E8 03 10 00 00 00 00 00
 (1653408893.922043)  can0  014   [5]  00 00 00 0D 27
 (1653408893.930707)  can0  1E5   [8]  1C 06 E5 30 03 00 01 76
 (1653408893.930914)  can0  012   [8]  E8 03 10 00 00 00 00 00
 (1653408893.932067)  can0  014   [5]  00 00 00 10 27
 (1653408893.940782)  can0  1E5   [8]  1C 06 E7 50 03 00 01 98
 (1653408893.940878)  can0  012   [8]  E8 03 10 00 00 00 00 00
 (1653408893.942066)  can0  014   [5]  00 00 00 10 27
 (1653408893.950712)  can0  1E5   [8]  1C 06 E7 70 03 00 01 B8
 (1653408893.950863)  can0  012   [8]  E8 03 10 00 00 00 00 00
 (1653408893.952059)  can0  014   [5]  00 00 00 10 27
 (1653408893.960541)  can0  1E5   [8]  1C 06 E7 10 03 00 01 58
 (1653408893.960861)  can0  012   [8]  E8 03 10 00 00 00 00 00
 (1653408893.962073)  can0  014   [5]  00 00 00 10 27
 (1653408893.970534)  can0  1E5   [8]  1C 06 E7 30 03 00 01 78
 (1653408893.970850)  can0  012   [8]  E8 03 10 00 00 00 00 00
 (1653408893.972103)  can0  014   [5]  00 00 00 10 27
 (1653408893.980535)  can0  1E5   [8]  1C 06 E7 50 02 00 01 97
 (1653408893.980854)  can0  012   [8]  E8 03 10 00 00 00 00 00
 (1653408893.982044)  can0  014   [5]  00 00 00 10 27
 (1653408893.990535)  can0  1E5   [8]  1C 06 E9 70 03 00 01 BA
 (1653408893.990851)  can0  012   [8]  E8 03 10 00 00 00 00 00
 (1653408893.992048)  can0  014   [5]  00 00 00 10 27
 (1653408894.000535)  can0  1E5   [8]  1C 06 E9 10 03 00 01 5A
 (1653408894.000853)  can0  012   [8]  E8 03 10 00 00 00 00 00
 (1653408894.002049)  can0  014   [5]  00 00 00 10 27
 (1653408894.010498)  can0  1E5   [8]  1C 06 E9 30 02 00 01 79
 (1653408894.010624)  can0  010   [4]  26 73 00 00
 (1653408894.010899)  can0  012   [8]  E8 03 10 00 00 00 00 00
 (1653408894.012035)  can0  014   [5]  00 00 00 13 27
 (1653408894.020536)  can0  1E5   [8]  1C 06 E9 50 02 00 01 99
 (1653408894.020868)  can0  012   [8]  E8 03 10 00 00 00 00 00
 (1653408894.022033)  can0  014   [5]  00 00 00 0D 27
 (1653408894.030532)  can0  1E5   [8]  1C 06 E9 70 02 00 01 B9
 (1653408894.030848)  can0  012   [8]  E8 03 10 00 00 00 00 00
 (1653408894.032066)  can0  014   [5]  00 00 00 10 27
 (1653408894.040533)  can0  1E5   [8]  1C 06 E7 10 00 00 01 55
 (1653408894.040849)  can0  012   [8]  E8 03 10 00 00 00 00 00
 (1653408894.042062)  can0  014   [5]  00 00 00 10 27
 (1653408894.050701)  can0  1E5   [8]  1C 06 E9 30 00 00 01 77
 (1653408894.050839)  can0  012   [8]  E8 03 10 00 00 00 00 00
 (1653408894.052051)  can0  014   [5]  00 00 00 10 27
 (1653408894.060710)  can0  1E5   [8]  1C 06 E7 50 00 00 01 95
 (1653408894.060845)  can0  012   [8]  E8 03 10 00 00 00 00 00
 (1653408894.062046)  can0  014   [5]  00 00 00 10 27
 (1653408894.070712)  can0  1E5   [8]  1C 06 E9 70 00 00 01 B7
 (1653408894.070847)  can0  012   [8]  E8 03 10 00 00 00 00 00
 (1653408894.072042)  can0  014   [5]  00 00 00 10 27
 (1653408894.080709)  can0  1E5   [8]  1C 06 E7 10 00 00 01 55
 (1653408894.080847)  can0  012   [8]  E8 03 10 00 00 00 00 00
 (1653408894.082043)  can0  014   [5]  00 00 00 10 27
 (1653408894.090704)  can0  1E5   [8]  1C 06 E9 30 00 00 01 77
 (1653408894.090883)  can0  012   [8]  E8 03 10 00 00 00 00 00
 (1653408894.092037)  can0  014   [5]  00 00 00 10 27
 (1653408894.100699)  can0  1E5   [8]  1C 06 E7 50 00 00 01 95
 (1653408894.100844)  can0  012   [8]  E8 03 10 00 00 00 00 00
 (1653408894.102054)  can0  014   [5]  00 00 00 10 27
 (1653408894.110702)  can0  1E5   [8]  1C 06 E9 70 00 00 01 B7
 (1653408894.110710)  can0  010   [4]  26 73 00 00
 (1653408894.110875)  can0  012   [8]  E8 03 10 00 00 00 00 00
 (1653408894.112047)  can0  014   [5]  00 00 00 13 27
 (1653408894.120711)  can0  1E5   [8]  1C 06 E9 10 00 00 01 57
 (1653408894.120846)  can0  012   [8]  E8 03 10 00 00 00 00 00
 (1653408894.122043)  can0  014   [5]  00 00 00 0D 27
 (1653408894.130706)  can0  1E5   [8]  1C 06 E9 30 00 00 01 77
 (1653408894.130846)  can0  012   [8]  E8 03 10 00 00 00 00 00
 (1653408894.132083)  can0  014   [5]  00 00 00 10 27
 (1653408894.140700)  can0  1E5   [8]  1C 06 E9 50 00 00 01 97
 (1653408894.140847)  can0  012   [8]  E8 03 10 00 00 00 00 00
 (1653408894.142067)  can0  014   [5]  00 00 00 10 27
 (1653408894.150699)  can0  1E5   [8]  1C 06 E9 70 00 00 01 B7
 (1653408894.150898)  can0  012   [8]  E8 03 10 00 00 00 00 00
 (1653408894.152075)  can0  014   [5]  00 00 00 10 27
 (1653408894.160705)  can0  1E5   [8]  1C 06 E9 10 00 00 01 57
 (1653408894.160903)  can0  012   [8]  E8 03 10 00 00 00 00 00
 (1653408894.162067)  can0  014   [5]  00 00 00 10 27
 (1653408894.170699)  can0  1E5   [8]  1C 06 E9 30 00 00 01 77
 (1653408894.170878)  can0  012   [8]  E8 03 10 00 00 00 00 00
 (1653408894.172081)  can0  014   [5]  00 00 00 10 27
 (1653408894.180713)  can0  1E5   [8]  1C 06 E9 50 00 00 01 97
 (1653408894.180910)  can0  012   [8]  E8 03 10 00 00 00 00 00
 (1653408894.182060)  can0  014   [5]  00 00 00 10 27
 (1653408894.190709)  can0  1E5   [8]  1C 06 E9 70 00 00 01 B7
 (1653408894.190908)  can0  012   [8]  E8 03 10 00 00 00 00 00
 (1653408894.192065)  can0  014   [5]  00 00 00 10 27
 (1653408894.200714)  can0  1E5   [8]  1C 06 E9 10 00 00 01 57
 (1653408894.200869)  can0  012   [8]  E8 03 10 00 00 00 00 00
 (1653408894.202026)  can0  014   [5]  00 00 00 10 27
 (1653408894.210552)  can0  1E5   [8]  1C 06 E9 30 00 00 01 77
 (1653408894.210642)  can0  010   [4]  26 73 00 00
 (1653408894.210874)  can0  012   [8]  E8 03 10 00 00 00 00 00
 (1653408894.211006)  can0  0E2   [2]  D8 02
 (1653408894.211129)  can0  0E3   [2]  D8 02
 (1653408894.212046)  can0  014   [5]  00 00 00 19 27
 (1653408894.212160)  can0  0E4   [2]  D8 02
 (1653408894.220535)  can0  1E5   [8]  1C 06 E9 50 00 00 01 97
 (1653408894.220851)  can0  012   [8]  E8 03 10 00 00 00 00 00
 (1653408894.222073)  can0  014   [5]  00 00 00 07 27
 (1653408894.230506)  can0  1E5   [8]  1C 06 E9 70 00 00 01 B7
 (1653408894.230851)  can0  012   [8]  E8 03 10 00 00 00 00 00
 (1653408894.232074)  can0  014   [5]  00 00 00 10 27
 (1653408894.240535)  can0  1E5   [8]  1C 06 E9 10 00 00 01 57
 (1653408894.240848)  can0  012   [8]  E8 03 10 00 00 00 00 00
 (1653408894.242064)  can0  014   [5]  00 00 00 10 27
 (1653408894.250516)  can0  1E5   [8]  1C 06 E9 30 00 00 01 77
 (1653408894.250855)  can0  012   [8]  E8 03 10 00 00 00 00 00
 (1653408894.252022)  can0  014   [5]  00 00 00 10 27
 (1653408894.260504)  can0  1E5   [8]  1C 06 E9 50 00 00 01 97
 (1653408894.260843)  can0  012   [8]  E8 03 10 00 00 00 00 00
 (1653408894.262039)  can0  014   [5]  00 00 00 10 27
 (1653408894.270505)  can0  1E5   [8]  1C 06 EA 70 01 00 01 B9
 (1653408894.270902)  can0  012   [8]  E8 03 10 00 00 00 00 00
 (1653408894.272039)  can0  014   [5]  00 00 00 10 27
 (1653408894.280502)  can0  1E5   [8]  1C 06 EA 10 01 00 01 59
 (1653408894.280846)  can0  012   [8]  E8 03 10 00 00 00 00 00
 (1653408894.282040)  can0  014   [5]  00 00 00 10 27
 (1653408894.290480)  can0  1E5   [8]  1C 06 EA 30 01 00 01 79
 (1653408894.290841)  can0  012   [8]  E8 03 10 00 00 00 00 00
 (1653408894.292021)  can0  014   [5]  00 00 00 10 27
 (1653408894.300684)  can0  1E5   [8]  1C 06 EA 50 01 00 01 99
 (1653408894.300904)  can0  012   [8]  E8 03 10 00 00 00 00 00
 (1653408894.302084)  can0  014   [5]  00 00 00 10 27
 (1653408894.310498)  can0  1E5   [8]  1C 06 EA 70 01 00 01 B9
 (1653408894.310609)  can0  010   [4]  26 73 00 00
 (1653408894.310973)  can0  012   [8]  E8 03 10 00 00 00 00 00
 (1653408894.312156)  can0  014   [5]  00 00 00 13 27
 (1653408894.321181)  can0  1E5   [8]  1C 06 EA 10 01 00 01 59
 (1653408894.321190)  can0  012   [8]  E8 03 10 00 00 00 00 00
 (1653408894.322065)  can0  014   [5]  00 00 00 0D 27
 (1653408894.330706)  can0  1E5   [8]  1C 06 EA 30 01 00 01 79
 (1653408894.330855)  can0  012   [8]  E8 03 10 00 00 00 00 00
 (1653408894.332091)  can0  014   [5]  00 00 00 10 27
 (1653408894.340704)  can0  1E5   [8]  1C 06 EA 50 01 00 01 99
 (1653408894.340846)  can0  012   [8]  E8 03 10 00 00 00 00 00
 (1653408894.342058)  can0  014   [5]  00 00 00 10 27
 (1653408894.350705)  can0  1E5   [8]  1C 06 EC 70 02 00 01 BC
 (1653408894.350910)  can0  012   [8]  E8 03 10 00 00 00 00 00
 (1653408894.352077)  can0  014   [5]  00 00 00 10 27
 (1653408894.360706)  can0  1E5   [8]  1C 06 EA 10 00 00 01 58
 (1653408894.360895)  can0  012   [8]  E8 03 10 00 00 00 00 00
 (1653408894.362072)  can0  014   [5]  00 00 00 10 27
 (1653408894.370706)  can0  1E5   [8]  1C 06 EC 30 00 00 01 7A
 (1653408894.370877)  can0  012   [8]  E8 03 10 00 00 00 00 00
 (1653408894.372076)  can0  014   [5]  00 00 00 10 27
 (1653408894.380697)  can0  1E5   [8]  1C 06 EC 50 00 00 01 9A
 (1653408894.380900)  can0  012   [8]  E8 03 10 00 00 00 00 00
 (1653408894.382077)  can0  014   [5]  00 00 00 10 27
 (1653408894.390706)  can0  1E5   [8]  1C 06 EC 70 00 00 01 BA
 (1653408894.390852)  can0  012   [8]  E8 03 10 00 00 00 00 00
 (1653408894.392077)  can0  014   [5]  00 00 00 10 27
 (1653408894.400707)  can0  1E5   [8]  1C 06 EC 10 00 00 01 5A
 (1653408894.400914)  can0  012   [8]  E8 03 10 00 00 00 00 00
 (1653408894.402082)  can0  014   [5]  00 00 00 10 27
 (1653408894.410702)  can0  1E5   [8]  1C 06 EC 30 00 00 01 7A
 (1653408894.410711)  can0  010   [4]  26 73 00 00
 (1653408894.410862)  can0  012   [8]  E8 03 10 00 00 00 00 00
 (1653408894.412081)  can0  014   [5]  00 00 00 13 27
 (1653408894.420705)  can0  1E5   [8]  1C 06 EC 50 00 00 01 9A
 (1653408894.420852)  can0  012   [8]  E8 03 10 00 00 00 00 00
 (1653408894.422072)  can0  014   [5]  00 00 00 0D 27
 (1653408894.430705)  can0  1E5   [8]  1C 06 EC 70 00 00 01 BA
 (1653408894.430917)  can0  012   [8]  E8 03 10 00 00 00 00 00
 (1653408894.432071)  can0  014   [5]  00 00 00 10 27
 (1653408894.440536)  can0  1E5   [8]  1C 06 ED 10 01 00 01 5C
 (1653408894.440866)  can0  012   [8]  E8 03 10 00 00 00 00 00
 (1653408894.442067)  can0  014   [5]  00 00 00 10 27
 (1653408894.450705)  can0  1E5   [8]  1C 06 ED 30 01 00 01 7C
 (1653408894.450846)  can0  012   [8]  E8 03 10 00 00 00 00 00
 (1653408894.452033)  can0  014   [5]  00 00 00 10 27
 (1653408894.460548)  can0  1E5   [8]  1C 06 ED 50 01 00 01 9C
 (1653408894.460926)  can0  012   [8]  E8 03 10 00 00 00 00 00
 (1653408894.462155)  can0  014   [5]  00 00 00 10 27
 (1653408894.470503)  can0  1E5   [8]  1C 06 ED 70 01 00 01 BC
 (1653408894.470838)  can0  012   [8]  E8 03 10 00 00 00 00 00
 (1653408894.472037)  can0  014   [5]  00 00 00 10 27
 (1653408894.480500)  can0  1E5   [8]  1C 06 ED 10 01 00 01 5C
 (1653408894.480849)  can0  012   [8]  E8 03 10 00 00 00 00 00
 (1653408894.482045)  can0  014   [5]  00 00 00 10 27
 (1653408894.490505)  can0  1E5   [8]  1C 06 ED 30 01 00 01 7C
 (1653408894.490846)  can0  012   [8]  E8 03 10 00 00 00 00 00
 (1653408894.492036)  can0  014   [5]  00 00 00 10 27
 (1653408894.500499)  can0  1E5   [8]  1C 06 ED 50 01 00 01 9C
 (1653408894.500836)  can0  012   [8]  E8 03 10 00 00 00 00 00
 (1653408894.502027)  can0  014   [5]  00 00 00 10 27
 (1653408894.510491)  can0  1E5   [8]  1C 06 ED 70 01 00 01 BC
 (1653408894.510619)  can0  010   [4]  26 73 00 00
 (1653408894.510858)  can0  012   [8]  E8 03 10 00 00 00 00 00
 (1653408894.512030)  can0  014   [5]  00 00 00 13 27
 (1653408894.520527)  can0  1E5   [8]  1C 06 ED 10 01 00 01 5C
 (1653408894.520850)  can0  012   [8]  E8 03 10 00 00 00 00 00
 (1653408894.522032)  can0  014   [5]  00 00 00 0D 27
 (1653408894.530536)  can0  1E5   [8]  1C 06 ED 30 01 00 01 7C
 (1653408894.530866)  can0  012   [8]  E8 03 10 00 00 00 00 00
 (1653408894.532053)  can0  014   [5]  00 00 00 10 27
 (1653408894.540533)  can0  1E5   [8]  1C 06 ED 50 00 00 01 9B
 (1653408894.540858)  can0  012   [8]  E8 03 10 00 00 00 00 00
 (1653408894.542028)  can0  014   [5]  00 00 00 10 27
 (1653408894.550526)  can0  1E5   [8]  1C 06 ED 70 00 00 01 BB
 (1653408894.550866)  can0  012   [8]  E8 03 10 00 00 00 00 00
 (1653408894.552033)  can0  014   [5]  00 00 00 10 27
 (1653408894.560713)  can0  1E5   [8]  1C 06 ED 10 00 00 01 5B
 (1653408894.560866)  can0  012   [8]  E8 03 10 00 00 00 00 00
 (1653408894.562056)  can0  014   [5]  00 00 00 10 27
 (1653408894.570558)  can0  1E5   [8]  1C 06 ED 30 00 00 01 7B
 (1653408894.570883)  can0  012   [8]  E8 03 10 00 00 00 00 00
 (1653408894.572076)  can0  014   [5]  00 00 00 10 27
 (1653408894.580713)  can0  1E5   [8]  1C 06 ED 50 00 00 01 9B
 (1653408894.580941)  can0  012   [8]  E8 03 10 00 00 00 00 00
 (1653408894.582068)  can0  014   [5]  00 00 00 10 27
 (1653408894.590508)  can0  1E5   [8]  1C 06 ED 70 00 00 01 BB
 (1653408894.590857)  can0  012   [8]  E8 03 10 00 00 00 00 00
 (1653408894.592067)  can0  014   [5]  00 00 00 10 27
 (1653408894.600715)  can0  1E5   [8]  1C 06 ED 10 00 00 01 5B
 (1653408894.600869)  can0  012   [8]  E8 03 10 00 00 00 00 00
 (1653408894.602071)  can0  014   [5]  00 00 00 10 27
 (1653408894.610508)  can0  1E5   [8]  1C 06 ED 30 00 00 01 7B
 (1653408894.610605)  can0  010   [4]  26 73 00 00
 (1653408894.610897)  can0  012   [8]  E8 03 10 00 00 00 00 00
 (1653408894.612064)  can0  014   [5]  00 00 00 13 27
 (1653408894.620716)  can0  1E5   [8]  1C 06 ED 50 00 00 01 9B
 (1653408894.620916)  can0  012   [8]  E8 03 10 00 00 00 00 00
 (1653408894.622063)  can0  014   [5]  00 00 00 0D 27
 (1653408894.630509)  can0  1E5   [8]  1C 06 ED 70 00 00 01 BB
 (1653408894.630856)  can0  012   [8]  E8 03 10 00 00 00 00 00
 (1653408894.632097)  can0  014   [5]  00 00 00 10 27
 (1653408894.640715)  can0  1E5   [8]  1C 06 ED 10 00 00 01 5B
 (1653408894.640903)  can0  012   [8]  E8 03 10 00 00 00 00 00
 (1653408894.642076)  can0  014   [5]  00 00 00 10 27
 (1653408894.650761)  can0  1E5   [8]  1C 06 ED 30 00 00 01 7B
 (1653408894.650870)  can0  012   [8]  E8 03 10 00 00 00 00 00
 (1653408894.652064)  can0  014   [5]  00 00 00 10 27
 (1653408894.660705)  can0  1E5   [8]  1C 06 ED 50 00 00 01 9B
 (1653408894.660897)  can0  012   [8]  E8 03 10 00 00 00 00 00
 (1653408894.662060)  can0  014   [5]  00 00 00 10 27
 (1653408894.670664)  can0  1E5   [8]  1C 06 ED 70 00 00 01 BB
 (1653408894.670845)  can0  012   [8]  E8 03 10 00 00 00 00 00
 (1653408894.672079)  can0  014   [5]  00 00 00 10 27
 (1653408894.680723)  can0  1E5   [8]  1C 06 ED 10 00 00 01 5B
 (1653408894.680910)  can0  012   [8]  E8 03 10 00 00 00 00 00
 (1653408894.682060)  can0  014   [5]  00 00 00 10 27
 (1653408894.690509)  can0  1E5   [8]  1C 06 ED 30 00 00 01 7B
 (1653408894.690869)  can0  012   [8]  E8 03 10 00 00 00 00 00
 (1653408894.692070)  can0  014   [5]  00 00 00 10 27
 (1653408894.700706)  can0  1E5   [8]  1C 06 ED 50 00 00 01 9B
 (1653408894.700885)  can0  012   [8]  E8 03 10 00 00 00 00 00
 (1653408894.702022)  can0  014   [5]  00 00 00 10 27
 (1653408894.710560)  can0  1E5   [8]  1C 06 ED 70 00 00 01 BB
 (1653408894.710644)  can0  010   [4]  26 73 00 00
 (1653408894.710855)  can0  012   [8]  E8 03 10 00 00 00 00 00
 (1653408894.712068)  can0  014   [5]  00 00 00 13 27
 (1653408894.720537)  can0  1E5   [8]  1C 06 ED 10 00 00 01 5B
 (1653408894.720881)  can0  012   [8]  E8 03 10 00 00 00 00 00
 (1653408894.722081)  can0  014   [5]  00 00 00 0D 27
 (1653408894.730537)  can0  1E5   [8]  1C 06 ED 30 00 00 01 7B
 (1653408894.730887)  can0  012   [8]  E8 03 10 00 00 00 00 00
 (1653408894.732069)  can0  014   [5]  00 00 00 10 27
 (1653408894.740534)  can0  1E5   [8]  1C 06 ED 50 00 00 01 9B
 (1653408894.740858)  can0  012   [8]  E8 03 10 00 00 00 00 00
 (1653408894.742072)  can0  014   [5]  00 00 00 10 27
 (1653408894.750534)  can0  1E5   [8]  1C 06 ED 70 00 00 01 BB
 (1653408894.750844)  can0  012   [8]  E8 03 10 00 00 00 00 00
 (1653408894.752076)  can0  014   [5]  00 00 00 10 27
 (1653408894.760537)  can0  1E5   [8]  1C 06 ED 10 00 00 01 5B
 (1653408894.760848)  can0  012   [8]  E8 03 10 00 00 00 00 00
 (1653408894.762079)  can0  014   [5]  00 00 00 10 27
 (1653408894.770534)  can0  1E5   [8]  1C 06 ED 30 00 00 01 7B
 (1653408894.770843)  can0  012   [8]  E8 03 10 00 00 00 00 00
 (1653408894.772057)  can0  014   [5]  00 00 00 10 27
 (1653408894.780522)  can0  1E5   [8]  1C 06 ED 50 00 00 01 9B
 (1653408894.780837)  can0  012   [8]  E8 03 10 00 00 00 00 00
 (1653408894.782070)  can0  014   [5]  00 00 00 10 27
 (1653408894.790531)  can0  1E5   [8]  1C 06 ED 70 00 00 01 BB
 (1653408894.790869)  can0  012   [8]  E8 03 10 00 00 00 00 00
 (1653408894.792090)  can0  014   [5]  00 00 00 10 27
 (1653408894.800706)  can0  1E5   [8]  1C 06 ED 10 00 00 01 5B
 (1653408894.800850)  can0  012   [8]  E8 03 10 00 00 00 00 00
 (1653408894.802060)  can0  014   [5]  00 00 00 10 27
 (1653408894.810704)  can0  1E5   [8]  1C 06 ED 30 00 00 01 7B
 (1653408894.810712)  can0  010   [4]  26 73 00 00
 (1653408894.810846)  can0  012   [8]  E8 03 10 00 00 00 00 00
 (1653408894.812078)  can0  014   [5]  00 00 00 13 27
 (1653408894.820706)  can0  1E5   [8]  1C 06 ED 50 00 00 01 9B
 (1653408894.820848)  can0  012   [8]  E8 03 10 00 00 00 00 00
 (1653408894.822060)  can0  014   [5]  00 00 00 0D 27
 (1653408894.830707)  can0  1E5   [8]  1C 06 ED 70 00 00 01 BB
 (1653408894.830850)  can0  012   [8]  E8 03 10 00 00 00 00 00
 (1653408894.832061)  can0  014   [5]  00 00 00 10 27
 (1653408894.840711)  can0  1E5   [8]  1C 06 ED 10 00 00 01 5B
 (1653408894.840854)  can0  012   [8]  E8 03 10 00 00 00 00 00
 (1653408894.842062)  can0  014   [5]  00 00 00 10 27
 (1653408894.850706)  can0  1E5   [8]  1C 06 ED 30 00 00 01 7B
 (1653408894.850845)  can0  012   [8]  E8 03 10 00 00 00 00 00
 (1653408894.852066)  can0  014   [5]  00 00 00 10 27
 (1653408894.860706)  can0  1E5   [8]  1C 06 ED 50 00 00 01 9B
 (1653408894.860844)  can0  012   [8]  E8 03 10 00 00 00 00 00
 (1653408894.862059)  can0  014   [5]  00 00 00 10 27
 (1653408894.870705)  can0  1E5   [8]  1C 06 EF 70 01 00 01 BE
 (1653408894.870881)  can0  012   [8]  E8 03 10 00 00 00 00 00
 (1653408894.872040)  can0  014   [5]  00 00 00 10 27
 (1653408894.880699)  can0  1E5   [8]  1C 06 ED 10 00 00 01 5B
 (1653408894.880849)  can0  012   [8]  E8 03 10 00 00 00 00 00
 (1653408894.882065)  can0  014   [5]  00 00 00 10 27
 (1653408894.890708)  can0  1E5   [8]  1C 06 ED 30 00 00 01 7B
 (1653408894.890844)  can0  012   [8]  E8 03 10 00 00 00 00 00
 (1653408894.892065)  can0  014   [5]  00 00 00 10 27
 (1653408894.900705)  can0  1E5   [8]  1C 06 ED 50 00 00 01 9B
 (1653408894.900849)  can0  012   [8]  E8 03 10 00 00 00 00 00
 (1653408894.902060)  can0  014   [5]  00 00 00 10 27
 (1653408894.910694)  can0  1E5   [8]  1C 06 ED 70 00 00 01 BB
 (1653408894.910703)  can0  010   [4]  26 73 00 00
 (1653408894.910854)  can0  012   [8]  E8 03 10 00 00 00 00 00
 (1653408894.912067)  can0  014   [5]  00 00 00 13 27
 (1653408894.920707)  can0  1E5   [8]  1C 06 ED 10 00 00 01 5B
 (1653408894.920848)  can0  012   [8]  E8 03 10 00 00 00 00 00
 (1653408894.922072)  can0  014   [5]  00 00 00 0D 27
 (1653408894.930705)  can0  1E5   [8]  1C 06 ED 30 00 00 01 7B
 (1653408894.930848)  can0  012   [8]  E8 03 10 00 00 00 00 00
 (1653408894.932066)  can0  014   [5]  00 00 00 10 27
 (1653408894.940707)  can0  1E5   [8]  1C 06 ED 50 00 00 01 9B
 (1653408894.940848)  can0  012   [8]  E8 03 10 00 00 00 00 00
 (1653408894.942067)  can0  014   [5]  00 00 00 10 27
 (1653408894.950707)  can0  1E5   [8]  1C 06 ED 70 00 00 01 BB
 (1653408894.950854)  can0  012   [8]  E8 03 10 00 00 00 00 00
 (1653408894.952070)  can0  014   [5]  00 00 00 10 27
 (1653408894.960448)  can0  1E5   [8]  1C 06 ED 10 00 00 01 5B
 (1653408894.960850)  can0  012   [8]  E8 03 10 00 00 00 00 00
 (1653408894.962031)  can0  014   [5]  00 00 00 10 27
 (1653408894.970509)  can0  1E5   [8]  1C 06 ED 30 00 00 01 7B
 (1653408894.970848)  can0  012   [8]  E8 03 10 00 00 00 00 00
 (1653408894.972023)  can0  014   [5]  00 00 00 10 27
 (1653408894.980499)  can0  1E5   [8]  1C 06 ED 50 00 00 01 9B
 (1653408894.980842)  can0  012   [8]  E8 03 10 00 00 00 00 00
 (1653408894.982038)  can0  014   [5]  00 00 00 10 27
 (1653408894.990502)  can0  1E5   [8]  1C 06 ED 70 00 00 01 BB
 (1653408894.990841)  can0  012   [8]  E8 03 10 00 00 00 00 00
 (1653408894.992042)  can0  014   [5]  00 00 00 10 27
 (1653408895.000499)  can0  1E5   [8]  1C 06 ED 10 00 00 01 5B
 (1653408895.000834)  can0  012   [8]  E8 03 10 00 00 00 00 00
 (1653408895.002022)  can0  014   [5]  00 00 00 10 27
 (1653408895.010495)  can0  1E5   [8]  1C 06 ED 30 00 00 01 7B
 (1653408895.010607)  can0  010   [4]  26 73 00 00
 (1653408895.010847)  can0  012   [8]  E8 03 10 00 00 00 00 00
 (1653408895.012011)  can0  014   [5]  00 00 00 13 27
 (1653408895.020539)  can0  1E5   [8]  1C 06 ED 50 00 00 01 9B
 (1653408895.020867)  can0  012   [8]  E8 03 10 00 00 00 00 00
 (1653408895.022065)  can0  014   [5]  00 00 00 0D 27
 (1653408895.030534)  can0  1E5   [8]  1C 06 ED 70 00 00 01 BB
 (1653408895.030882)  can0  012   [8]  E8 03 10 00 00 00 00 00
 (1653408895.032080)  can0  014   [5]  00 00 00 10 27
 (1653408895.040534)  can0  1E5   [8]  1C 06 ED 10 00 00 01 5B
 (1653408895.040937)  can0  012   [8]  E8 03 10 00 00 00 00 00
 (1653408895.042069)  can0  014   [5]  00 00 00 10 27
 (1653408895.050532)  can0  1E5   [8]  1C 06 ED 30 00 00 01 7B
 (1653408895.050852)  can0  012   [8]  E8 03 10 00 00 00 00 00
 (1653408895.052074)  can0  014   [5]  00 00 00 10 27
 (1653408895.060842)  can0  1E5   [8]  1C 06 ED 50 00 00 01 9B
 (1653408895.060855)  can0  012   [8]  E8 03 10 00 00 00 00 00
 (1653408895.062061)  can0  014   [5]  00 00 00 10 27
 (1653408895.070708)  can0  1E5   [8]  1C 06 ED 70 00 00 01 BB
 (1653408895.070846)  can0  012   [8]  E8 03 10 00 00 00 00 00
 (1653408895.072076)  can0  014   [5]  00 00 00 10 27
 (1653408895.080715)  can0  1E5   [8]  1C 06 ED 10 00 00 01 5B
 (1653408895.080845)  can0  012   [8]  E8 03 10 00 00 00 00 00
 (1653408895.082079)  can0  014   [5]  00 00 00 10 27
 (1653408895.090716)  can0  1E5   [8]  1C 06 ED 30 00 00 01 7B
 (1653408895.090845)  can0  012   [8]  E8 03 10 00 00 00 00 00
 (1653408895.092080)  can0  014   [5]  00 00 00 10 27
 (1653408895.100709)  can0  1E5   [8]  1C 06 ED 50 00 00 01 9B
 (1653408895.100845)  can0  012   [8]  E8 03 10 00 00 00 00 00
 (1653408895.102083)  can0  014   [5]  00 00 00 10 27
 (1653408895.110489)  can0  1E5   [8]  1C 06 ED 70 00 00 01 BB
 (1653408895.110597)  can0  010   [4]  26 73 00 00
 (1653408895.110878)  can0  012   [8]  E8 03 10 00 00 00 00 00
 (1653408895.112077)  can0  014   [5]  00 00 00 13 27
 (1653408895.120714)  can0  1E5   [8]  1C 06 EF 10 00 00 01 5D
 (1653408895.120906)  can0  012   [8]  E8 03 10 00 00 00 00 00
 (1653408895.122073)  can0  014   [5]  00 00 00 0D 27
 (1653408895.130593)  can0  1E5   [8]  1C 06 EF 30 00 00 01 7D
 (1653408895.130849)  can0  012   [8]  E8 03 10 00 00 00 00 00
 (1653408895.132073)  can0  014   [5]  00 00 00 10 27
 (1653408895.140646)  can0  1E5   [8]  1C 06 EF 50 00 00 01 9D
 (1653408895.140915)  can0  012   [8]  E8 03 10 00 00 00 00 00
 (1653408895.142072)  can0  014   [5]  00 00 00 10 27
 (1653408895.150635)  can0  1E5   [8]  1C 06 EF 70 00 00 01 BD
 (1653408895.150864)  can0  012   [8]  E8 03 10 00 00 00 00 00
 (1653408895.152085)  can0  014   [5]  00 00 00 10 27
 (1653408895.160640)  can0  1E5   [8]  1C 06 F1 10 01 00 01 60
 (1653408895.160906)  can0  012   [8]  E8 03 10 00 00 00 00 00
 (1653408895.162077)  can0  014   [5]  00 00 00 10 27
 (1653408895.170473)  can0  1E5   [8]  1C 06 F1 30 01 00 01 80
 (1653408895.170861)  can0  012   [8]  E8 03 10 00 00 00 00 00
 (1653408895.172071)  can0  014   [5]  00 00 00 10 27
 (1653408895.180645)  can0  1E5   [8]  1C 06 F2 50 02 00 01 A2
 (1653408895.180924)  can0  012   [8]  E8 03 10 00 00 00 00 00
 (1653408895.182077)  can0  014   [5]  00 00 00 10 27
 (1653408895.190572)  can0  1E5   [8]  1C 06 F2 70 02 00 01 C2
 (1653408895.190848)  can0  012   [8]  E8 03 10 00 00 00 00 00
 (1653408895.192042)  can0  014   [5]  00 00 00 10 27
 (1653408895.200718)  can0  1E5   [8]  1C 06 F2 10 02 00 01 62
 (1653408895.200851)  can0  012   [8]  E8 03 10 00 00 00 00 00
 (1653408895.202017)  can0  014   [5]  00 00 00 10 27
 (1653408895.210448)  can0  1E5   [8]  1C 06 F4 30 03 00 01 85
 (1653408895.210604)  can0  010   [4]  26 73 00 00
 (1653408895.210845)  can0  012   [8]  E8 03 10 00 00 00 00 00
 (1653408895.210966)  can0  0E2   [2]  00 03
 (1653408895.211095)  can0  0E3   [2]  00 03
 (1653408895.212040)  can0  014   [5]  00 00 00 19 27
 (1653408895.212166)  can0  0E4   [2]  00 03
 (1653408895.220536)  can0  1E5   [8]  1C 06 F4 50 03 00 01 A5
 (1653408895.220848)  can0  012   [8]  E8 03 10 00 00 00 00 00
 (1653408895.222065)  can0  014   [5]  00 00 00 07 27
 (1653408895.230533)  can0  1E5   [8]  1C 06 F4 70 03 00 01 C5
 (1653408895.230843)  can0  012   [8]  E8 03 10 00 00 00 00 00
 (1653408895.232066)  can0  014   [5]  00 00 00 10 27
 (1653408895.240649)  can0  1E5   [8]  1C 06 F5 10 04 00 01 67
 (1653408895.240841)  can0  012   [8]  E8 03 10 00 00 00 00 00
 (1653408895.242099)  can0  014   [5]  00 00 00 10 27
 (1653408895.250538)  can0  1E5   [8]  1C 06 F5 30 04 00 01 87
 (1653408895.250841)  can0  012   [8]  E8 03 10 00 00 00 00 00
 (1653408895.252058)  can0  014   [5]  00 00 00 10 27
 (1653408895.260438)  can0  1E5   [8]  1C 06 F5 50 03 00 01 A6
 (1653408895.260839)  can0  012   [8]  E8 03 10 00 00 00 00 00
 (1653408895.262031)  can0  014   [5]  00 00 00 10 27
 (1653408895.270424)  can0  1E5   [8]  1C 06 F5 70 03 00 01 C6
 (1653408895.270857)  can0  012   [8]  E8 03 10 00 00 00 00 00
 (1653408895.272017)  can0  014   [5]  00 00 00 10 27
 (1653408895.280424)  can0  1E5   [8]  1C 06 F5 10 02 00 01 65
 (1653408895.280831)  can0  012   [8]  E8 03 10 00 00 00 00 00
 (1653408895.282017)  can0  014   [5]  00 00 00 10 27
 (1653408895.290420)  can0  1E5   [8]  1C 06 F5 30 02 00 01 85
 (1653408895.290831)  can0  012   [8]  E8 03 10 00 00 00 00 00
 (1653408895.292021)  can0  014   [5]  00 00 00 10 27
 (1653408895.300428)  can0  1E5   [8]  1C 06 F5 50 02 00 01 A5
 (1653408895.300848)  can0  012   [8]  E8 03 10 00 00 00 00 00
 (1653408895.302010)  can0  014   [5]  00 00 00 10 27
 (1653408895.310428)  can0  1E5   [8]  1C 06 F5 70 01 00 01 C4
 (1653408895.310580)  can0  010   [4]  26 73 00 00
 (1653408895.310830)  can0  012   [8]  E8 03 10 00 00 00 00 00
 (1653408895.312047)  can0  014   [5]  00 00 00 13 27
 (1653408895.320423)  can0  1E5   [8]  1C 06 F5 10 01 00 01 64
 (1653408895.320835)  can0  012   [8]  E8 03 10 00 00 00 00 00
 (1653408895.322021)  can0  014   [5]  00 00 00 0D 27
 (1653408895.330423)  can0  1E5   [8]  1C 06 F5 30 01 00 01 84
 (1653408895.330832)  can0  012   [8]  E8 03 10 00 00 00 00 00
 (1653408895.332021)  can0  014   [5]  00 00 00 10 27
 (1653408895.340423)  can0  1E5   [8]  1C 06 F5 50 00 00 01 A3
 (1653408895.340833)  can0  012   [8]  E8 03 10 00 00 00 00 00
 (1653408895.342021)  can0  014   [5]  00 00 00 10 27
 (1653408895.350484)  can0  1E5   [8]  1C 06 F5 70 00 00 01 C3
 (1653408895.350831)  can0  012   [8]  E8 03 10 00 00 00 00 00
 (1653408895.352027)  can0  014   [5]  00 00 00 10 27
 (1653408895.360423)  can0  1E5   [8]  1C 06 F5 10 00 00 01 63
 (1653408895.360833)  can0  012   [8]  E8 03 10 00 00 00 00 00
 (1653408895.362028)  can0  014   [5]  00 00 00 10 27
 (1653408895.370466)  can0  1E5   [8]  1C 06 F5 30 00 00 01 83
 (1653408895.370833)  can0  012   [8]  E8 03 10 00 00 00 00 00
 (1653408895.372059)  can0  014   [5]  00 00 00 10 27
 (1653408895.380649)  can0  1E5   [8]  1C 06 F5 50 00 00 01 A3
 (1653408895.380858)  can0  012   [8]  E8 03 10 00 00 00 00 00
 (1653408895.382074)  can0  014   [5]  00 00 00 10 27
 (1653408895.390472)  can0  1E5   [8]  1C 06 F5 70 00 00 01 C3
 (1653408895.390855)  can0  012   [8]  E8 03 10 00 00 00 00 00
 (1653408895.392067)  can0  014   [5]  00 00 00 10 27
 (1653408895.400473)  can0  1E5   [8]  1C 06 F5 10 00 00 01 63
 (1653408895.400853)  can0  012   [8]  E8 03 10 00 00 00 00 00
 (1653408895.402063)  can0  014   [5]  00 00 00 10 27
 (1653408895.410473)  can0  1E5   [8]  1C 06 F5 30 00 00 01 83
 (1653408895.410581)  can0  010   [4]  26 73 00 00
 (1653408895.410888)  can0  012   [8]  E8 03 10 00 00 00 00 00
 (1653408895.412063)  can0  014   [5]  00 00 00 13 27
 (1653408895.420475)  can0  1E5   [8]  1C 06 F5 50 00 00 01 A3
 (1653408895.420856)  can0  012   [8]  E8 03 10 00 00 00 00 00
 (1653408895.422062)  can0  014   [5]  00 00 00 0D 27
 (1653408895.430536)  can0  1E5   [8]  1C 06 F5 70 00 00 01 C3
 (1653408895.430890)  can0  012   [8]  E8 03 10 00 00 00 00 00
 (1653408895.432072)  can0  014   [5]  00 00 00 10 27
 (1653408895.440478)  can0  1E5   [8]  1C 06 F5 10 00 00 01 63
 (1653408895.440874)  can0  012   [8]  E8 03 10 00 00 00 00 00
 (1653408895.442064)  can0  014   [5]  00 00 00 10 27
 (1653408895.450536)  can0  1E5   [8]  1C 06 F5 30 00 00 01 83
 (1653408895.450861)  can0  012   [8]  E8 03 10 00 00 00 00 00
 (1653408895.452078)  can0  014   [5]  00 00 00 10 27
 (1653408895.460758)  can0  1E5   [8]  1C 06 F5 50 00 00 01 A3
 (1653408895.460852)  can0  012   [8]  E8 03 10 00 00 00 00 00
 (1653408895.462073)  can0  014   [5]  00 00 00 10 27
 (1653408895.470870)  can0  1E5   [8]  1C 06 F5 70 00 00 01 C3
 (1653408895.470879)  can0  012   [8]  E8 03 10 00 00 00 00 00
 (1653408895.472063)  can0  014   [5]  00 00 00 10 27
 (1653408895.480844)  can0  1E5   [8]  1C 06 F5 10 00 00 01 63
 (1653408895.480854)  can0  012   [8]  E8 03 10 00 00 00 00 00
 (1653408895.482074)  can0  014   [5]  00 00 00 10 27
 (1653408895.490537)  can0  1E5   [8]  1C 06 F5 30 00 00 01 83
 (1653408895.490834)  can0  012   [8]  E8 03 10 00 00 00 00 00
 (1653408895.492068)  can0  014   [5]  00 00 00 10 27
 (1653408895.500793)  can0  1E5   [8]  1C 06 F5 50 00 00 01 A3
 (1653408895.500886)  can0  012   [8]  E8 03 10 00 00 00 00 00
 (1653408895.502078)  can0  014   [5]  00 00 00 10 27
 (1653408895.510441)  can0  1E5   [8]  1C 06 F5 70 00 00 01 C3
 (1653408895.510571)  can0  010   [4]  26 73 00 00
 (1653408895.510906)  can0  012   [8]  E8 03 10 00 00 00 00 00
 (1653408895.512080)  can0  014   [5]  00 00 00 13 27
 (1653408895.520710)  can0  1E5   [8]  1C 06 F5 10 00 00 01 63
 (1653408895.520854)  can0  012   [8]  E8 03 10 00 00 00 00 00
 (1653408895.522026)  can0  014   [5]  00 00 00 0D 27
 (1653408895.530465)  can0  1E5   [8]  1C 06 F5 30 00 00 01 83
 (1653408895.530876)  can0  012   [8]  E8 03 10 00 00 00 00 00
 (1653408895.532032)  can0  014   [5]  00 00 00 10 27
 (1653408895.540482)  can0  1E5   [8]  1C 06 F5 50 00 00 01 A3
 (1653408895.540844)  can0  012   [8]  E8 03 10 00 00 00 00 00
 (1653408895.542052)  can0  014   [5]  00 00 00 10 27
 (1653408895.550461)  can0  1E5   [8]  1C 06 F5 70 00 00 01 C3
 (1653408895.550847)  can0  012   [8]  E8 03 10 00 00 00 00 00
 (1653408895.552066)  can0  014   [5]  00 00 00 10 27
 (1653408895.560431)  can0  1E5   [8]  1C 06 F5 10 00 00 01 63
 (1653408895.560845)  can0  012   [8]  E8 03 10 00 00 00 00 00
 (1653408895.562018)  can0  014   [5]  00 00 00 10 27
 (1653408895.565608)  can0  0F0   [1]  01
 (1653408895.566781)  can0  011   [2]  50 01
 (1653408895.566931)  can0  013   [1]  00
 (1653408895.570431)  can0  1E5   [8]  1C 06 F5 30 00 00 01 83
 (1653408895.570861)  can0  012   [8]  E8 03 10 00 00 00 00 00
 (1653408895.572046)  can0  014   [5]  00 00 00 1D 27
 (1653408895.580429)  can0  1E5   [8]  1C 06 F5 50 00 00 01 A3
 (1653408895.580844)  can0  012   [8]  E8 03 10 00 00 00 00 00
 (1653408895.582034)  can0  014   [5]  00 00 00 03 27
 (1653408895.590429)  can0  1E5   [8]  1C 06 F5 70 00 00 01 C3
 (1653408895.590838)  can0  012   [8]  E8 03 10 00 00 00 00 00
 (1653408895.592028)  can0  014   [5]  00 00 00 10 27
 (1653408895.600418)  can0  1E5   [8]  1C 06 F5 10 00 00 01 63
 (1653408895.600853)  can0  012   [8]  E8 03 10 00 00 00 00 00
 (1653408895.602014)  can0  014   [5]  00 00 00 10 27
 (1653408895.610419)  can0  1E5   [8]  1C 06 F5 30 00 00 01 83
 (1653408895.610587)  can0  010   [4]  73 E7 32 00
 (1653408895.610835)  can0  012   [8]  E8 03 10 00 00 00 00 00
 (1653408895.612030)  can0  014   [5]  00 00 00 13 27
 (1653408895.620423)  can0  1E5   [8]  1C 06 F5 50 00 00 01 A3
 (1653408895.620920)  can0  012   [8]  E8 03 10 00 00 00 00 00
 (1653408895.622020)  can0  014   [5]  00 00 00 0D 27
 (1653408895.630425)  can0  1E5   [8]  1C 06 F5 70 00 00 01 C3
 (1653408895.630841)  can0  012   [8]  E8 03 10 00 00 00 00 00
 (1653408895.632019)  can0  014   [5]  00 00 00 10 27
 (1653408895.640427)  can0  1E5   [8]  1C 06 F5 10 00 00 01 63
 (1653408895.640835)  can0  012   [8]  E8 03 10 00 00 00 00 00
 (1653408895.642035)  can0  014   [5]  00 00 00 10 27
 (1653408895.650422)  can0  1E5   [8]  1C 06 F5 30 00 00 01 83
 (1653408895.650830)  can0  012   [8]  E8 03 10 00 00 00 00 00
 (1653408895.652041)  can0  014   [5]  00 00 00 10 27
 (1653408895.660411)  can0  1E5   [8]  1C 06 F5 50 00 00 01 A3
 (1653408895.660829)  can0  012   [8]  E8 03 10 00 00 00 00 00
 (1653408895.662032)  can0  014   [5]  00 00 00 10 27
 (1653408895.667709)  can0  0F0   [1]  01
 (1653408895.668762)  can0  011   [2]  4C 01
 (1653408895.668890)  can0  013   [1]  00
 (1653408895.670424)  can0  1E5   [8]  1C 06 F5 70 00 00 01 C3
 (1653408895.670852)  can0  012   [8]  E8 03 10 00 00 00 00 00
 (1653408895.672052)  can0  014   [5]  00 00 00 19 27
 (1653408895.680416)  can0  1E5   [8]  1C 06 F5 10 00 00 01 63
 (1653408895.680842)  can0  012   [8]  E8 03 10 00 00 00 00 00
 (1653408895.682033)  can0  014   [5]  00 00 00 07 27
 (1653408895.690423)  can0  1E5   [8]  1C 06 F5 30 00 00 01 83
 (1653408895.690831)  can0  012   [8]  E8 03 10 00 00 00 00 00
 (1653408895.692011)  can0  014   [5]  00 00 00 10 27
 (1653408895.700415)  can0  1E5   [8]  1C 06 F5 50 00 00 01 A3
 (1653408895.700837)  can0  012   [8]  E8 03 10 00 00 00 00 00
 (1653408895.702022)  can0  014   [5]  00 00 00 10 27
 (1653408895.710428)  can0  1E5   [8]  1C 06 F5 70 00 00 01 C3
 (1653408895.710587)  can0  010   [4]  73 E7 32 00
 (1653408895.710843)  can0  012   [8]  E8 03 10 00 00 00 00 00
 (1653408895.712018)  can0  014   [5]  00 00 00 13 27
 (1653408895.720417)  can0  1E5   [8]  1C 06 F5 10 00 00 01 63
 (1653408895.720833)  can0  012   [8]  E8 03 10 00 00 00 00 00
 (1653408895.722017)  can0  014   [5]  00 00 00 0D 27
 (1653408895.730412)  can0  1E5   [8]  1C 06 F5 30 00 00 01 83
 (1653408895.730841)  can0  012   [8]  E8 03 10 00 00 00 00 00
 (1653408895.732019)  can0  014   [5]  00 00 00 10 27
 (1653408895.740411)  can0  1E5   [8]  1C 06 F5 50 00 00 01 A3
 (1653408895.740832)  can0  012   [8]  E8 03 10 00 00 00 00 00
 (1653408895.742028)  can0  014   [5]  00 00 00 10 27
 (1653408895.750424)  can0  1E5   [8]  1C 06 F5 70 00 00 01 C3
 (1653408895.750834)  can0  012   [8]  E8 03 10 00 00 00 00 00
 (1653408895.752027)  can0  014   [5]  00 00 00 10 27
 (1653408895.760457)  can0  1E5   [8]  1C 06 F5 10 00 00 01 63
 (1653408895.760852)  can0  012   [8]  E8 03 10 00 00 00 00 00
 (1653408895.762022)  can0  014   [5]  00 00 00 10 27
 (1653408895.769133)  can0  0F0   [1]  01
 (1653408895.769709)  can0  011   [2]  49 01
 (1653408895.769807)  can0  013   [1]  00
 (1653408895.770422)  can0  1E5   [8]  1C 06 F5 30 00 00 01 83
 (1653408895.770842)  can0  012   [8]  E8 03 10 00 00 00 00 00
 (1653408895.772023)  can0  014   [5]  00 00 00 19 27
 (1653408895.780405)  can0  1E5   [8]  1C 06 F5 50 00 00 01 A3
 (1653408895.780840)  can0  012   [8]  E8 03 10 00 00 00 00 00
 (1653408895.782033)  can0  014   [5]  00 00 00 07 27
 (1653408895.790414)  can0  1E5   [8]  1C 06 F5 70 00 00 01 C3
 (1653408895.790827)  can0  012   [8]  E8 03 10 00 00 00 00 00
 (1653408895.792020)  can0  014   [5]  00 00 00 10 27
 (1653408895.800417)  can0  1E5   [8]  1C 06 F5 10 00 00 01 63
 (1653408895.800841)  can0  012   [8]  E8 03 10 00 00 00 00 00
 (1653408895.802007)  can0  014   [5]  00 00 00 10 27
 (1653408895.810409)  can0  1E5   [8]  1C 06 F5 30 00 00 01 83
 (1653408895.810579)  can0  010   [4]  73 E7 32 00
 (1653408895.810844)  can0  012   [8]  E8 03 10 00 00 00 00 00
 (1653408895.812019)  can0  014   [5]  00 00 00 13 27
 (1653408895.820422)  can0  1E5   [8]  1C 06 F5 50 00 00 01 A3
 (1653408895.820852)  can0  012   [8]  E8 03 10 00 00 00 00 00
 (1653408895.822021)  can0  014   [5]  00 00 00 0D 27
 (1653408895.830412)  can0  1E5   [8]  1C 06 F5 70 00 00 01 C3
 (1653408895.830839)  can0  012   [8]  E8 03 10 00 00 00 00 00
 (1653408895.832006)  can0  014   [5]  00 00 00 10 27
 (1653408895.840405)  can0  1E5   [8]  1C 06 F5 10 00 00 01 63
 (1653408895.840839)  can0  012   [8]  E8 03 10 00 00 00 00 00
 (1653408895.842032)  can0  014   [5]  00 00 00 10 27
 (1653408895.850419)  can0  1E5   [8]  1C 06 F5 30 00 00 01 83
 (1653408895.850842)  can0  012   [8]  E8 03 10 00 00 00 00 00
 (1653408895.852016)  can0  014   [5]  00 00 00 10 27
 (1653408895.860411)  can0  1E5   [8]  1C 06 F5 50 00 00 01 A3
 (1653408895.860846)  can0  012   [8]  E8 03 10 00 00 00 00 00
 (1653408895.862020)  can0  014   [5]  00 00 00 10 27
 (1653408895.870417)  can0  1E5   [8]  1C 06 F5 70 00 00 01 C3
 (1653408895.870555)  can0  0F0   [1]  01
 (1653408895.870939)  can0  012   [8]  E8 03 10 00 00 00 00 00
 (1653408895.871221)  can0  011   [2]  46 01
 (1653408895.871376)  can0  013   [1]  00
 (1653408895.872028)  can0  014   [5]  00 00 00 19 27
 (1653408895.880426)  can0  1E5   [8]  1C 06 F5 10 00 00 01 63
 (1653408895.880837)  can0  012   [8]  E8 03 10 00 00 00 00 00
 (1653408895.882047)  can0  014   [5]  00 00 00 07 27
 (1653408895.890421)  can0  1E5   [8]  1C 06 F5 30 00 00 01 83
 (1653408895.890839)  can0  012   [8]  E8 03 10 00 00 00 00 00
 (1653408895.892062)  can0  014   [5]  00 00 00 10 27
 (1653408895.900620)  can0  1E5   [8]  1C 06 F5 50 00 00 01 A3
 (1653408895.900841)  can0  012   [8]  E8 03 10 00 00 00 00 00
 (1653408895.902015)  can0  014   [5]  00 00 00 10 27
 (1653408895.910625)  can0  1E5   [8]  1C 06 F5 70 00 00 01 C3
 (1653408895.910633)  can0  010   [4]  73 E7 32 00
 (1653408895.910930)  can0  012   [8]  E8 03 10 00 00 00 00 00
 (1653408895.912063)  can0  014   [5]  00 00 00 13 27
 (1653408895.920476)  can0  1E5   [8]  1C 06 F5 10 00 00 01 63
 (1653408895.920871)  can0  012   [8]  E8 03 10 00 00 00 00 00
 (1653408895.922060)  can0  014   [5]  00 00 00 0D 27
 (1653408895.930627)  can0  1E5   [8]  1C 06 F5 30 00 00 01 83
 (1653408895.930877)  can0  012   [8]  E8 03 10 00 00 00 00 00
 (1653408895.932065)  can0  014   [5]  00 00 00 10 27
 (1653408895.940452)  can0  1E5   [8]  1C 06 F5 50 00 00 01 A3
 (1653408895.940839)  can0  012   [8]  E8 03 10 00 00 00 00 00
 (1653408895.942053)  can0  014   [5]  00 00 00 10 27
 (1653408895.950645)  can0  1E5   [8]  1C 06 F5 70 00 00 01 C3
 (1653408895.950849)  can0  012   [8]  E8 03 10 00 00 00 00 00
 (1653408895.952055)  can0  014   [5]  00 00 00 10 27
 (1653408895.960453)  can0  1E5   [8]  1C 06 F4 10 00 00 01 62
 (1653408895.960849)  can0  012   [8]  E8 03 10 00 00 00 00 00
 (1653408895.962028)  can0  014   [5]  00 00 00 10 27
 (1653408895.970460)  can0  1E5   [8]  1C 06 F5 30 00 00 01 83
 (1653408895.970863)  can0  012   [8]  E8 03 10 00 00 00 00 00
 (1653408895.972033)  can0  014   [5]  00 00 00 10 27
 (1653408895.972241)  can0  0F0   [1]  01
 (1653408895.973229)  can0  011   [2]  43 01
 (1653408895.973475)  can0  013   [1]  00
 (1653408895.980455)  can0  1E5   [8]  1C 06 F4 50 00 00 01 A2
 (1653408895.980859)  can0  012   [8]  E8 03 10 00 00 00 00 00
 (1653408895.982062)  can0  014   [5]  00 00 00 19 27
 (1653408895.990443)  can0  1E5   [8]  1C 06 F5 70 00 00 01 C3
 (1653408895.990859)  can0  012   [8]  E8 03 10 00 00 00 00 00
 (1653408895.992066)  can0  014   [5]  00 00 00 07 27
 (1653408896.000446)  can0  1E5   [8]  1C 06 F4 10 00 00 01 62
 (1653408896.000844)  can0  012   [8]  E8 03 10 00 00 00 00 00
 (1653408896.002065)  can0  014   [5]  00 00 00 10 27
 (1653408896.010419)  can0  1E5   [8]  1C 06 F5 30 00 00 01 83
 (1653408896.010557)  can0  010   [4]  73 E7 32 00
 (1653408896.010847)  can0  012   [8]  E8 03 10 00 00 00 00 00
 (1653408896.012019)  can0  014   [5]  00 00 00 13 27
 (1653408896.020424)  can0  1E5   [8]  1C 06 F4 50 00 00 01 A2
 (1653408896.020827)  can0  012   [8]  E8 03 10 00 00 00 00 00
 (1653408896.022028)  can0  014   [5]  00 00 00 0D 27
 (1653408896.030399)  can0  1E5   [8]  1C 06 F4 70 00 00 01 C2
 (1653408896.030839)  can0  012   [8]  E8 03 10 00 00 00 00 00
 (1653408896.032032)  can0  014   [5]  00 00 00 10 27
 (1653408896.040415)  can0  1E5   [8]  1C 06 F5 10 00 00 01 63
 (1653408896.040841)  can0  012   [8]  E8 03 10 00 00 00 00 00
 (1653408896.042049)  can0  014   [5]  00 00 00 10 27
 (1653408896.050413)  can0  1E5   [8]  1C 06 F4 30 00 00 01 82
 (1653408896.050849)  can0  012   [8]  E8 03 10 00 00 00 00 00
 (1653408896.052017)  can0  014   [5]  00 00 00 10 27
 (1653408896.060411)  can0  1E5   [8]  1C 06 F4 50 00 00 01 A2
 (1653408896.060838)  can0  012   [8]  E8 03 10 00 00 00 00 00
 (1653408896.062023)  can0  014   [5]  00 00 00 10 27
 (1653408896.070406)  can0  1E5   [8]  1C 06 F4 70 00 00 01 C2
 (1653408896.070837)  can0  012   [8]  E8 03 10 00 00 00 00 00
 (1653408896.072019)  can0  014   [5]  00 00 00 10 27
 (1653408896.073880)  can0  0F0   [1]  01
 (1653408896.074474)  can0  011   [2]  41 01
 (1653408896.074713)  can0  013   [1]  00
 (1653408896.080402)  can0  1E5   [8]  1C 06 F4 10 00 00 01 62
 (1653408896.080845)  can0  012   [8]  E8 03 10 00 00 00 00 00
 (1653408896.082016)  can0  014   [5]  00 00 00 19 27
 (1653408896.090406)  can0  1E5   [8]  1C 06 F4 30 00 00 01 82
 (1653408896.090832)  can0  012   [8]  E8 03 10 00 00 00 00 00
 (1653408896.092028)  can0  014   [5]  00 00 00 07 27
 (1653408896.100620)  can0  1E5   [8]  1C 06 F4 50 00 00 01 A2
 (1653408896.100828)  can0  012   [8]  E8 03 10 00 00 00 00 00
 (1653408896.102057)  can0  014   [5]  00 00 00 10 27
 (1653408896.110422)  can0  1E5   [8]  1C 06 F4 70 00 00 01 C2
 (1653408896.110562)  can0  010   [4]  73 E7 32 00
 (1653408896.110842)  can0  012   [8]  E8 03 10 00 00 00 00 00
 (1653408896.112009)  can0  014   [5]  00 00 00 13 27
 (1653408896.120436)  can0  1E5   [8]  1C 06 F4 10 00 00 01 62
 (1653408896.120843)  can0  012   [8]  E8 03 10 00 00 00 00 00
 (1653408896.122060)  can0  014   [5]  00 00 00 0D 27
 (1653408896.130395)  can0  1E5   [8]  1C 06 F4 30 00 00 01 82
 (1653408896.130830)  can0  012   [8]  E8 03 10 00 00 00 00 00
 (1653408896.132011)  can0  014   [5]  00 00 00 10 27
 (1653408896.140415)  can0  1E5   [8]  1C 06 F4 50 00 00 01 A2
 (1653408896.140827)  can0  012   [8]  E8 03 10 00 00 00 00 00
 (1653408896.142033)  can0  014   [5]  00 00 00 10 27
 (1653408896.150405)  can0  1E5   [8]  1C 06 F4 70 00 00 01 C2
 (1653408896.150845)  can0  012   [8]  E8 03 10 00 00 00 00 00
 (1653408896.152026)  can0  014   [5]  00 00 00 10 27
 (1653408896.160603)  can0  1E5   [8]  1C 06 F4 10 00 00 01 62
 (1653408896.160832)  can0  012   [8]  E8 03 10 00 00 00 00 00
 (1653408896.162054)  can0  014   [5]  00 00 00 10 27
 (1653408896.170404)  can0  1E5   [8]  1C 06 F4 30 00 00 01 82
 (1653408896.170831)  can0  012   [8]  E8 03 10 00 00 00 00 00
 (1653408896.172017)  can0  014   [5]  00 00 00 10 27
 (1653408896.174480)  can0  0F0   [1]  01
 (1653408896.174968)  can0  011   [2]  3E 01
 (1653408896.175069)  can0  013   [1]  00
 (1653408896.180401)  can0  1E5   [8]  1C 06 F5 50 00 00 01 A3
 (1653408896.180855)  can0  012   [8]  E8 03 10 00 00 00 00 00
 (1653408896.182033)  can0  014   [5]  00 00 00 19 27
 (1653408896.190415)  can0  1E5   [8]  1C 06 F4 70 00 00 01 C2
 (1653408896.190832)  can0  012   [8]  E8 03 10 00 00 00 00 00
 (1653408896.192018)  can0  014   [5]  00 00 00 07 27
 (1653408896.200401)  can0  1E5   [8]  1C 06 F4 10 00 00 01 62
 (1653408896.200830)  can0  012   [8]  E8 03 10 00 00 00 00 00
 (1653408896.202015)  can0  014   [5]  00 00 00 10 27
 (1653408896.210420)  can0  1E5   [8]  1C 06 F4 30 00 00 01 82
 (1653408896.210553)  can0  010   [4]  73 E7 32 00
 (1653408896.210687)  can0  0E2   [2]  2A 03
 (1653408896.210933)  can0  012   [8]  E8 03 10 00 00 00 00 00
 (1653408896.211064)  can0  0E3   [2]  2A 03
 (1653408896.212031)  can0  014   [5]  00 00 00 19 27
 (1653408896.212141)  can0  0E4   [2]  2A 03
 (1653408896.220409)  can0  1E5   [8]  1C 06 F4 50 00 00 01 A2
 (1653408896.220857)  can0  012   [8]  E8 03 10 00 00 00 00 00
 (1653408896.222027)  can0  014   [5]  00 00 00 07 27
 (1653408896.230395)  can0  1E5   [8]  1C 06 F4 70 00 00 01 C2
 (1653408896.230830)  can0  012   [8]  E8 03 10 00 00 00 00 00
 (1653408896.232016)  can0  014   [5]  00 00 00 10 27
 (1653408896.240415)  can0  1E5   [8]  1C 06 F4 10 00 00 01 62
 (1653408896.240811)  can0  012   [8]  E8 03 10 00 00 00 00 00
 (1653408896.242032)  can0  014   [5]  00 00 00 10 27
 (1653408896.250399)  can0  1E5   [8]  1C 06 F4 30 00 00 01 82
 (1653408896.250844)  can0  012   [8]  E8 03 10 00 00 00 00 00
 (1653408896.252011)  can0  014   [5]  00 00 00 10 27
 (1653408896.260395)  can0  1E5   [8]  1C 06 F4 50 00 00 01 A2
 (1653408896.260842)  can0  012   [8]  E8 03 10 00 00 00 00 00
 (1653408896.262018)  can0  014   [5]  00 00 00 10 27
 (1653408896.270408)  can0  1E5   [8]  1C 06 F4 70 00 00 01 C2
 (1653408896.270844)  can0  012   [8]  E8 03 10 00 00 00 00 00
 (1653408896.272015)  can0  014   [5]  00 00 00 10 27
 (1653408896.275332)  can0  0F0   [1]  01
 (1653408896.275828)  can0  011   [2]  3C 01
 (1653408896.275926)  can0  013   [1]  00
 (1653408896.280406)  can0  1E5   [8]  1C 06 F4 10 00 00 01 62
 (1653408896.280831)  can0  012   [8]  E8 03 10 00 00 00 00 00
 (1653408896.282017)  can0  014   [5]  00 00 00 19 27
 (1653408896.290394)  can0  1E5   [8]  1C 06 F4 30 00 00 01 82
 (1653408896.290827)  can0  012   [8]  E8 03 10 00 00 00 00 00
 (1653408896.292018)  can0  014   [5]  00 00 00 07 27
 (1653408896.300407)  can0  1E5   [8]  1C 06 F4 50 00 00 01 A2
 (1653408896.300836)  can0  012   [8]  E8 03 10 00 00 00 00 00
 (1653408896.302016)  can0  014   [5]  00 00 00 10 27
 (1653408896.310397)  can0  1E5   [8]  1C 06 F4 70 00 00 01 C2
 (1653408896.310544)  can0  010   [4]  73 E7 32 01
 (1653408896.310837)  can0  012   [8]  E8 03 10 00 00 00 00 00
 (1653408896.312043)  can0  014   [5]  00 00 00 13 27
 (1653408896.320406)  can0  1E5   [8]  1C 06 F4 10 00 00 01 62
 (1653408896.320831)  can0  012   [8]  E8 03 10 00 00 00 00 00
 (1653408896.322024)  can0  014   [5]  00 00 00 0D 27
 (1653408896.330403)  can0  1E5   [8]  1C 06 F4 30 00 00 01 82
 (1653408896.330836)  can0  012   [8]  E8 03 10 00 00 00 00 00
 (1653408896.332006)  can0  014   [5]  00 00 00 10 27
 (1653408896.340385)  can0  1E5   [8]  1C 06 F4 50 00 00 01 A2
 (1653408896.340822)  can0  012   [8]  E8 03 10 00 00 00 00 00
 (1653408896.342032)  can0  014   [5]  00 00 00 10 27
 (1653408896.350389)  can0  1E5   [8]  1C 06 F4 70 00 00 01 C2
 (1653408896.350830)  can0  012   [8]  E8 03 10 00 00 00 00 00
 (1653408896.352006)  can0  014   [5]  00 00 00 10 27
 (1653408896.360395)  can0  1E5   [8]  1C 06 F4 10 00 00 01 62
 (1653408896.360843)  can0  012   [8]  E8 03 10 00 00 00 00 00
 (1653408896.362009)  can0  014   [5]  00 00 00 10 27
 (1653408896.370404)  can0  1E5   [8]  1C 06 F4 30 00 00 01 82
 (1653408896.370828)  can0  012   [8]  E8 03 10 00 00 00 00 00
 (1653408896.372024)  can0  014   [5]  00 00 00 10 27
 (1653408896.376116)  can0  0F0   [1]  01
 (1653408896.376786)  can0  011   [2]  3B 01
 (1653408896.377327)  can0  013   [1]  00
 (1653408896.380388)  can0  1E5   [8]  1C 06 F4 50 00 00 01 A2
 (1653408896.380837)  can0  012   [8]  E8 03 10 00 00 00 00 00
 (1653408896.382025)  can0  014   [5]  00 00 00 19 27
 (1653408896.390398)  can0  1E5   [8]  1C 06 F4 70 00 00 01 C2
 (1653408896.390829)  can0  012   [8]  E8 03 10 00 00 00 00 00
 (1653408896.392023)  can0  014   [5]  00 00 00 07 27
 (1653408896.400387)  can0  1E5   [8]  1C 06 F4 10 00 00 01 62
 (1653408896.400841)  can0  012   [8]  E8 03 10 00 00 00 00 00
 (1653408896.402019)  can0  014   [5]  00 00 00 10 27
 (1653408896.410382)  can0  1E5   [8]  1C 06 F4 30 00 00 01 82
 (1653408896.410559)  can0  010   [4]  73 E7 32 01
 (1653408896.410832)  can0  012   [8]  E8 03 10 00 00 00 00 00
 (1653408896.412017)  can0  014   [5]  00 00 00 13 27
 (1653408896.420392)  can0  1E5   [8]  1C 06 F4 50 00 00 01 A2
 (1653408896.420864)  can0  012   [8]  E8 03 10 00 00 00 00 00
 (1653408896.422023)  can0  014   [5]  00 00 00 0D 27
 (1653408896.430580)  can0  1E5   [8]  1C 06 F4 70 00 00 01 C2
 (1653408896.430836)  can0  012   [8]  E8 03 10 00 00 00 00 00
 (1653408896.432049)  can0  014   [5]  00 00 00 10 27
 (1653408896.440406)  can0  1E5   [8]  1C 06 F4 10 00 00 01 62
 (1653408896.440829)  can0  012   [8]  E8 03 10 00 00 00 00 00
 (1653408896.442005)  can0  014   [5]  01 00 00 10 27
 (1653408896.450394)  can0  1E5   [8]  1C 06 F4 30 00 00 01 82
 (1653408896.450844)  can0  012   [8]  E8 03 10 00 00 00 00 00
 (1653408896.452019)  can0  014   [5]  00 00 00 10 27
 (1653408896.460418)  can0  1E5   [8]  1C 06 F4 50 00 00 01 A2
 (1653408896.460850)  can0  012   [8]  E8 03 10 00 00 00 00 00
 (1653408896.462035)  can0  014   [5]  00 00 00 10 27
 (1653408896.470415)  can0  1E5   [8]  1C 06 F4 70 00 00 01 C2
 (1653408896.470843)  can0  012   [8]  E8 03 10 00 00 00 00 00
 (1653408896.472023)  can0  014   [5]  00 00 00 10 27
 (1653408896.478291)  can0  0F0   [1]  01
 (1653408896.478849)  can0  011   [2]  39 01
 (1653408896.478982)  can0  013   [1]  00
 (1653408896.480371)  can0  1E5   [8]  1C 06 F4 10 00 00 01 62
 (1653408896.480833)  can0  012   [8]  E8 03 10 00 00 00 00 00
 (1653408896.482013)  can0  014   [5]  00 00 00 19 27
 (1653408896.490381)  can0  1E5   [8]  1C 06 F4 30 00 00 01 82
 (1653408896.490829)  can0  012   [8]  E8 03 10 00 00 00 00 00
 (1653408896.492006)  can0  014   [5]  00 F0 FF 07 27
 (1653408896.500393)  can0  1E5   [8]  1C 06 F4 50 00 00 01 A2
 (1653408896.500827)  can0  012   [8]  E8 03 10 00 00 00 00 00
 (1653408896.502004)  can0  014   [5]  FF 0F 00 10 27
 (1653408896.510388)  can0  1E5   [8]  1C 06 F4 70 00 00 01 C2
 (1653408896.510554)  can0  010   [4]  73 E7 32 01
 (1653408896.510840)  can0  012   [8]  E8 03 10 00 00 00 00 00
 (1653408896.512005)  can0  014   [5]  00 F0 FF 13 27
 (1653408896.520392)  can0  1E5   [8]  1C 06 F4 10 00 00 01 62
 (1653408896.520826)  can0  012   [8]  E8 03 10 00 00 00 00 00
 (1653408896.522009)  can0  014   [5]  FE FF FF 0D 27
 (1653408896.530383)  can0  1E5   [8]  1C 06 F4 30 00 00 01 82
 (1653408896.530820)  can0  012   [8]  E8 03 10 00 00 00 00 00
 (1653408896.532027)  can0  014   [5]  01 20 00 10 27
 (1653408896.540388)  can0  1E5   [8]  1C 06 F4 50 00 00 01 A2
 (1653408896.540830)  can0  012   [8]  E8 03 10 00 00 00 00 00
 (1653408896.542023)  can0  014   [5]  02 10 00 10 27
 (1653408896.550388)  can0  1E5   [8]  1C 06 F4 70 00 00 01 C2
 (1653408896.550830)  can0  012   [8]  E8 03 10 00 00 00 00 00
 (1653408896.552019)  can0  014   [5]  03 20 00 10 27
 (1653408896.560387)  can0  1E5   [8]  1C 06 F4 10 00 00 01 62
 (1653408896.560842)  can0  012   [8]  E8 03 10 00 00 00 00 00
 (1653408896.562016)  can0  014   [5]  03 20 00 10 27
 (1653408896.570391)  can0  1E5   [8]  1C 06 F4 30 00 00 01 82
 (1653408896.570823)  can0  012   [8]  E8 03 10 00 00 00 00 00
 (1653408896.572009)  can0  014   [5]  02 20 00 10 27
 (1653408896.578856)  can0  0F0   [1]  01
 (1653408896.579385)  can0  011   [2]  33 01
 (1653408896.579737)  can0  013   [1]  00
 (1653408896.580384)  can0  1E5   [8]  1C 06 F4 50 00 00 01 A2
 (1653408896.580831)  can0  012   [8]  E8 03 10 00 00 00 00 00
 (1653408896.582015)  can0  014   [5]  03 10 00 19 27
 (1653408896.590396)  can0  1E5   [8]  1C 06 F4 70 00 00 01 C2
 (1653408896.590812)  can0  012   [8]  E8 03 10 00 00 00 00 00
 (1653408896.592008)  can0  014   [5]  01 10 00 07 27
 (1653408896.600370)  can0  1E5   [8]  1C 06 F4 10 00 00 01 62
 (1653408896.600820)  can0  012   [8]  E8 03 10 00 00 00 00 00
 (1653408896.602011)  can0  014   [5]  01 10 00 10 27
 (1653408896.610387)  can0  1E5   [8]  1C 06 F4 30 00 00 01 82
 (1653408896.610538)  can0  010   [4]  73 E7 32 01
 (1653408896.610841)  can0  012   [8]  E8 03 10 00 00 00 00 00
 (1653408896.612016)  can0  014   [5]  00 00 00 13 27
 (1653408896.620379)  can0  1E5   [8]  1C 06 F4 50 00 00 01 A2
 (1653408896.620823)  can0  012   [8]  E8 03 10 00 00 00 00 00
 (1653408896.622015)  can0  014   [5]  00 00 00 0D 27
 (1653408896.630586)  can0  1E5   [8]  1C 06 F4 70 00 00 01 C2
 (1653408896.630839)  can0  012   [8]  E8 03 10 00 00 00 00 00
 (1653408896.632041)  can0  014   [5]  00 00 00 10 27
 (1653408896.640386)  can0  1E5   [8]  1C 06 F4 10 00 00 01 62
 (1653408896.640845)  can0  012   [8]  E8 03 10 00 00 00 00 00
 (1653408896.642027)  can0  014   [5]  00 00 00 10 27
 (1653408896.650386)  can0  1E5   [8]  1C 06 F4 30 00 00 01 82
 (1653408896.650836)  can0  012   [8]  E8 03 10 00 00 00 00 00
 (1653408896.652029)  can0  014   [5]  01 00 00 10 27
 (1653408896.660390)  can0  1E5   [8]  1C 06 F4 50 00 00 01 A2
 (1653408896.660843)  can0  012   [8]  E8 03 10 00 00 00 00 00
 (1653408896.662027)  can0  014   [5]  01 10 00 10 27
 (1653408896.670378)  can0  1E5   [8]  1C 06 F4 70 00 00 01 C2
 (1653408896.670839)  can0  012   [8]  E8 03 10 00 00 00 00 00
 (1653408896.672015)  can0  014   [5]  01 10 00 10 27
 (1653408896.680393)  can0  1E5   [8]  1C 06 F4 10 00 00 01 62
 (1653408896.680852)  can0  012   [8]  E8 03 10 00 00 00 00 00
 (1653408896.680945)  can0  0F0   [1]  01
 (1653408896.681767)  can0  011   [2]  35 01
 (1653408896.682120)  can0  014   [5]  02 10 00 13 27
 (1653408896.682480)  can0  013   [1]  00
 (1653408896.690411)  can0  1E5   [8]  1C 06 F4 30 00 00 01 82
 (1653408896.690840)  can0  012   [8]  E8 03 10 00 00 00 00 00
 (1653408896.692042)  can0  014   [5]  02 20 00 13 27
 (1653408896.700589)  can0  1E5   [8]  1C 06 F4 50 00 00 01 A2
 (1653408896.700806)  can0  012   [8]  E8 03 10 00 00 00 00 00
 (1653408896.702044)  can0  014   [5]  03 20 00 0A 27
 (1653408896.710410)  can0  1E5   [8]  1C 06 F4 70 00 00 01 C2
 (1653408896.710543)  can0  010   [4]  73 E7 32 01
 (1653408896.710839)  can0  012   [8]  E8 03 10 00 00 00 00 00
 (1653408896.712013)  can0  014   [5]  02 30 00 13 27
 (1653408896.720414)  can0  1E5   [8]  1C 06 F4 10 00 00 01 62
 (1653408896.720833)  can0  012   [8]  E8 03 10 00 00 00 00 00
 (1653408896.722038)  can0  014   [5]  03 20 00 0D 27
 (1653408896.730388)  can0  1E5   [8]  1C 06 F4 30 00 00 01 82
 (1653408896.730837)  can0  012   [8]  E8 03 10 00 00 00 00 00
 (1653408896.732002)  can0  014   [5]  03 30 00 10 27
 (1653408896.740376)  can0  1E5   [8]  1C 06 F4 50 00 00 01 A2
 (1653408896.740833)  can0  012   [8]  E8 03 10 00 00 00 00 00
 (1653408896.742006)  can0  014   [5]  03 30 00 10 27
 (1653408896.750379)  can0  1E5   [8]  1C 06 F4 70 00 00 01 C2
 (1653408896.750839)  can0  012   [8]  E8 03 10 00 00 00 00 00
 (1653408896.752024)  can0  014   [5]  03 30 00 10 27
 (1653408896.760381)  can0  1E5   [8]  1C 06 F4 10 00 00 01 62
 (1653408896.760832)  can0  012   [8]  E8 03 10 00 00 00 00 00
 (1653408896.762024)  can0  014   [5]  03 20 00 10 27
 (1653408896.770387)  can0  1E5   [8]  1C 06 F4 30 00 00 01 82
 (1653408896.770829)  can0  012   [8]  E8 03 10 00 00 00 00 00
 (1653408896.772003)  can0  014   [5]  03 30 00 10 27
 (1653408896.780378)  can0  1E5   [8]  1C 06 F5 50 00 00 01 A3
 (1653408896.780826)  can0  012   [8]  E8 03 10 00 00 00 00 00
 (1653408896.782007)  can0  014   [5]  03 30 00 10 27
 (1653408896.782758)  can0  0F0   [1]  01
 (1653408896.783225)  can0  011   [2]  30 01
 (1653408896.783332)  can0  013   [1]  00
 (1653408896.790383)  can0  1E5   [8]  1C 06 F5 70 00 00 01 C3
 (1653408896.790854)  can0  012   [8]  E8 03 10 00 00 00 00 00
 (1653408896.792012)  can0  014   [5]  03 30 00 19 27
 (1653408896.800386)  can0  1E5   [8]  1C 06 F5 10 00 00 01 63
 (1653408896.800839)  can0  012   [8]  E8 03 10 00 00 00 00 00
 (1653408896.802004)  can0  014   [5]  03 30 00 07 27
 (1653408896.810369)  can0  1E5   [8]  1C 06 F7 30 01 00 01 86
 (1653408896.810542)  can0  010   [4]  70 E3 30 01
 (1653408896.810832)  can0  012   [8]  E8 03 10 00 00 00 00 00
 (1653408896.812017)  can0  014   [5]  04 30 00 13 27
 (1653408896.820378)  can0  1E5   [8]  1C 06 F7 50 01 00 01 A6
 (1653408896.820837)  can0  012   [8]  E8 03 10 00 00 00 00 00
 (1653408896.822009)  can0  014   [5]  04 40 00 0D 27
 (1653408896.830384)  can0  1E5   [8]  1C 06 F9 70 02 00 01 C9
 (1653408896.830810)  can0  012   [8]  E8 03 10 00 00 00 00 00
 (1653408896.832004)  can0  014   [5]  04 40 00 10 27
 (1653408896.840380)  can0  1E5   [8]  1C 06 FA 10 03 00 01 6B
 (1653408896.840833)  can0  012   [8]  E8 03 10 00 00 00 00 00
 (1653408896.842015)  can0  014   [5]  05 50 00 10 27
 (1653408896.850374)  can0  1E5   [8]  1C 06 FA 30 03 00 01 8B
 (1653408896.850810)  can0  012   [8]  E8 03 10 00 00 00 00 00
 (1653408896.852016)  can0  014   [5]  06 60 00 15 27
 (1653408896.860374)  can0  1E5   [8]  1C 06 FA 50 03 00 01 AB
 (1653408896.860825)  can0  012   [8]  E8 03 10 00 00 00 00 00
 (1653408896.862019)  can0  014   [5]  05 50 00 0B 27
 (1653408896.870385)  can0  1E5   [8]  1C 06 FC 70 04 00 01 CE
 (1653408896.870826)  can0  012   [8]  E8 03 10 00 00 00 00 00
 (1653408896.872023)  can0  014   [5]  06 60 00 10 27
 (1653408896.880377)  can0  1E5   [8]  1C 06 FD 10 05 00 01 70
 (1653408896.880831)  can0  012   [8]  E8 03 10 00 00 00 00 00
 (1653408896.882004)  can0  014   [5]  05 50 00 10 27
 (1653408896.883151)  can0  0F0   [1]  01
 (1653408896.883709)  can0  011   [2]  2A 01
 (1653408896.884000)  can0  013   [1]  00
 (1653408896.890379)  can0  1E5   [8]  1C 06 FD 30 05 00 01 90
 (1653408896.890829)  can0  012   [8]  E8 03 10 00 00 00 00 00
 (1653408896.892027)  can0  014   [5]  06 60 00 19 27
 (1653408896.900363)  can0  1E5   [8]  1C 06 FF 50 06 00 01 B3
 (1653408896.900823)  can0  012   [8]  E8 03 10 00 00 00 00 00
 (1653408896.902010)  can0  014   [5]  06 50 00 08 27
 (1653408896.910366)  can0  1E5   [8]  1C 07 01 70 06 00 00 D6
 (1653408896.910538)  can0  010   [4]  67 D5 2A 01
 (1653408896.910830)  can0  012   [8]  E8 03 10 00 00 00 00 00
 (1653408896.912016)  can0  014   [5]  05 50 00 12 27
 (1653408896.920376)  can0  1E5   [8]  1C 07 01 10 06 00 00 76
 (1653408896.920825)  can0  012   [8]  E8 03 10 00 00 00 00 00
 (1653408896.922004)  can0  014   [5]  05 50 00 0D 27
 (1653408896.930377)  can0  1E5   [8]  1C 07 02 30 06 00 00 97
 (1653408896.930838)  can0  012   [8]  E8 03 10 00 00 00 00 00
 (1653408896.932011)  can0  014   [5]  05 50 00 10 27
 (1653408896.940373)  can0  1E5   [8]  1C 07 04 50 06 00 00 B9
 (1653408896.940839)  can0  012   [8]  E8 03 10 00 00 00 00 00
 (1653408896.942010)  can0  014   [5]  06 60 00 10 27
 (1653408896.950384)  can0  1E5   [8]  1C 07 05 70 07 00 00 DB
 (1653408896.950832)  can0  012   [8]  E8 03 10 00 00 00 00 00
 (1653408896.952006)  can0  014   [5]  06 60 00 10 27
 (1653408896.960373)  can0  1E5   [8]  1C 07 09 10 09 00 00 81
 (1653408896.960835)  can0  012   [8]  E8 03 10 00 00 00 00 00
 (1653408896.962007)  can0  014   [5]  06 60 00 10 27
 (1653408896.970371)  can0  1E5   [8]  1C 07 0A 30 09 00 00 A2
 (1653408896.970833)  can0  012   [8]  E8 03 10 00 00 00 00 00
 (1653408896.972014)  can0  014   [5]  07 70 00 10 27
 (1653408896.980368)  can0  1E5   [8]  1C 07 0C 50 09 00 00 C4
 (1653408896.980835)  can0  012   [8]  E8 03 10 00 00 00 00 00
 (1653408896.982003)  can0  014   [5]  08 80 00 10 27
 (1653408896.984719)  can0  0F0   [1]  01
 (1653408896.985081)  can0  011   [2]  28 01
 (1653408896.985174)  can0  013   [1]  00
 (1653408896.990364)  can0  1E5   [8]  1C 07 0D 70 0A 00 00 E6
 (1653408896.990836)  can0  012   [8]  E8 03 10 00 00 00 00 00
 (1653408896.992014)  can0  014   [5]  09 70 00 19 27
 (1653408897.000370)  can0  1E5   [8]  1C 07 11 10 0B 00 00 8B
 (1653408897.000835)  can0  012   [8]  E8 03 10 00 00 00 00 00
 (1653408897.002005)  can0  014   [5]  08 90 00 07 27
 (1653408897.010373)  can0  1E5   [8]  1C 07 14 30 0C 00 00 AF
 (1653408897.010529)  can0  010   [4]  64 D0 27 01
 (1653408897.010812)  can0  012   [8]  E8 03 10 00 00 00 00 00
 (1653408897.012003)  can0  014   [5]  09 90 00 13 27
 (1653408897.020370)  can0  1E5   [8]  1C 07 15 50 0D 00 00 D1
 (1653408897.020832)  can0  012   [8]  E8 03 10 00 00 00 00 00
 (1653408897.022001)  can0  014   [5]  09 90 00 0D 27
 (1653408897.030368)  can0  1E5   [8]  1C 07 19 70 0E 00 00 F6
 (1653408897.030832)  can0  012   [8]  E8 03 10 00 00 00 00 00
 (1653408897.032008)  can0  014   [5]  0A 90 00 10 27
 (1653408897.040363)  can0  1E5   [8]  1C 07 1A 10 0E 00 00 97
 (1653408897.040827)  can0  012   [8]  E8 03 10 00 00 00 00 00
 (1653408897.041998)  can0  014   [5]  09 90 00 10 27
 (1653408897.050362)  can0  1E5   [8]  1C 07 1D 30 0F 00 00 BB
 (1653408897.050830)  can0  012   [8]  E8 03 10 00 00 00 00 00
 (1653408897.052005)  can0  014   [5]  09 90 00 10 27
 (1653408897.060357)  can0  1E5   [8]  1C 07 1F 50 0E 00 00 DC
 (1653408897.060804)  can0  012   [8]  E8 03 10 00 00 00 00 00
 (1653408897.062007)  can0  014   [5]  09 90 00 10 27
 (1653408897.070365)  can0  1E5   [8]  1C 07 1F 70 0D 00 00 FB
 (1653408897.070827)  can0  012   [8]  E8 03 10 00 00 00 00 00
 (1653408897.072010)  can0  014   [5]  09 90 00 10 27
 (1653408897.080357)  can0  1E5   [8]  1C 07 21 10 0D 00 00 9D
 (1653408897.080808)  can0  012   [8]  E8 03 10 00 00 00 00 00
 (1653408897.082020)  can0  014   [5]  09 A0 00 10 27
 (1653408897.085399)  can0  0F0   [1]  01
 (1653408897.086026)  can0  011   [2]  22 01
 (1653408897.086414)  can0  013   [1]  00
 (1653408897.090363)  can0  1E5   [8]  1C 07 22 30 0D 00 00 BE
 (1653408897.090835)  can0  012   [8]  E8 03 10 00 00 00 00 00
 (1653408897.092001)  can0  014   [5]  0A A0 00 19 27
 (1653408897.100376)  can0  1E5   [8]  1C 07 22 50 0B 00 00 DC
 (1653408897.100810)  can0  012   [8]  E8 03 10 00 00 00 00 00
 (1653408897.102006)  can0  014   [5]  0A A0 00 07 27
 (1653408897.110379)  can0  1E5   [8]  1C 07 22 70 09 00 00 FA
 (1653408897.110516)  can0  010   [4]  5B C2 22 01
 (1653408897.110830)  can0  012   [8]  E8 03 10 00 00 00 00 00
 (1653408897.112009)  can0  014   [5]  0B A0 00 13 27
 (1653408897.120363)  can0  1E5   [8]  1C 07 22 10 08 00 00 99
 (1653408897.120838)  can0  012   [8]  E8 03 10 00 00 00 00 00
 (1653408897.122037)  can0  014   [5]  0C B0 00 0D 27
 (1653408897.130400)  can0  1E5   [8]  1C 07 22 30 06 00 00 B7
 (1653408897.130832)  can0  012   [8]  E8 03 10 00 00 00 00 00
 (1653408897.132024)  can0  014   [5]  0C C0 00 10 27
 (1653408897.140564)  can0  1E5   [8]  1C 07 22 50 05 00 00 D6
 (1653408897.140804)  can0  012   [8]  E8 03 10 00 00 00 00 00
 (1653408897.142044)  can0  014   [5]  0D C0 00 10 27
 (1653408897.150401)  can0  1E5   [8]  1C 07 21 70 00 00 00 F0
 (1653408897.150830)  can0  012   [8]  E8 03 10 00 00 00 00 00
 (1653408897.152038)  can0  014   [5]  0C D0 00 10 27
 (1653408897.160550)  can0  1E5   [8]  1C 07 22 10 00 00 00 91
 (1653408897.160834)  can0  012   [8]  E8 03 10 00 00 00 00 00
 (1653408897.162005)  can0  014   [5]  0C D0 00 10 27
 (1653408897.170378)  can0  1E5   [8]  1C 07 22 30 00 00 00 B1
 (1653408897.170823)  can0  012   [8]  E8 03 10 00 00 00 00 00
 (1653408897.172011)  can0  014   [5]  0C E0 00 10 27
 (1653408897.180359)  can0  1E5   [8]  1C 07 22 50 00 00 00 D1
 (1653408897.180805)  can0  012   [8]  E8 03 10 00 00 00 00 00
 (1653408897.182017)  can0  014   [5]  0D D0 00 10 27
 (1653408897.187477)  can0  0F0   [1]  01
 (1653408897.188204)  can0  011   [2]  1B 01
 (1653408897.188919)  can0  013   [1]  00
 (1653408897.190361)  can0  1E5   [8]  1C 07 22 70 00 00 00 F1
 (1653408897.190830)  can0  012   [8]  E8 03 10 00 00 00 00 00
 (1653408897.192024)  can0  014   [5]  0C E0 00 19 27
 (1653408897.200370)  can0  1E5   [8]  1C 07 24 10 01 00 00 94
 (1653408897.200811)  can0  012   [8]  E8 03 10 00 00 00 00 00
 (1653408897.202021)  can0  014   [5]  0F D0 00 07 27
 (1653408897.210373)  can0  1E5   [8]  1C 07 27 30 03 00 00 B9
 (1653408897.210522)  can0  010   [4]  50 B2 1A 01
 (1653408897.210658)  can0  0E2   [2]  52 03
 (1653408897.210903)  can0  012   [8]  E8 03 10 00 00 00 00 00
 (1653408897.211029)  can0  0E3   [2]  52 03
 (1653408897.212012)  can0  014   [5]  0E E0 00 19 27
 (1653408897.212140)  can0  0E4   [2]  52 03
 (1653408897.220393)  can0  1E5   [8]  1C 07 2A 50 05 00 00 DE
 (1653408897.220826)  can0  012   [8]  E8 03 10 00 00 00 00 00
 (1653408897.222008)  can0  014   [5]  0F E0 00 07 27
 (1653408897.230362)  can0  1E5   [8]  1C 07 2D 70 07 00 01 03
 (1653408897.230812)  can0  012   [8]  E8 03 10 00 00 00 00 00
 (1653408897.232009)  can0  014   [5]  0F E0 00 10 27
 (1653408897.240362)  can0  1E5   [8]  1C 07 32 10 0A 00 00 AB
 (1653408897.240829)  can0  012   [8]  E8 03 10 00 00 00 00 00
 (1653408897.242006)  can0  014   [5]  10 E0 00 10 27
 (1653408897.250366)  can0  1E5   [8]  1C 07 37 30 0D 00 00 D3
 (1653408897.250828)  can0  012   [8]  E8 03 10 00 00 00 00 00
 (1653408897.252006)  can0  014   [5]  11 F0 00 10 27
 (1653408897.260373)  can0  1E5   [8]  1C 07 3C 50 10 00 00 FB
 (1653408897.260810)  can0  012   [8]  E8 03 10 00 00 00 00 00
 (1653408897.262006)  can0  014   [5]  10 00 01 10 27
 (1653408897.270357)  can0  1E5   [8]  1C 07 42 70 14 00 01 25
 (1653408897.270813)  can0  012   [8]  E8 03 10 00 00 00 00 00
 (1653408897.272018)  can0  014   [5]  10 00 01 10 27
 (1653408897.280355)  can0  1E5   [8]  1C 07 49 10 18 00 00 D0
 (1653408897.280834)  can0  012   [8]  E8 03 10 00 00 00 00 00
 (1653408897.282007)  can0  014   [5]  11 10 01 10 27
 (1653408897.289802)  can0  0F0   [1]  01
 (1653408897.290163)  can0  011   [2]  15 01
 (1653408897.290259)  can0  013   [1]  00
 (1653408897.290348)  can0  1E5   [8]  1C 07 51 30 1D 00 00 FD
 (1653408897.290847)  can0  012   [8]  E8 03 10 00 00 00 00 00
 (1653408897.292008)  can0  014   [5]  12 10 01 1D 27
 (1653408897.300357)  can0  1E5   [8]  1C 07 57 50 20 00 01 26
 (1653408897.300828)  can0  012   [8]  E8 03 10 00 00 00 00 00
 (1653408897.302004)  can0  014   [5]  13 10 01 03 27
 (1653408897.310357)  can0  1E5   [8]  1C 07 5F 70 23 00 01 51
 (1653408897.310513)  can0  010   [4]  47 A4 15 01
 (1653408897.310834)  can0  012   [8]  E8 03 10 00 00 00 00 00
 (1653408897.312006)  can0  014   [5]  12 10 01 13 27
 (1653408897.320366)  can0  1E5   [8]  1C 07 65 10 25 00 00 F9
 (1653408897.320809)  can0  012   [8]  E8 03 10 00 00 00 00 00
 (1653408897.322002)  can0  014   [5]  13 20 01 0D 27
 (1653408897.330349)  can0  1E5   [8]  1C 07 6A 30 26 00 01 1F
 (1653408897.330830)  can0  012   [8]  E8 03 10 00 00 00 00 00
 (1653408897.332009)  can0  014   [5]  13 20 01 10 27
 (1653408897.340349)  can0  1E5   [8]  1C 07 6F 50 26 00 01 44
 (1653408897.340809)  can0  012   [8]  E8 03 10 00 00 00 00 00
 (1653408897.342000)  can0  014   [5]  14 20 01 10 27
 (1653408897.350363)  can0  1E5   [8]  1C 07 74 70 26 00 01 69
 (1653408897.350809)  can0  012   [8]  E8 03 10 00 00 00 00 00
 (1653408897.352006)  can0  014   [5]  14 30 01 10 27
 (1653408897.360347)  can0  1E5   [8]  1C 07 77 10 25 00 01 0B
 (1653408897.360809)  can0  012   [8]  E8 03 10 00 00 00 00 00
 (1653408897.362007)  can0  014   [5]  14 30 01 10 27
 (1653408897.370350)  can0  1E5   [8]  1C 07 79 30 22 00 01 2A
 (1653408897.370826)  can0  012   [8]  E8 03 10 00 00 00 00 00
 (1653408897.372001)  can0  014   [5]  14 20 01 10 27
 (1653408897.380370)  can0  1E5   [8]  1C 07 7A 50 1F 00 01 48
 (1653408897.380829)  can0  012   [8]  E8 03 10 00 00 00 00 00
 (1653408897.382013)  can0  014   [5]  15 30 01 14 27
 (1653408897.390358)  can0  1E5   [8]  1C 07 7C 70 1B 00 01 66
 (1653408897.390619)  can0  0F0   [1]  01
 (1653408897.390829)  can0  012   [8]  E8 03 10 00 00 00 00 00
 (1653408897.391209)  can0  011   [2]  0F 01
 (1653408897.391336)  can0  013   [1]  00
 (1653408897.392026)  can0  014   [5]  15 40 01 19 27
 (1653408897.400377)  can0  1E5   [8]  1C 07 7A 10 00 00 00 E9
 (1653408897.400840)  can0  012   [8]  E8 03 10 00 00 00 00 00
 (1653408897.402011)  can0  014   [5]  14 40 01 07 27
 (1653408897.410376)  can0  1E5   [8]  1C 07 79 3F FF 00 02 16
 (1653408897.410514)  can0  010   [4]  3D 96 0E 01
 (1653408897.410841)  can0  012   [8]  E8 03 10 00 00 00 00 00
 (1653408897.412048)  can0  014   [5]  16 40 01 0F 27
 (1653408897.420403)  can0  1E5   [8]  1C 07 77 5F FE 00 02 33
 (1653408897.420834)  can0  012   [8]  E8 03 10 00 00 00 00 00
 (1653408897.422026)  can0  014   [5]  17 60 01 0D 27
 (1653408897.430386)  can0  1E5   [8]  1C 07 75 7F FD 00 02 50
 (1653408897.430870)  can0  012   [8]  E8 03 10 00 00 00 00 00
 (1653408897.432045)  can0  014   [5]  18 60 01 10 27
 (1653408897.440398)  can0  1E5   [8]  1C 07 74 1F FC 00 01 EE
 (1653408897.440852)  can0  012   [8]  E8 03 10 00 00 00 00 00
 (1653408897.442038)  can0  014   [5]  18 50 01 12 27
 (1653408897.450560)  can0  1E5   [8]  1C 07 72 3F FB 00 02 0B
 (1653408897.450840)  can0  012   [8]  E8 03 10 00 00 00 00 00
 (1653408897.452034)  can0  014   [5]  16 60 01 0E 27
 (1653408897.460410)  can0  1E5   [8]  1C 07 71 5F FA 00 02 29
 (1653408897.460835)  can0  012   [8]  E8 03 10 00 00 00 00 00
 (1653408897.462044)  can0  014   [5]  17 50 01 10 27
 (1653408897.470390)  can0  1E5   [8]  1C 07 6F 7F F9 00 02 46
 (1653408897.470831)  can0  012   [8]  E8 03 10 00 00 00 00 00
 (1653408897.472037)  can0  014   [5]  1A 50 01 10 27
 (1653408897.480382)  can0  1E5   [8]  1C 07 6D 1F F8 00 01 E3
 (1653408897.480829)  can0  012   [8]  E8 03 10 00 00 00 00 00
 (1653408897.482028)  can0  014   [5]  14 50 01 10 27
 (1653408897.490364)  can0  1E5   [8]  1C 07 6C 3F F7 00 02 01
 (1653408897.490829)  can0  012   [8]  E8 03 10 00 00 00 00 00
 (1653408897.491621)  can0  0F0   [1]  01
 (1653408897.492005)  can0  014   [5]  12 60 01 15 27
 (1653408897.492484)  can0  011   [2]  0B 01
 (1653408897.492885)  can0  013   [1]  00
 (1653408897.500397)  can0  1E5   [8]  1C 07 69 5F F5 00 02 1C
 (1653408897.500873)  can0  012   [8]  E8 03 10 00 00 00 00 00
 (1653408897.502052)  can0  014   [5]  19 40 01 11 27
 (1653408897.510385)  can0  1E5   [8]  1C 07 67 7F F5 00 02 3A
 (1653408897.510522)  can0  010   [4]  37 8D 0B 01
 (1653408897.510869)  can0  012   [8]  E8 03 10 00 00 00 00 00
 (1653408897.512029)  can0  014   [5]  1C 40 01 0F 27
 (1653408897.520389)  can0  1E5   [8]  1C 07 65 1F F5 00 01 D8
 (1653408897.520851)  can0  012   [8]  E8 03 10 00 00 00 00 00
 (1653408897.522035)  can0  014   [5]  17 50 01 0B 27
 (1653408897.530393)  can0  1E5   [8]  1C 07 62 3F F4 00 01 F4
 (1653408897.530845)  can0  012   [8]  E8 03 10 00 00 00 00 00
 (1653408897.532047)  can0  014   [5]  19 60 01 13 27
 (1653408897.540388)  can0  1E5   [8]  1C 07 61 5F F4 00 02 13
 (1653408897.540831)  can0  012   [8]  E8 03 10 00 00 00 00 00
 (1653408897.542041)  can0  014   [5]  19 70 01 0D 27
 (1653408897.550697)  can0  1E5   [8]  1C 07 61 7F F5 00 02 34
 (1653408897.550805)  can0  012   [8]  E8 03 10 00 00 00 00 00
 (1653408897.552037)  can0  014   [5]  1A 80 01 10 27
 (1653408897.560757)  can0  1E5   [8]  1C 07 5F 1F F5 00 01 D2
 (1653408897.560827)  can0  012   [8]  E8 03 10 00 00 00 00 00
 (1653408897.562024)  can0  014   [5]  1B 90 01 13 27
 (1653408897.570735)  can0  1E5   [8]  1C 07 5D 3F F5 00 01 F0
 (1653408897.570804)  can0  012   [8]  E8 03 10 00 00 00 00 00
 (1653408897.572043)  can0  014   [5]  1B A0 01 0D 27
 (1653408897.580567)  can0  1E5   [8]  1C 07 5A 5F F4 00 02 0C
 (1653408897.580835)  can0  012   [8]  E8 03 10 00 00 00 00 00
 (1653408897.582004)  can0  014   [5]  1C B0 01 10 27
 (1653408897.590557)  can0  1E5   [8]  1C 07 59 7F F4 00 02 2B
 (1653408897.590806)  can0  012   [8]  E8 03 10 00 00 00 00 00
 (1653408897.592031)  can0  014   [5]  1C B0 01 10 27
 (1653408897.592830)  can0  0F0   [1]  01
 (1653408897.593591)  can0  011   [2]  04 01
 (1653408897.593778)  can0  013   [1]  00
 (1653408897.600389)  can0  1E5   [8]  1C 07 54 1F F3 00 01 C5
 (1653408897.600867)  can0  012   [8]  E8 03 10 00 00 00 00 00
 (1653408897.602052)  can0  014   [5]  1C A0 01 19 27
 (1653408897.610571)  can0  1E5   [8]  1C 07 4F 3F F1 00 01 DE
 (1653408897.610577)  can0  010   [4]  2C 7D 04 01
 (1653408897.610831)  can0  012   [8]  E8 03 10 00 00 00 00 00
 (1653408897.612033)  can0  014   [5]  1B A0 01 0A 27
 (1653408897.620390)  can0  1E5   [8]  1C 07 49 5F EE 00 01 F5
 (1653408897.620832)  can0  012   [8]  E8 03 10 00 00 00 00 00
 (1653408897.622035)  can0  014   [5]  1A 90 01 0D 27
 (1653408897.630375)  can0  1E5   [8]  1C 07 41 7F EB 00 02 0A
 (1653408897.630827)  can0  012   [8]  E8 03 10 00 00 00 00 00
 (1653408897.632035)  can0  014   [5]  1C A0 01 10 27
 (1653408897.640568)  can0  1E5   [8]  1C 07 37 1F E6 00 01 9B
 (1653408897.640829)  can0  012   [8]  E8 03 10 00 00 00 00 00
 (1653408897.642041)  can0  014   [5]  1B A0 01 14 27
 (1653408897.650561)  can0  1E5   [8]  1C 07 2D 3F E0 00 01 AB
 (1653408897.650829)  can0  012   [8]  E8 03 10 00 00 00 00 00
 (1653408897.652048)  can0  014   [5]  1C 90 01 0C 27
 (1653408897.660546)  can0  1E5   [8]  1C 07 22 5F DA 00 01 BA
 (1653408897.660833)  can0  012   [8]  E8 03 10 00 00 00 00 00
 (1653408897.662034)  can0  014   [5]  1B 90 01 10 27
 (1653408897.670548)  can0  1E5   [8]  1C 07 15 7F D3 00 01 C6
 (1653408897.670829)  can0  012   [8]  E8 03 10 00 00 00 00 00
 (1653408897.672034)  can0  014   [5]  1C 80 01 10 27
 (1653408897.680389)  can0  1E5   [8]  1C 07 07 1F CC 00 01 51
 (1653408897.680806)  can0  012   [8]  E8 03 10 00 00 00 00 00
 (1653408897.682049)  can0  014   [5]  1B A0 01 10 27
 (1653408897.690383)  can0  1E5   [8]  1C 06 FA 3F C5 00 02 5C
 (1653408897.690855)  can0  012   [8]  E8 03 10 00 00 00 00 00
 (1653408897.692035)  can0  014   [5]  1B A0 01 10 27
 (1653408897.693661)  can0  0F0   [1]  01
 (1653408897.694429)  can0  011   [2]  05 01
 (1653408897.694630)  can0  013   [1]  00
 (1653408897.700380)  can0  1E5   [8]  1C 06 EC 5F BF 00 02 68
 (1653408897.700854)  can0  012   [8]  E8 03 10 00 00 00 00 00
 (1653408897.702018)  can0  014   [5]  1C A0 01 19 27
 (1653408897.710388)  can0  1E5   [8]  1C 06 DD 7F B9 00 02 73
 (1653408897.710511)  can0  010   [4]  2E 7F 04 01
 (1653408897.710830)  can0  012   [8]  E8 03 10 00 00 00 00 00
 (1653408897.712003)  can0  014   [5]  1C B0 01 0A 27
 (1653408897.720362)  can0  1E5   [8]  1C 06 CF 1F B4 00 02 00
 (1653408897.720832)  can0  012   [8]  E8 03 10 00 00 00 00 00
 (1653408897.722005)  can0  014   [5]  1C A0 01 0D 27
 (1653408897.730352)  can0  1E5   [8]  1C 06 BF 3F AF 00 02 0B
 (1653408897.730832)  can0  012   [8]  E8 03 10 00 00 00 00 00
 (1653408897.732004)  can0  014   [5]  1C B0 01 10 27
 (1653408897.740342)  can0  1E5   [8]  1C 06 AF 5F AB 00 02 17
 (1653408897.740800)  can0  012   [8]  E8 03 10 00 00 00 00 00
 (1653408897.742006)  can0  014   [5]  1D B0 01 10 27
 (1653408897.750347)  can0  1E5   [8]  1C 06 9F 7F A7 00 02 23
 (1653408897.750810)  can0  012   [8]  E8 03 10 00 00 00 00 00
 (1653408897.752009)  can0  014   [5]  1C B0 01 17 27
 (1653408897.760356)  can0  1E5   [8]  1C 06 8D 1F A3 00 01 AD
 (1653408897.760826)  can0  012   [8]  E8 03 10 00 00 00 00 00
 (1653408897.762007)  can0  014   [5]  1C B0 01 0D 27
 (1653408897.770355)  can0  1E5   [8]  1C 06 7C 3F A0 00 01 B9
 (1653408897.770833)  can0  012   [8]  E8 03 10 00 00 00 00 00
 (1653408897.772003)  can0  014   [5]  1C A0 01 0C 27
 (1653408897.780347)  can0  1E5   [8]  1C 06 6A 5F 9E 00 01 C5
 (1653408897.780828)  can0  012   [8]  E8 03 10 00 00 00 00 00
 (1653408897.782003)  can0  014   [5]  1C A0 01 10 27
 (1653408897.790349)  can0  1E5   [8]  1C 06 57 7F 9A 00 01 CE
 (1653408897.790824)  can0  012   [8]  E8 03 10 00 00 00 00 00
 (1653408897.792010)  can0  014   [5]  1D C0 01 10 27
 (1653408897.794514)  can0  0F0   [1]  01
 (1653408897.795557)  can0  011   [2]  04 01
 (1653408897.795680)  can0  013   [1]  00
 (1653408897.800619)  can0  1E5   [8]  1C 06 44 1F 97 00 01 58
 (1653408897.800830)  can0  012   [8]  E8 03 10 00 00 00 00 00
 (1653408897.802049)  can0  014   [5]  1D B0 01 19 27
 (1653408897.810389)  can0  1E5   [8]  1C 06 2F 3F 93 00 01 5F
 (1653408897.810498)  can0  010   [4]  2C 7D 04 01
 (1653408897.810829)  can0  012   [8]  E8 03 10 00 00 00 00 00
 (1653408897.812013)  can0  014   [5]  1D C0 01 0A 27
 (1653408897.820549)  can0  1E5   [8]  1C 06 1C 5F 90 00 01 69
 (1653408897.820837)  can0  012   [8]  E8 03 10 00 00 00 00 00
 (1653408897.822034)  can0  014   [5]  1C C0 01 0F 27
 (1653408897.830567)  can0  1E5   [8]  1C 06 09 7F 8E 00 01 74
 (1653408897.830813)  can0  012   [8]  E8 03 10 00 00 00 00 00
 (1653408897.832009)  can0  014   [5]  1F C0 01 0E 27
 (1653408897.840552)  can0  1E5   [8]  1C 05 F4 1F 8B 00 01 FB
 (1653408897.840812)  can0  012   [8]  E8 03 10 00 00 00 00 00
 (1653408897.842036)  can0  014   [5]  1F D0 01 13 27
 (1653408897.850552)  can0  1E5   [8]  1C 05 DF 3F 88 00 02 03
 (1653408897.850838)  can0  012   [8]  E8 03 10 00 00 00 00 00
 (1653408897.852010)  can0  014   [5]  1E D0 01 0D 27
 (1653408897.860553)  can0  1E5   [8]  1C 05 C9 5F 85 00 02 0A
 (1653408897.860811)  can0  012   [8]  E8 03 10 00 00 00 00 00
 (1653408897.862043)  can0  014   [5]  1D D0 01 10 27
 (1653408897.870540)  can0  1E5   [8]  1C 05 B4 7F 83 00 02 13
 (1653408897.870831)  can0  012   [8]  E8 03 10 00 00 00 00 00
 (1653408897.872046)  can0  014   [5]  1E C0 01 10 27
 (1653408897.880560)  can0  1E5   [8]  1C 05 9D 1F 80 00 01 99
 (1653408897.880830)  can0  012   [8]  E8 03 10 00 00 00 00 00
 (1653408897.882035)  can0  014   [5]  1F D0 01 10 27
 (1653408897.890370)  can0  1E5   [8]  1C 05 85 3F 7D 00 01 9E
 (1653408897.890808)  can0  012   [8]  E8 03 10 00 00 00 00 00
 (1653408897.892029)  can0  014   [5]  1E D0 01 10 27
 (1653408897.895686)  can0  0F0   [1]  01
 (1653408897.896260)  can0  011   [2]  01 01
 (1653408897.896344)  can0  013   [1]  00
 (1653408897.900365)  can0  1E5   [8]  1C 05 6D 5F 7A 00 01 A3
 (1653408897.900884)  can0  012   [8]  E8 03 10 00 00 00 00 00
 (1653408897.902046)  can0  014   [5]  1D B0 01 19 27
 (1653408897.910574)  can0  1E5   [8]  1C 05 55 7F 78 00 01 A9
 (1653408897.910580)  can0  010   [4]  28 76 01 01
 (1653408897.910828)  can0  012   [8]  E8 03 10 00 00 00 00 00
 (1653408897.912038)  can0  014   [5]  1C C0 01 0A 27
 (1653408897.920548)  can0  1E5   [8]  1C 05 3D 1F 75 00 01 2E
 (1653408897.920853)  can0  012   [8]  E8 03 10 00 00 00 00 00
 (1653408897.922044)  can0  014   [5]  1E A0 01 0D 27
 (1653408897.930553)  can0  1E5   [8]  1C 05 24 3F 71 00 01 31
 (1653408897.930834)  can0  012   [8]  E8 03 10 00 00 00 00 00
 (1653408897.932013)  can0  014   [5]  1E D0 01 12 27
 (1653408897.940541)  can0  1E5   [8]  1C 05 0C 5F 6F 00 01 37
 (1653408897.940834)  can0  012   [8]  E8 03 10 00 00 00 00 00
 (1653408897.942040)  can0  014   [5]  1E C0 01 12 27
 (1653408897.950569)  can0  1E5   [8]  1C 04 F1 7F 6B 00 02 37
 (1653408897.950798)  can0  012   [8]  E8 03 10 00 00 00 00 00
 (1653408897.952001)  can0  014   [5]  1D C0 01 0C 27
 (1653408897.960377)  can0  1E5   [8]  1C 04 D9 1F 6A 00 01 BE
 (1653408897.960811)  can0  012   [8]  E8 03 10 00 00 00 00 00
 (1653408897.962008)  can0  014   [5]  1F C0 01 13 27
 (1653408897.970346)  can0  1E5   [8]  1C 04 BF 3F 67 00 01 C1
 (1653408897.970846)  can0  012   [8]  E8 03 10 00 00 00 00 00
 (1653408897.972008)  can0  014   [5]  1D C0 01 0D 27
 (1653408897.980347)  can0  1E5   [8]  1C 04 A4 5F 64 00 01 C3
 (1653408897.980840)  can0  012   [8]  E8 03 10 00 00 00 00 00
 (1653408897.982009)  can0  014   [5]  1D C0 01 10 27
 (1653408897.990347)  can0  1E5   [8]  1C 04 89 7F 62 00 01 C6
 (1653408897.990805)  can0  012   [8]  E8 03 10 00 00 00 00 00
 (1653408897.991987)  can0  014   [5]  1E C0 01 10 27
 (1653408897.997009)  can0  0F0   [1]  01
 (1653408897.997720)  can0  011   [2]  04 01
 (1653408897.997941)  can0  013   [1]  00
 (1653408898.000331)  can0  1E5   [8]  1C 04 6D 1F 60 00 01 48
 (1653408898.000826)  can0  012   [8]  E8 03 10 00 00 00 00 00
 (1653408898.002001)  can0  014   [5]  1D C0 01 1C 27
 (1653408898.010358)  can0  1E5   [8]  1C 04 52 3F 5E 00 01 4B
 (1653408898.010488)  can0  010   [4]  2C 7D 04 01
 (1653408898.010833)  can0  012   [8]  E8 03 10 00 00 00 00 00
 (1653408898.012014)  can0  014   [5]  1D C0 01 07 27
 (1653408898.020337)  can0  1E5   [8]  1C 04 37 5F 5C 00 01 4E
 (1653408898.020833)  can0  012   [8]  E8 03 10 00 00 00 00 00
 (1653408898.022005)  can0  014   [5]  1E C0 01 0D 27
 (1653408898.030344)  can0  1E5   [8]  1C 04 1A 7F 5A 00 01 4F
 (1653408898.030835)  can0  012   [8]  E8 03 10 00 00 00 00 00
 (1653408898.032015)  can0  014   [5]  1D D0 01 10 27
 (1653408898.040346)  can0  1E5   [8]  1C 03 FF 1F 58 00 01 D1
 (1653408898.040809)  can0  012   [8]  E8 03 10 00 00 00 00 00
 (1653408898.041992)  can0  014   [5]  1D C0 01 10 27
 (1653408898.050369)  can0  1E5   [8]  1C 03 E2 3F 57 00 01 D3
 (1653408898.050841)  can0  012   [8]  E8 03 10 00 00 00 00 00
 (1653408898.052030)  can0  014   [5]  1D D0 01 10 27
 (1653408898.060361)  can0  1E5   [8]  1C 03 C7 5F 55 00 01 D6
 (1653408898.060810)  can0  012   [8]  E8 03 10 00 00 00 00 00
 (1653408898.062017)  can0  014   [5]  1E D0 01 15 27
 (1653408898.070696)  can0  1E5   [8]  1C 03 AC 7F 54 00 01 DA
 (1653408898.070890)  can0  012   [8]  E8 03 10 00 00 00 00 00
 (1653408898.072045)  can0  014   [5]  1E E0 01 0F 27
 (1653408898.080717)  can0  1E5   [8]  1C 03 8F 1F 53 00 01 5C
 (1653408898.080808)  can0  012   [8]  E8 03 10 00 00 00 00 00
 (1653408898.082004)  can0  014   [5]  1E D0 01 0C 27
 (1653408898.090377)  can0  1E5   [8]  1C 03 74 3F 53 00 01 61
 (1653408898.090830)  can0  012   [8]  E8 03 10 00 00 00 00 00
 (1653408898.092033)  can0  014   [5]  1E F0 01 10 27
 (1653408898.098179)  can0  0F0   [1]  01
 (1653408898.098973)  can0  011   [2]  03 01
 (1653408898.099590)  can0  013   [1]  00
 (1653408898.100329)  can0  1E5   [8]  1C 03 59 5F 53 00 01 66
 (1653408898.100854)  can0  012   [8]  E8 03 10 00 00 00 00 00
 (1653408898.102010)  can0  014   [5]  1F F0 01 1D 27
 (1653408898.110541)  can0  1E5   [8]  1C 03 3D 7F 53 00 01 6A
 (1653408898.110547)  can0  010   [4]  2B 7A 03 01
 (1653408898.110811)  can0  012   [8]  E8 03 10 00 00 00 00 00
 (1653408898.112050)  can0  014   [5]  1F E0 01 06 27
 (1653408898.120545)  can0  1E5   [8]  1C 03 21 1F 52 00 00 ED
 (1653408898.120832)  can0  012   [8]  E8 03 10 00 00 00 00 00
 (1653408898.122009)  can0  014   [5]  1F F0 01 12 27
 (1653408898.130374)  can0  1E5   [8]  1C 03 07 3F 54 00 00 F5
 (1653408898.130833)  can0  012   [8]  E8 03 10 00 00 00 00 00
 (1653408898.132046)  can0  014   [5]  1E E0 01 0B 27
 (1653408898.140544)  can0  1E5   [8]  1C 02 ED 5F 55 00 01 FB
 (1653408898.140808)  can0  012   [8]  E8 03 10 00 00 00 00 00
 (1653408898.141998)  can0  014   [5]  1D E0 01 10 27
 (1653408898.150545)  can0  1E5   [8]  1C 02 D4 7F 57 00 02 04
 (1653408898.150827)  can0  012   [8]  E8 03 10 00 00 00 00 00
 (1653408898.152039)  can0  014   [5]  1E D0 01 13 27
 (1653408898.160537)  can0  1E5   [8]  1C 02 BC 1F 59 00 01 8E
 (1653408898.160809)  can0  012   [8]  E8 03 10 00 00 00 00 00
 (1653408898.162004)  can0  014   [5]  1C E0 01 11 27
 (1653408898.170525)  can0  1E5   [8]  1C 02 A2 3F 5A 00 01 95
 (1653408898.170872)  can0  012   [8]  E8 03 10 00 00 00 00 00
 (1653408898.172041)  can0  014   [5]  1D C0 01 0C 27
 (1653408898.180364)  can0  1E5   [8]  1C 02 8C 5F 5E 00 01 A3
 (1653408898.180828)  can0  012   [8]  E8 03 10 00 00 00 00 00
 (1653408898.181999)  can0  014   [5]  1B C0 01 10 27
 (1653408898.190525)  can0  1E5   [8]  1C 02 74 7F 60 00 01 AD
 (1653408898.190827)  can0  012   [8]  E8 03 10 00 00 00 00 00
 (1653408898.192051)  can0  014   [5]  1D B0 01 10 27
 (1653408898.199484)  can0  0F0   [1]  01
 (1653408898.200236)  can0  011   [2]  06 01
 (1653408898.200342)  can0  1E5   [8]  1C 02 5F 1F 64 00 01 3C
 (1653408898.200378)  can0  013   [1]  00
 (1653408898.200844)  can0  012   [8]  E8 03 10 00 00 00 00 00
 (1653408898.202010)  can0  014   [5]  1C C0 01 19 27
 (1653408898.210371)  can0  1E5   [8]  1C 02 49 3F 67 00 01 49
 (1653408898.210517)  can0  010   [4]  2F 81 06 01
 (1653408898.210628)  can0  0E2   [2]  7A 03
 (1653408898.210886)  can0  012   [8]  E8 03 10 00 00 00 00 00
 (1653408898.211005)  can0  0E3   [2]  7A 03
 (1653408898.212006)  can0  014   [5]  1A D0 01 10 27
 (1653408898.212129)  can0  0E4   [2]  7A 03
 (1653408898.220348)  can0  1E5   [8]  1C 02 35 5F 6D 00 01 5B
 (1653408898.220844)  can0  012   [8]  E8 03 10 00 00 00 00 00
 (1653408898.222006)  can0  014   [5]  1C D0 01 07 27
 (1653408898.230335)  can0  1E5   [8]  1C 02 21 7F 70 00 01 6A
 (1653408898.230812)  can0  012   [8]  E8 03 10 00 00 00 00 00
 (1653408898.232006)  can0  014   [5]  1E E0 01 10 27
 (1653408898.240330)  can0  1E5   [8]  1C 02 0D 1F 74 00 00 FA
 (1653408898.240809)  can0  012   [8]  E8 03 10 00 00 00 00 00
 (1653408898.241993)  can0  014   [5]  1E E0 01 10 27
 (1653408898.250335)  can0  1E5   [8]  1C 01 FC 3F 79 00 02 0D
 (1653408898.250798)  can0  012   [8]  E8 03 10 00 00 00 00 00
 (1653408898.252003)  can0  014   [5]  20 E0 01 10 27
 (1653408898.260368)  can0  1E5   [8]  1C 01 EA 5F 7D 00 02 1F
 (1653408898.260847)  can0  012   [8]  E8 03 10 00 00 00 00 00
 (1653408898.262038)  can0  014   [5]  1E F0 01 10 27
 (1653408898.270376)  can0  1E5   [8]  1C 01 DA 7F 83 00 02 35
 (1653408898.270854)  can0  012   [8]  E8 03 10 00 00 00 00 00
 (1653408898.272038)  can0  014   [5]  20 F0 01 14 27
 (1653408898.280360)  can0  1E5   [8]  1C 01 CA 1F 87 00 01 C9
 (1653408898.280852)  can0  012   [8]  E8 03 10 00 00 00 00 00
 (1653408898.282026)  can0  014   [5]  20 F0 01 0C 27
 (1653408898.290354)  can0  1E5   [8]  1C 01 B9 3F 8B 00 01 DC
 (1653408898.290837)  can0  012   [8]  E8 03 10 00 00 00 00 00
 (1653408898.292041)  can0  014   [5]  1F F0 01 10 27
 (1653408898.300353)  can0  1E5   [8]  1C 01 A9 5F 8E 00 01 EF
 (1653408898.300474)  can0  0F0   [1]  01
 (1653408898.300833)  can0  012   [8]  E8 03 10 00 00 00 00 00
 (1653408898.301145)  can0  011   [2]  02 01
 (1653408898.301416)  can0  013   [1]  00
 (1653408898.302046)  can0  014   [5]  1F F0 01 19 27
 (1653408898.310361)  can0  1E5   [8]  1C 01 99 7F 92 00 02 03
 (1653408898.310509)  can0  010   [4]  29 78 02 01
 (1653408898.310828)  can0  012   [8]  E8 03 10 00 00 00 00 00
 (1653408898.312049)  can0  014   [5]  20 E0 01 0A 27
 (1653408898.320363)  can0  1E5   [8]  1C 01 89 1F 94 00 01 95
 (1653408898.320809)  can0  012   [8]  E8 03 10 00 00 00 00 00
 (1653408898.322040)  can0  014   [5]  1E D0 01 0D 27
 (1653408898.330350)  can0  1E5   [8]  1C 01 77 3F 96 00 01 A5
 (1653408898.330839)  can0  012   [8]  E8 03 10 00 00 00 00 00
 (1653408898.332031)  can0  014   [5]  1E D0 01 10 27
 (1653408898.340358)  can0  1E5   [8]  1C 01 67 5F 98 00 01 B7
 (1653408898.340810)  can0  012   [8]  E8 03 10 00 00 00 00 00
 (1653408898.342042)  can0  014   [5]  1E E0 01 14 27
 (1653408898.350531)  can0  1E5   [8]  1C 01 55 7F 98 00 01 C5
 (1653408898.350835)  can0  012   [8]  E8 03 10 00 00 00 00 00
