 (1652906593.325007)  can0  014   [5]  00 00 00 12 27
 (1652906593.326037)  can0  1E5   [8]  1C FF 40 70 04 00 02 0B
 (1652906593.334293)  can0  012   [8]  E8 03 10 00 00 00 00 00
 (1652906593.335015)  can0  014   [5]  00 00 00 0E 27
 (1652906593.336256)  can0  1E5   [8]  1C FF 3E 10 00 00 01 A5
 (1652906593.344237)  can0  012   [8]  E8 03 10 00 00 00 00 00
 (1652906593.345055)  can0  014   [5]  00 00 00 10 27
 (1652906593.346227)  can0  1E5   [8]  1C FF 3E 30 00 00 01 C5
 (1652906593.354246)  can0  012   [8]  E8 03 10 00 00 00 00 00
 (1652906593.355084)  can0  014   [5]  00 F0 FF 10 27
 (1652906593.356011)  can0  1E5   [8]  1C FF 3E 50 00 00 01 E5
 (1652906593.364245)  can0  012   [8]  E8 03 10 00 00 00 00 00
 (1652906593.365064)  can0  014   [5]  00 00 00 10 27
 (1652906593.366054)  can0  1E5   [8]  1C FF 3D 7F FF 00 03 12
 (1652906593.374086)  can0  012   [8]  E8 03 10 00 00 00 00 00
 (1652906593.375022)  can0  014   [5]  00 00 00 10 27
 (1652906593.376085)  can0  1E5   [8]  1C FF 3D 1F FF 00 02 B2
 (1652906593.384253)  can0  012   [8]  E8 03 10 00 00 00 00 00
 (1652906593.385057)  can0  014   [5]  00 00 00 10 27
 (1652906593.386242)  can0  1E5   [8]  1C FF 3D 3F FF 00 02 D2
 (1652906593.394354)  can0  012   [8]  E8 03 10 00 00 00 00 00
 (1652906593.395064)  can0  014   [5]  00 00 00 10 27
 (1652906593.396273)  can0  1E5   [8]  1C FF 3D 5F FF 00 02 F2
 (1652906593.404061)  can0  012   [8]  E8 03 10 00 00 00 00 00
 (1652906593.405010)  can0  014   [5]  00 00 00 10 27
 (1652906593.406030)  can0  1E5   [8]  1C FF 3D 7F FF 00 03 12
 (1652906593.414259)  can0  012   [8]  E8 03 10 00 00 00 00 00
 (1652906593.415011)  can0  014   [5]  00 00 00 10 27
 (1652906593.416069)  can0  1E5   [8]  1C FF 3B 1F FE 00 02 AF
 (1652906593.423647)  can0  010   [4]  26 73 00 00
 (1652906593.424045)  can0  012   [8]  E8 03 10 00 00 00 00 00
 (1652906593.425015)  can0  014   [5]  00 00 00 13 27
 (1652906593.426048)  can0  1E5   [8]  1C FF 3B 3F FE 00 02 CF
 (1652906593.434101)  can0  012   [8]  E8 03 10 00 00 00 00 00
 (1652906593.435019)  can0  014   [5]  00 00 00 0D 27
 (1652906593.436340)  can0  1E5   [8]  1C FF 3B 5F FE 00 02 EF
 (1652906593.444092)  can0  012   [8]  E8 03 10 00 00 00 00 00
 (1652906593.445064)  can0  014   [5]  00 00 00 10 27
 (1652906593.446381)  can0  1E5   [8]  1C FF 3B 7F FE 00 03 0F
 (1652906593.454406)  can0  012   [8]  E8 03 10 00 00 00 00 00
 (1652906593.455063)  can0  014   [5]  00 00 00 10 27
 (1652906593.456041)  can0  1E5   [8]  1C FF 3B 1F FE 00 02 AF
 (1652906593.464102)  can0  012   [8]  E8 03 10 00 00 00 00 00
 (1652906593.465018)  can0  014   [5]  00 00 00 10 27
 (1652906593.466458)  can0  1E5   [8]  1C FF 3D 30 00 00 01 C4
 (1652906593.474061)  can0  012   [8]  E8 03 10 00 00 00 00 00
 (1652906593.475013)  can0  014   [5]  00 00 00 10 27
 (1652906593.476556)  can0  1E5   [8]  1C FF 3D 50 00 00 01 E4
 (1652906593.484251)  can0  012   [8]  E8 03 10 00 00 00 00 00
 (1652906593.485062)  can0  014   [5]  00 00 00 10 27
 (1652906593.486505)  can0  1E5   [8]  1C FF 3D 70 00 00 02 04
 (1652906593.494066)  can0  012   [8]  E8 03 10 00 00 00 00 00
 (1652906593.495019)  can0  014   [5]  00 00 00 10 27
 (1652906593.496286)  can0  1E5   [8]  1C FF 3B 10 00 00 01 A2
 (1652906593.504250)  can0  012   [8]  E8 03 10 00 00 00 00 00
 (1652906593.505061)  can0  014   [5]  00 00 00 10 27
 (1652906593.506059)  can0  1E5   [8]  1C FF 3B 30 00 00 01 C2
 (1652906593.514256)  can0  012   [8]  E8 03 10 00 00 00 00 00
 (1652906593.515015)  can0  014   [5]  00 00 00 10 27
 (1652906593.515993)  can0  1E5   [8]  1C FF 3D 50 00 00 01 E4
 (1652906593.523682)  can0  010   [4]  26 73 00 00
 (1652906593.524103)  can0  012   [8]  E8 03 10 00 00 00 00 00
 (1652906593.525026)  can0  014   [5]  00 00 00 13 27
 (1652906593.526039)  can0  1E5   [8]  1C FF 3B 70 00 00 02 02
 (1652906593.534103)  can0  012   [8]  E8 03 10 00 00 00 00 00
 (1652906593.535052)  can0  014   [5]  FF 0F 00 0D 27
 (1652906593.536585)  can0  1E5   [8]  1C FF 3B 10 00 00 01 A2
 (1652906593.544095)  can0  012   [8]  E8 03 10 00 00 00 00 00
 (1652906593.545069)  can0  014   [5]  00 00 00 10 27
 (1652906593.546277)  can0  1E5   [8]  1C FF 3B 30 00 00 01 C2
 (1652906593.554322)  can0  012   [8]  E8 03 10 00 00 00 00 00
 (1652906593.555069)  can0  014   [5]  00 00 00 10 27
 (1652906593.556053)  can0  1E5   [8]  1C FF 3B 50 00 00 01 E2
 (1652906593.564362)  can0  012   [8]  E8 03 10 00 00 00 00 00
 (1652906593.565021)  can0  014   [5]  00 00 00 10 27
 (1652906593.566008)  can0  1E5   [8]  1C FF 3B 70 00 00 02 02
 (1652906593.574059)  can0  012   [8]  E8 03 10 00 00 00 00 00
 (1652906593.575026)  can0  014   [5]  00 00 00 10 27
 (1652906593.576065)  can0  1E5   [8]  1C FF 3A 1F FF 00 02 AF
 (1652906593.584385)  can0  012   [8]  E8 03 10 00 00 00 00 00
 (1652906593.585063)  can0  014   [5]  00 F0 FF 10 27
 (1652906593.586206)  can0  1E5   [8]  1C FF 3B 30 00 00 01 C2
 (1652906593.594059)  can0  012   [8]  E8 03 10 00 00 00 00 00
 (1652906593.595013)  can0  014   [5]  00 00 00 10 27
 (1652906593.596232)  can0  1E5   [8]  1C FF 3B 50 00 00 01 E2
 (1652906593.604429)  can0  012   [8]  E8 03 10 00 00 00 00 00
 (1652906593.605061)  can0  014   [5]  00 00 00 10 27
 (1652906593.606064)  can0  1E5   [8]  1C FF 3A 70 00 00 02 01
 (1652906593.614067)  can0  012   [8]  E8 03 10 00 00 00 00 00
 (1652906593.615015)  can0  014   [5]  00 00 00 10 27
 (1652906593.616195)  can0  1E5   [8]  1C FF 3A 10 00 00 01 A1
 (1652906593.623670)  can0  010   [4]  26 73 00 00
 (1652906593.624076)  can0  012   [8]  E8 03 10 00 00 00 00 00
 (1652906593.625026)  can0  014   [5]  00 00 00 13 27
 (1652906593.626036)  can0  1E5   [8]  1C FF 3A 30 00 00 01 C1
 (1652906593.634253)  can0  012   [8]  E8 03 10 00 00 00 00 00
 (1652906593.635065)  can0  014   [5]  00 00 00 0D 27
 (1652906593.636197)  can0  1E5   [8]  1C FF 3A 50 00 00 01 E1
 (1652906593.644067)  can0  012   [8]  E8 03 10 00 00 00 00 00
 (1652906593.645018)  can0  014   [5]  00 00 00 10 27
 (1652906593.646047)  can0  1E5   [8]  1C FF 38 7F FF 00 03 0D
 (1652906593.654268)  can0  012   [8]  E8 03 10 00 00 00 00 00
 (1652906593.655050)  can0  014   [5]  00 00 00 10 27
 (1652906593.656043)  can0  1E5   [8]  1C FF 38 1F FF 00 02 AD
 (1652906593.664115)  can0  012   [8]  E8 03 10 00 00 00 00 00
 (1652906593.665014)  can0  014   [5]  00 00 00 10 27
 (1652906593.666210)  can0  1E5   [8]  1C FF 38 3F FF 00 02 CD
 (1652906593.674103)  can0  012   [8]  E8 03 10 00 00 00 00 00
 (1652906593.675023)  can0  014   [5]  00 00 00 10 27
 (1652906593.676057)  can0  1E5   [8]  1C FF 38 5F FF 00 02 ED
 (1652906593.684269)  can0  012   [8]  E8 03 10 00 00 00 00 00
 (1652906593.685071)  can0  014   [5]  00 00 00 10 27
 (1652906593.686234)  can0  1E5   [8]  1C FF 38 7F FF 00 03 0D
 (1652906593.694112)  can0  012   [8]  E8 03 10 00 00 00 00 00
 (1652906593.695025)  can0  014   [5]  00 00 00 10 27
 (1652906593.696056)  can0  1E5   [8]  1C FF 38 1F FF 00 02 AD
 (1652906593.704283)  can0  012   [8]  E8 03 10 00 00 00 00 00
 (1652906593.705060)  can0  014   [5]  00 00 00 10 27
 (1652906593.706052)  can0  1E5   [8]  1C FF 38 3F FF 00 02 CD
 (1652906593.714243)  can0  012   [8]  E8 03 10 00 00 00 00 00
 (1652906593.715069)  can0  014   [5]  00 00 00 10 27
 (1652906593.716193)  can0  1E5   [8]  1C FF 38 5F FF 00 02 ED
 (1652906593.723673)  can0  010   [4]  26 73 00 00
 (1652906593.724089)  can0  012   [8]  E8 03 10 00 00 00 00 00
 (1652906593.725022)  can0  014   [5]  FF 0F 00 12 27
 (1652906593.726053)  can0  1E5   [8]  1C FF 38 7F FF 00 03 0D
 (1652906593.734252)  can0  012   [8]  E8 03 10 00 00 00 00 00
 (1652906593.735066)  can0  014   [5]  00 00 00 0E 27
 (1652906593.736210)  can0  1E5   [8]  1C FF 38 1F FF 00 02 AD
 (1652906593.744082)  can0  012   [8]  E8 03 10 00 00 00 00 00
 (1652906593.745056)  can0  014   [5]  00 00 00 10 27
 (1652906593.746194)  can0  1E5   [8]  1C FF 38 30 00 00 01 BF
 (1652906593.754053)  can0  012   [8]  E8 03 10 00 00 00 00 00
 (1652906593.755010)  can0  014   [5]  00 00 00 10 27
 (1652906593.755997)  can0  1E5   [8]  1C FF 38 50 00 00 01 DF
 (1652906593.764060)  can0  012   [8]  E8 03 10 00 00 00 00 00
 (1652906593.765009)  can0  014   [5]  00 00 00 10 27
 (1652906593.765999)  can0  1E5   [8]  1C FF 38 70 00 00 01 FF
 (1652906593.774052)  can0  012   [8]  E8 03 10 00 00 00 00 00
 (1652906593.775014)  can0  014   [5]  00 00 00 10 27
 (1652906593.776009)  can0  1E5   [8]  1C FF 38 10 00 00 01 9F
 (1652906593.784065)  can0  012   [8]  E8 03 10 00 00 00 00 00
 (1652906593.785015)  can0  014   [5]  00 00 00 10 27
 (1652906593.785992)  can0  1E5   [8]  1C FF 38 30 00 00 01 BF
 (1652906593.794060)  can0  012   [8]  E8 03 10 00 00 00 00 00
 (1652906593.795020)  can0  014   [5]  00 00 00 10 27
 (1652906593.796001)  can0  1E5   [8]  1C FF 38 50 00 00 01 DF
 (1652906593.804244)  can0  012   [8]  E8 03 10 00 00 00 00 00
 (1652906593.805067)  can0  014   [5]  00 00 00 10 27
 (1652906593.806039)  can0  1E5   [8]  1C FF 38 70 00 00 01 FF
 (1652906593.814243)  can0  012   [8]  E8 03 10 00 00 00 00 00
 (1652906593.815065)  can0  014   [5]  00 F0 FF 10 27
 (1652906593.816189)  can0  1E5   [8]  1C FF 3A 10 00 00 01 A1
 (1652906593.823663)  can0  010   [4]  26 73 00 00
 (1652906593.824049)  can0  012   [8]  E8 03 10 00 00 00 00 00
 (1652906593.825017)  can0  014   [5]  00 00 00 12 27
 (1652906593.826006)  can0  1E5   [8]  1C FF 3A 30 00 00 01 C1
 (1652906593.834083)  can0  012   [8]  E8 03 10 00 00 00 00 00
 (1652906593.835030)  can0  014   [5]  00 00 00 0E 27
 (1652906593.836022)  can0  1E5   [8]  1C FF 3A 50 00 00 01 E1
 (1652906593.844236)  can0  012   [8]  E8 03 10 00 00 00 00 00
 (1652906593.845064)  can0  014   [5]  00 00 00 10 27
 (1652906593.846209)  can0  1E5   [8]  1C FF 3A 70 00 00 02 01
 (1652906593.854288)  can0  012   [8]  E8 03 10 00 00 00 00 00
 (1652906593.855073)  can0  014   [5]  00 00 00 10 27
 (1652906593.856033)  can0  1E5   [8]  1C FF 3A 10 00 00 01 A1
 (1652906593.864258)  can0  012   [8]  E8 03 10 00 00 00 00 00
 (1652906593.865015)  can0  014   [5]  00 00 00 10 27
 (1652906593.866199)  can0  1E5   [8]  1C FF 3A 30 00 00 01 C1
 (1652906593.874099)  can0  012   [8]  E8 03 10 00 00 00 00 00
 (1652906593.875019)  can0  014   [5]  00 00 00 10 27
 (1652906593.876341)  can0  1E5   [8]  1C FF 3A 50 00 00 01 E1
 (1652906593.884251)  can0  012   [8]  E8 03 10 00 00 00 00 00
 (1652906593.885069)  can0  014   [5]  00 00 00 10 27
 (1652906593.886236)  can0  1E5   [8]  1C FF 3A 70 00 00 02 01
 (1652906593.894065)  can0  012   [8]  E8 03 10 00 00 00 00 00
 (1652906593.895020)  can0  014   [5]  00 00 00 10 27
 (1652906593.896319)  can0  1E5   [8]  1C FF 3A 10 00 00 01 A1
 (1652906593.904103)  can0  012   [8]  E8 03 10 00 00 00 00 00
 (1652906593.905022)  can0  014   [5]  00 00 00 10 27
 (1652906593.906036)  can0  1E5   [8]  1C FF 3A 30 00 00 01 C1
 (1652906593.914102)  can0  012   [8]  E8 03 10 00 00 00 00 00
 (1652906593.915070)  can0  014   [5]  00 00 00 10 27
 (1652906593.916272)  can0  1E5   [8]  1C FF 3A 50 00 00 01 E1
 (1652906593.923649)  can0  010   [4]  26 73 00 00
 (1652906593.924079)  can0  012   [8]  E8 03 10 00 00 00 00 00
 (1652906593.925028)  can0  014   [5]  00 00 00 13 27
 (1652906593.926005)  can0  1E5   [8]  1C FF 3A 70 00 00 02 01
 (1652906593.934258)  can0  012   [8]  E8 03 10 00 00 00 00 00
 (1652906593.935069)  can0  014   [5]  00 00 00 0D 27
 (1652906593.935995)  can0  1E5   [8]  1C FF 3A 10 00 00 01 A1
 (1652906593.944097)  can0  012   [8]  E8 03 10 00 00 00 00 00
 (1652906593.945066)  can0  014   [5]  00 00 00 10 27
 (1652906593.946349)  can0  1E5   [8]  1C FF 3A 30 00 00 01 C1
 (1652906593.954312)  can0  012   [8]  E8 03 10 00 00 00 00 00
 (1652906593.955021)  can0  014   [5]  00 00 00 10 27
 (1652906593.956026)  can0  1E5   [8]  1C FF 3A 50 00 00 01 E1
 (1652906593.964257)  can0  012   [8]  E8 03 10 00 00 00 00 00
 (1652906593.965077)  can0  014   [5]  FF 0F 00 10 27
 (1652906593.966378)  can0  1E5   [8]  1C FF 3A 70 00 00 02 01
 (1652906593.974080)  can0  012   [8]  E8 03 10 00 00 00 00 00
 (1652906593.975047)  can0  014   [5]  00 00 00 10 27
 (1652906593.976045)  can0  1E5   [8]  1C FF 3A 10 00 00 01 A1
 (1652906593.984258)  can0  012   [8]  E8 03 10 00 00 00 00 00
 (1652906593.985046)  can0  014   [5]  00 00 00 10 27
 (1652906593.986402)  can0  1E5   [8]  1C FF 3A 30 00 00 01 C1
 (1652906593.994093)  can0  012   [8]  E8 03 10 00 00 00 00 00
 (1652906593.995007)  can0  014   [5]  00 F0 FF 10 27
 (1652906593.996321)  can0  1E5   [8]  1C FF 3A 50 00 00 01 E1
 (1652906594.004259)  can0  012   [8]  E8 03 10 00 00 00 00 00
 (1652906594.005069)  can0  014   [5]  00 00 00 10 27
 (1652906594.006030)  can0  1E5   [8]  1C FF 3A 70 00 00 02 01
 (1652906594.014251)  can0  012   [8]  E8 03 10 00 00 00 00 00
 (1652906594.015062)  can0  014   [5]  00 00 00 10 27
 (1652906594.016195)  can0  1E5   [8]  1C FF 3A 10 00 00 01 A1
 (1652906594.023670)  can0  010   [4]  26 73 00 00
 (1652906594.023775)  can0  0E2   [2]  78 00
 (1652906594.024057)  can0  012   [8]  E8 03 10 00 00 00 00 00
 (1652906594.024171)  can0  0E3   [2]  78 00
 (1652906594.025021)  can0  014   [5]  00 00 00 18 27
 (1652906594.025157)  can0  0E4   [2]  78 00
 (1652906594.026066)  can0  1E5   [8]  1C FF 3A 30 00 00 01 C1
 (1652906594.034057)  can0  012   [8]  E8 03 10 00 00 00 00 00
 (1652906594.035049)  can0  014   [5]  00 00 00 08 27
 (1652906594.036225)  can0  1E5   [8]  1C FF 3A 50 00 00 01 E1
 (1652906594.044080)  can0  012   [8]  E8 03 10 00 00 00 00 00
 (1652906594.045051)  can0  014   [5]  00 00 00 10 27
 (1652906594.046500)  can0  1E5   [8]  1C FF 3A 70 00 00 02 01
 (1652906594.054279)  can0  012   [8]  E8 03 10 00 00 00 00 00
 (1652906594.055063)  can0  014   [5]  00 00 00 10 27
 (1652906594.056029)  can0  1E5   [8]  1C FF 3A 10 00 00 01 A1
 (1652906594.064331)  can0  012   [8]  E8 03 10 00 00 00 00 00
 (1652906594.065015)  can0  014   [5]  00 00 00 10 27
 (1652906594.065999)  can0  1E5   [8]  1C FF 3A 30 00 00 01 C1
 (1652906594.074063)  can0  012   [8]  E8 03 10 00 00 00 00 00
 (1652906594.075066)  can0  014   [5]  00 00 00 10 27
 (1652906594.076054)  can0  1E5   [8]  1C FF 3A 50 00 00 01 E1
 (1652906594.084338)  can0  012   [8]  E8 03 10 00 00 00 00 00
 (1652906594.085069)  can0  014   [5]  00 00 00 10 27
 (1652906594.086201)  can0  1E5   [8]  1C FF 3A 70 00 00 02 01
 (1652906594.094113)  can0  012   [8]  E8 03 10 00 00 00 00 00
 (1652906594.095014)  can0  014   [5]  00 00 00 10 27
 (1652906594.096187)  can0  1E5   [8]  1C FF 3A 10 00 00 01 A1
 (1652906594.104406)  can0  012   [8]  E8 03 10 00 00 00 00 00
 (1652906594.105067)  can0  014   [5]  00 00 00 10 27
 (1652906594.106032)  can0  1E5   [8]  1C FF 3A 30 00 00 01 C1
 (1652906594.114077)  can0  012   [8]  E8 03 10 00 00 00 00 00
 (1652906594.115015)  can0  014   [5]  00 00 00 10 27
 (1652906594.116181)  can0  1E5   [8]  1C FF 3A 50 00 00 01 E1
 (1652906594.123646)  can0  010   [4]  26 73 00 00
 (1652906594.124089)  can0  012   [8]  E8 03 10 00 00 00 00 00
 (1652906594.125034)  can0  014   [5]  00 00 00 12 27
 (1652906594.126013)  can0  1E5   [8]  1C FF 3A 70 00 00 02 01
 (1652906594.134239)  can0  012   [8]  E8 03 10 00 00 00 00 00
 (1652906594.135052)  can0  014   [5]  00 00 00 0E 27
 (1652906594.136188)  can0  1E5   [8]  1C FF 3A 10 00 00 01 A1
 (1652906594.144086)  can0  012   [8]  E8 03 10 00 00 00 00 00
 (1652906594.145029)  can0  014   [5]  00 00 00 10 27
 (1652906594.145997)  can0  1E5   [8]  1C FF 3A 30 00 00 01 C1
 (1652906594.154245)  can0  012   [8]  E8 03 10 00 00 00 00 00
 (1652906594.155059)  can0  014   [5]  00 00 00 10 27
 (1652906594.156037)  can0  1E5   [8]  1C FF 3A 50 00 00 01 E1
 (1652906594.164090)  can0  012   [8]  E8 03 10 00 00 00 00 00
 (1652906594.165008)  can0  014   [5]  00 00 00 10 27
 (1652906594.166068)  can0  1E5   [8]  1C FF 3A 70 00 00 02 01
 (1652906594.174053)  can0  012   [8]  E8 03 10 00 00 00 00 00
 (1652906594.175087)  can0  014   [5]  00 00 00 10 27
 (1652906594.176009)  can0  1E5   [8]  1C FF 3A 10 00 00 01 A1
 (1652906594.184240)  can0  012   [8]  E8 03 10 00 00 00 00 00
 (1652906594.185062)  can0  014   [5]  00 00 00 10 27
 (1652906594.186183)  can0  1E5   [8]  1C FF 38 30 00 00 01 BF
 (1652906594.194059)  can0  012   [8]  E8 03 10 00 00 00 00 00
 (1652906594.195016)  can0  014   [5]  00 00 00 10 27
 (1652906594.196167)  can0  1E5   [8]  1C FF 38 50 00 00 01 DF
 (1652906594.204267)  can0  012   [8]  E8 03 10 00 00 00 00 00
 (1652906594.205058)  can0  014   [5]  00 00 00 10 27
 (1652906594.206016)  can0  1E5   [8]  1C FF 38 70 00 00 01 FF
 (1652906594.214106)  can0  012   [8]  E8 03 10 00 00 00 00 00
 (1652906594.215013)  can0  014   [5]  00 00 00 10 27
 (1652906594.216252)  can0  1E5   [8]  1C FF 38 10 00 00 01 9F
 (1652906594.223666)  can0  010   [4]  26 73 00 00
 (1652906594.224092)  can0  012   [8]  E8 03 10 00 00 00 00 00
 (1652906594.225011)  can0  014   [5]  00 00 00 13 27
 (1652906594.226011)  can0  1E5   [8]  1C FF 38 30 00 00 01 BF
 (1652906594.234253)  can0  012   [8]  E8 03 10 00 00 00 00 00
 (1652906594.235057)  can0  014   [5]  FF 0F 00 0D 27
 (1652906594.236188)  can0  1E5   [8]  1C FF 38 50 00 00 01 DF
 (1652906594.244070)  can0  012   [8]  E8 03 10 00 00 00 00 00
 (1652906594.245009)  can0  014   [5]  00 F0 FF 10 27
 (1652906594.246165)  can0  1E5   [8]  1C FF 38 70 00 00 01 FF
 (1652906594.254255)  can0  012   [8]  E8 03 10 00 00 00 00 00
 (1652906594.255059)  can0  014   [5]  00 00 00 10 27
 (1652906594.256021)  can0  1E5   [8]  1C FF 38 10 00 00 01 9F
 (1652906594.264253)  can0  012   [8]  E8 03 10 00 00 00 00 00
 (1652906594.265009)  can0  014   [5]  00 00 00 10 27
 (1652906594.266180)  can0  1E5   [8]  1C FF 38 30 00 00 01 BF
 (1652906594.274062)  can0  012   [8]  E8 03 10 00 00 00 00 00
 (1652906594.275018)  can0  014   [5]  00 00 00 10 27
 (1652906594.276006)  can0  1E5   [8]  1C FF 38 50 00 00 01 DF
 (1652906594.284097)  can0  012   [8]  E8 03 10 00 00 00 00 00
 (1652906594.285065)  can0  014   [5]  00 00 00 10 27
 (1652906594.286188)  can0  1E5   [8]  1C FF 38 70 00 00 01 FF
 (1652906594.294100)  can0  012   [8]  E8 03 10 00 00 00 00 00
 (1652906594.295066)  can0  014   [5]  00 00 00 10 27
 (1652906594.296174)  can0  1E5   [8]  1C FF 38 10 00 00 01 9F
 (1652906594.304253)  can0  012   [8]  E8 03 10 00 00 00 00 00
 (1652906594.305053)  can0  014   [5]  00 00 00 10 27
 (1652906594.306020)  can0  1E5   [8]  1C FF 38 30 00 00 01 BF
 (1652906594.314246)  can0  012   [8]  E8 03 10 00 00 00 00 00
 (1652906594.315014)  can0  014   [5]  00 00 00 10 27
 (1652906594.316183)  can0  1E5   [8]  1C FF 38 50 00 00 01 DF
 (1652906594.323649)  can0  010   [4]  26 73 00 00
 (1652906594.324055)  can0  012   [8]  E8 03 10 00 00 00 00 00
 (1652906594.325029)  can0  014   [5]  00 00 00 13 27
 (1652906594.326095)  can0  1E5   [8]  1C FF 38 70 00 00 01 FF
 (1652906594.334251)  can0  012   [8]  E8 03 10 00 00 00 00 00
 (1652906594.335021)  can0  014   [5]  00 00 00 0D 27
 (1652906594.336182)  can0  1E5   [8]  1C FF 38 10 00 00 01 9F
 (1652906594.344067)  can0  012   [8]  E8 03 10 00 00 00 00 00
 (1652906594.345027)  can0  014   [5]  00 00 00 10 27
 (1652906594.346199)  can0  1E5   [8]  1C FF 38 30 00 00 01 BF
 (1652906594.354239)  can0  012   [8]  E8 03 10 00 00 00 00 00
 (1652906594.355060)  can0  014   [5]  00 00 00 10 27
 (1652906594.355981)  can0  1E5   [8]  1C FF 38 50 00 00 01 DF
 (1652906594.364251)  can0  012   [8]  E8 03 10 00 00 00 00 00
 (1652906594.365070)  can0  014   [5]  00 00 00 10 27
 (1652906594.366190)  can0  1E5   [8]  1C FF 38 70 00 00 01 FF
 (1652906594.374068)  can0  012   [8]  E8 03 10 00 00 00 00 00
 (1652906594.375017)  can0  014   [5]  00 00 00 10 27
 (1652906594.376067)  can0  1E5   [8]  1C FF 38 10 00 00 01 9F
 (1652906594.384244)  can0  012   [8]  E8 03 10 00 00 00 00 00
 (1652906594.385065)  can0  014   [5]  00 00 00 10 27
 (1652906594.386183)  can0  1E5   [8]  1C FF 38 30 00 00 01 BF
 (1652906594.394085)  can0  012   [8]  E8 03 10 00 00 00 00 00
 (1652906594.395062)  can0  014   [5]  00 00 00 10 27
 (1652906594.396192)  can0  1E5   [8]  1C FF 38 50 00 00 01 DF
 (1652906594.404250)  can0  012   [8]  E8 03 10 00 00 00 00 00
 (1652906594.405057)  can0  014   [5]  00 00 00 10 27
 (1652906594.406015)  can0  1E5   [8]  1C FF 38 70 00 00 01 FF
 (1652906594.414076)  can0  012   [8]  E8 03 10 00 00 00 00 00
 (1652906594.415061)  can0  014   [5]  00 00 00 10 27
 (1652906594.416028)  can0  1E5   [8]  1C FF 38 10 00 00 01 9F
 (1652906594.423672)  can0  010   [4]  26 73 00 00
 (1652906594.424158)  can0  012   [8]  E8 03 10 00 00 00 00 00
 (1652906594.425065)  can0  014   [5]  00 00 00 13 27
 (1652906594.426052)  can0  1E5   [8]  1C FF 38 30 00 00 01 BF
 (1652906594.434083)  can0  012   [8]  E8 03 10 00 00 00 00 00
 (1652906594.435051)  can0  014   [5]  00 00 00 0D 27
 (1652906594.436018)  can0  1E5   [8]  1C FF 38 50 00 00 01 DF
 (1652906594.444090)  can0  012   [8]  E8 03 10 00 00 00 00 00
 (1652906594.445052)  can0  014   [5]  00 00 00 10 27
 (1652906594.446301)  can0  1E5   [8]  1C FF 38 70 00 00 01 FF
 (1652906594.454247)  can0  012   [8]  E8 03 10 00 00 00 00 00
 (1652906594.455051)  can0  014   [5]  00 00 00 10 27
 (1652906594.456014)  can0  1E5   [8]  1C FF 38 10 00 00 01 9F
 (1652906594.464237)  can0  012   [8]  E8 03 10 00 00 00 00 00
 (1652906594.465052)  can0  014   [5]  00 00 00 10 27
 (1652906594.466350)  can0  1E5   [8]  1C FF 3A 30 00 00 01 C1
 (1652906594.474064)  can0  012   [8]  E8 03 10 00 00 00 00 00
 (1652906594.475047)  can0  014   [5]  00 00 00 10 27
 (1652906594.476050)  can0  1E5   [8]  1C FF 38 50 00 00 01 DF
 (1652906594.484276)  can0  012   [8]  E8 03 10 00 00 00 00 00
 (1652906594.485014)  can0  014   [5]  00 00 00 10 27
 (1652906594.486032)  can0  1E5   [8]  1C FF 38 70 00 00 01 FF
 (1652906594.494103)  can0  012   [8]  E8 03 10 00 00 00 00 00
 (1652906594.495009)  can0  014   [5]  FF FF FF 10 27
 (1652906594.496360)  can0  1E5   [8]  1C FF 38 10 00 00 01 9F
 (1652906594.504245)  can0  012   [8]  E8 03 10 00 00 00 00 00
 (1652906594.505065)  can0  014   [5]  00 00 00 10 27
 (1652906594.506026)  can0  1E5   [8]  1C FF 3A 30 00 00 01 C1
 (1652906594.514243)  can0  012   [8]  E8 03 10 00 00 00 00 00
 (1652906594.515064)  can0  014   [5]  00 00 00 10 27
 (1652906594.516032)  can0  1E5   [8]  1C FF 3A 50 00 00 01 E1
 (1652906594.523673)  can0  010   [4]  26 73 00 00
 (1652906594.524097)  can0  012   [8]  E8 03 10 00 00 00 00 00
 (1652906594.525014)  can0  014   [5]  00 00 00 12 27
 (1652906594.526028)  can0  1E5   [8]  1C FF 38 70 00 00 01 FF
 (1652906594.534114)  can0  012   [8]  E8 03 10 00 00 00 00 00
 (1652906594.535065)  can0  014   [5]  00 00 00 0E 27
 (1652906594.536193)  can0  1E5   [8]  1C FF 38 10 00 00 01 9F
 (1652906594.544083)  can0  012   [8]  E8 03 10 00 00 00 00 00
 (1652906594.545051)  can0  014   [5]  00 00 00 10 27
 (1652906594.546172)  can0  1E5   [8]  1C FF 38 30 00 00 01 BF
 (1652906594.554246)  can0  012   [8]  E8 03 10 00 00 00 00 00
 (1652906594.555069)  can0  014   [5]  00 00 00 10 27
 (1652906594.556012)  can0  1E5   [8]  1C FF 38 50 00 00 01 DF
 (1652906594.564257)  can0  012   [8]  E8 03 10 00 00 00 00 00
 (1652906594.565015)  can0  014   [5]  00 00 00 10 27
 (1652906594.565979)  can0  1E5   [8]  1C FF 38 70 00 00 01 FF
 (1652906594.574071)  can0  012   [8]  E8 03 10 00 00 00 00 00
 (1652906594.575031)  can0  014   [5]  00 00 00 10 27
 (1652906594.576034)  can0  1E5   [8]  1C FF 38 10 00 00 01 9F
 (1652906594.584341)  can0  012   [8]  E8 03 10 00 00 00 00 00
 (1652906594.585069)  can0  014   [5]  00 00 00 10 27
 (1652906594.586179)  can0  1E5   [8]  1C FF 38 30 00 00 01 BF
 (1652906594.594109)  can0  012   [8]  E8 03 10 00 00 00 00 00
 (1652906594.595015)  can0  014   [5]  00 00 00 10 27
 (1652906594.596176)  can0  1E5   [8]  1C FF 38 50 00 00 01 DF
 (1652906594.604334)  can0  012   [8]  E8 03 10 00 00 00 00 00
 (1652906594.605066)  can0  014   [5]  00 00 00 10 27
 (1652906594.606013)  can0  1E5   [8]  1C FF 38 70 00 00 01 FF
 (1652906594.614345)  can0  012   [8]  E8 03 10 00 00 00 00 00
 (1652906594.615068)  can0  014   [5]  00 00 00 10 27
 (1652906594.616042)  can0  1E5   [8]  1C FF 38 10 00 00 01 9F
 (1652906594.623675)  can0  010   [4]  26 73 00 00
 (1652906594.624063)  can0  012   [8]  E8 03 10 00 00 00 00 00
 (1652906594.625010)  can0  014   [5]  00 00 00 12 27
 (1652906594.626036)  can0  1E5   [8]  1C FF 3A 30 00 00 01 C1
 (1652906594.634412)  can0  012   [8]  E8 03 10 00 00 00 00 00
 (1652906594.635068)  can0  014   [5]  00 00 00 0E 27
 (1652906594.636019)  can0  1E5   [8]  1C FF 38 50 00 00 01 DF
 (1652906594.644434)  can0  012   [8]  E8 03 10 00 00 00 00 00
 (1652906594.645019)  can0  014   [5]  00 00 00 10 27
 (1652906594.645972)  can0  1E5   [8]  1C FF 3A 70 00 00 02 01
 (1652906594.654251)  can0  012   [8]  E8 03 10 00 00 00 00 00
 (1652906594.655073)  can0  014   [5]  00 00 00 10 27
 (1652906594.656008)  can0  1E5   [8]  1C FF 38 10 00 00 01 9F
 (1652906594.664233)  can0  012   [8]  E8 03 10 00 00 00 00 00
 (1652906594.665063)  can0  014   [5]  00 00 00 10 27
