 (1652907090.830023)  can0  1E5   [8]  1C 00 6D 70 00 00 01 35
 (1652907090.830399)  can0  012   [8]  E8 03 10 00 00 00 00 00
 (1652907090.831615)  can0  014   [5]  00 00 00 10 27
 (1652907090.840034)  can0  1E5   [8]  1C 00 6D 10 00 00 00 D5
 (1652907090.840436)  can0  012   [8]  E8 03 10 00 00 00 00 00
 (1652907090.841633)  can0  014   [5]  00 00 00 10 27
 (1652907090.850037)  can0  1E5   [8]  1C 00 6D 30 00 00 00 F5
 (1652907090.850137)  can0  010   [4]  26 73 00 00
 (1652907090.850275)  can0  0E2   [2]  A0 03
 (1652907090.850523)  can0  012   [8]  E8 03 10 00 00 00 00 00
 (1652907090.850660)  can0  0E3   [2]  A0 03
 (1652907090.851618)  can0  014   [5]  00 00 00 18 27
 (1652907090.851718)  can0  0E4   [2]  A0 03
 (1652907090.860036)  can0  1E5   [8]  1C 00 6D 50 00 00 01 15
 (1652907090.860433)  can0  012   [8]  E8 03 10 00 00 00 00 00
 (1652907090.861620)  can0  014   [5]  00 00 00 08 27
 (1652907090.870034)  can0  1E5   [8]  1C 00 6D 70 00 00 01 35
 (1652907090.870437)  can0  012   [8]  E8 03 10 00 00 00 00 00
 (1652907090.871626)  can0  014   [5]  00 00 00 0F 27
 (1652907090.880037)  can0  1E5   [8]  1C 00 6D 10 00 00 00 D5
 (1652907090.880428)  can0  012   [8]  E8 03 10 00 00 00 00 00
 (1652907090.881612)  can0  014   [5]  00 00 00 11 27
 (1652907090.890038)  can0  1E5   [8]  1C 00 6D 30 00 00 00 F5
 (1652907090.890427)  can0  012   [8]  E8 03 10 00 00 00 00 00
 (1652907090.891619)  can0  014   [5]  00 00 00 10 27
 (1652907090.900053)  can0  1E5   [8]  1C 00 6D 50 00 00 01 15
 (1652907090.900429)  can0  012   [8]  E8 03 10 00 00 00 00 00
 (1652907090.901638)  can0  014   [5]  00 00 00 10 27
 (1652907090.910036)  can0  1E5   [8]  1C 00 6D 70 00 00 01 35
 (1652907090.910432)  can0  012   [8]  E8 03 10 00 00 00 00 00
 (1652907090.911642)  can0  014   [5]  00 00 00 10 27
 (1652907090.920037)  can0  1E5   [8]  1C 00 6D 10 00 00 00 D5
 (1652907090.920420)  can0  012   [8]  E8 03 10 00 00 00 00 00
 (1652907090.921633)  can0  014   [5]  00 00 00 0F 27
 (1652907090.930040)  can0  1E5   [8]  1C 00 6D 30 00 00 00 F5
 (1652907090.930430)  can0  012   [8]  E8 03 10 00 00 00 00 00
 (1652907090.931625)  can0  014   [5]  00 00 00 11 27
 (1652907090.940039)  can0  1E5   [8]  1C 00 6D 50 00 00 01 15
 (1652907090.940426)  can0  012   [8]  E8 03 10 00 00 00 00 00
 (1652907090.941620)  can0  014   [5]  00 00 00 10 27
 (1652907090.950039)  can0  1E5   [8]  1C 00 6D 70 00 00 01 35
 (1652907090.950144)  can0  010   [4]  26 73 00 00
 (1652907090.950441)  can0  012   [8]  E8 03 10 00 00 00 00 00
 (1652907090.951636)  can0  014   [5]  00 00 00 12 27
 (1652907090.960039)  can0  1E5   [8]  1C 00 6D 10 00 00 00 D5
 (1652907090.960429)  can0  012   [8]  E8 03 10 00 00 00 00 00
 (1652907090.961632)  can0  014   [5]  00 00 00 0E 27
 (1652907090.970039)  can0  1E5   [8]  1C 00 6D 30 00 00 00 F5
 (1652907090.970423)  can0  012   [8]  E8 03 10 00 00 00 00 00
 (1652907090.971641)  can0  014   [5]  00 00 00 10 27
 (1652907090.980037)  can0  1E5   [8]  1C 00 6D 50 00 00 01 15
 (1652907090.980430)  can0  012   [8]  E8 03 10 00 00 00 00 00
 (1652907090.981632)  can0  014   [5]  00 00 00 10 27
 (1652907090.990039)  can0  1E5   [8]  1C 00 6D 70 00 00 01 35
 (1652907090.990476)  can0  012   [8]  E8 03 10 00 00 00 00 00
 (1652907090.991628)  can0  014   [5]  00 00 00 10 27
 (1652907090.999975)  can0  1E5   [8]  1C 00 6D 10 00 00 00 D5
 (1652907091.000432)  can0  012   [8]  E8 03 10 00 00 00 00 00
 (1652907091.001621)  can0  014   [5]  00 00 00 10 27
 (1652907091.010038)  can0  1E5   [8]  1C 00 6D 30 00 00 00 F5
 (1652907091.010431)  can0  012   [8]  E8 03 10 00 00 00 00 00
 (1652907091.011621)  can0  014   [5]  00 00 00 10 27
 (1652907091.020039)  can0  1E5   [8]  1C 00 6D 50 00 00 01 15
 (1652907091.020436)  can0  012   [8]  E8 03 10 00 00 00 00 00
 (1652907091.021625)  can0  014   [5]  00 00 00 10 27
 (1652907091.030038)  can0  1E5   [8]  1C 00 6D 70 00 00 01 35
 (1652907091.030415)  can0  012   [8]  E8 03 10 00 00 00 00 00
 (1652907091.031619)  can0  014   [5]  00 00 00 10 27
 (1652907091.039968)  can0  1E5   [8]  1C 00 6D 10 00 00 00 D5
 (1652907091.040444)  can0  012   [8]  E8 03 10 00 00 00 00 00
 (1652907091.041628)  can0  014   [5]  00 00 00 0F 27
 (1652907091.050307)  can0  1E5   [8]  1C 00 6D 30 00 00 00 F5
 (1652907091.050315)  can0  010   [4]  26 73 00 00
 (1652907091.050421)  can0  012   [8]  E8 03 10 00 00 00 00 00
 (1652907091.051618)  can0  014   [5]  00 00 00 14 27
 (1652907091.060035)  can0  1E5   [8]  1C 00 6D 50 00 00 01 15
 (1652907091.060423)  can0  012   [8]  E8 03 10 00 00 00 00 00
 (1652907091.061628)  can0  014   [5]  00 00 00 0C 27
 (1652907091.070046)  can0  1E5   [8]  1C 00 6D 70 00 00 01 35
 (1652907091.070421)  can0  012   [8]  E8 03 10 00 00 00 00 00
 (1652907091.071639)  can0  014   [5]  00 00 00 11 27
 (1652907091.079975)  can0  1E5   [8]  1C 00 6D 10 00 00 00 D5
 (1652907091.080391)  can0  012   [8]  E8 03 10 00 00 00 00 00
 (1652907091.081617)  can0  014   [5]  00 00 00 10 27
 (1652907091.090055)  can0  1E5   [8]  1C 00 6D 30 00 00 00 F5
 (1652907091.090427)  can0  012   [8]  E8 03 10 00 00 00 00 00
 (1652907091.091644)  can0  014   [5]  00 00 00 10 27
 (1652907091.100038)  can0  1E5   [8]  1C 00 6D 50 00 00 01 15
 (1652907091.100425)  can0  012   [8]  E8 03 10 00 00 00 00 00
 (1652907091.101613)  can0  014   [5]  00 00 00 10 27
 (1652907091.109977)  can0  1E5   [8]  1C 00 6D 70 00 00 01 35
 (1652907091.110423)  can0  012   [8]  E8 03 10 00 00 00 00 00
 (1652907091.111626)  can0  014   [5]  00 00 00 0F 27
 (1652907091.120026)  can0  1E5   [8]  1C 00 6D 10 00 00 00 D5
 (1652907091.120428)  can0  012   [8]  E8 03 10 00 00 00 00 00
 (1652907091.121629)  can0  014   [5]  00 00 00 11 27
 (1652907091.129978)  can0  1E5   [8]  1C 00 6D 30 00 00 00 F5
 (1652907091.130413)  can0  012   [8]  E8 03 10 00 00 00 00 00
 (1652907091.131644)  can0  014   [5]  00 00 00 10 27
 (1652907091.137207)  can0  0F0   [1]  01
 (1652907091.138282)  can0  011   [2]  0A 01
 (1652907091.139950)  can0  1E5   [8]  1C 00 6D 50 00 00 01 15
 (1652907091.140391)  can0  012   [8]  E8 03 10 00 00 00 00 00
 (1652907091.141609)  can0  014   [5]  00 00 00 15 27
 (1652907091.150292)  can0  1E5   [8]  1C 00 6D 70 00 00 01 35
 (1652907091.150300)  can0  010   [4]  36 8B 09 00
 (1652907091.150382)  can0  012   [8]  E8 03 10 00 00 00 00 00
 (1652907091.151605)  can0  014   [5]  00 00 00 0D 27
 (1652907091.160284)  can0  1E5   [8]  1C 00 6D 10 00 00 00 D5
 (1652907091.160371)  can0  012   [8]  E8 03 10 00 00 00 00 00
 (1652907091.161598)  can0  014   [5]  00 00 00 0E 27
 (1652907091.170278)  can0  1E5   [8]  1C 00 6D 30 00 00 00 F5
 (1652907091.170383)  can0  012   [8]  E8 03 10 00 00 00 00 00
 (1652907091.171596)  can0  014   [5]  00 00 00 0F 27
 (1652907091.180290)  can0  1E5   [8]  1C 00 6D 50 00 00 01 15
 (1652907091.180383)  can0  012   [8]  E8 03 10 00 00 00 00 00
 (1652907091.181622)  can0  014   [5]  00 00 00 11 27
 (1652907091.190142)  can0  1E5   [8]  1C 00 6D 70 00 00 01 35
 (1652907091.190428)  can0  012   [8]  E8 03 10 00 00 00 00 00
 (1652907091.191620)  can0  014   [5]  00 00 00 10 27
 (1652907091.200312)  can0  1E5   [8]  1C 00 6D 10 00 00 00 D5
 (1652907091.200373)  can0  012   [8]  E8 03 10 00 00 00 00 00
 (1652907091.201609)  can0  014   [5]  00 00 00 10 27
 (1652907091.210219)  can0  1E5   [8]  1C 00 6D 30 00 00 00 F5
 (1652907091.210424)  can0  012   [8]  E8 03 10 00 00 00 00 00
 (1652907091.211622)  can0  014   [5]  00 00 00 10 27
 (1652907091.220195)  can0  1E5   [8]  1C 00 6D 50 00 00 01 15
 (1652907091.220420)  can0  012   [8]  E8 03 10 00 00 00 00 00
 (1652907091.221618)  can0  014   [5]  00 00 00 0F 27
 (1652907091.230219)  can0  1E5   [8]  1C 00 6D 70 00 00 01 35
 (1652907091.230427)  can0  012   [8]  E8 03 10 00 00 00 00 00
 (1652907091.231619)  can0  014   [5]  00 00 00 11 27
 (1652907091.240139)  can0  1E5   [8]  1C 00 6D 10 00 00 00 D5
 (1652907091.240431)  can0  012   [8]  E8 03 10 00 00 00 00 00
 (1652907091.241612)  can0  014   [5]  00 00 00 10 27
 (1652907091.250138)  can0  1E5   [8]  1C 00 6D 30 00 00 00 F5
 (1652907091.250147)  can0  010   [4]  36 8B 09 00
 (1652907091.250443)  can0  012   [8]  E8 03 10 00 00 00 00 00
 (1652907091.251623)  can0  014   [5]  00 00 00 12 27
 (1652907091.260214)  can0  1E5   [8]  1C 00 6D 50 00 00 01 15
 (1652907091.260418)  can0  012   [8]  E8 03 10 00 00 00 00 00
 (1652907091.261619)  can0  014   [5]  00 00 00 0E 27
 (1652907091.270153)  can0  1E5   [8]  1C 00 6D 70 00 00 01 35
 (1652907091.270436)  can0  012   [8]  E8 03 10 00 00 00 00 00
 (1652907091.271626)  can0  014   [5]  00 00 00 10 27
 (1652907091.280135)  can0  1E5   [8]  1C 00 6D 10 00 00 00 D5
 (1652907091.280431)  can0  012   [8]  E8 03 10 00 00 00 00 00
 (1652907091.281630)  can0  014   [5]  00 00 00 10 27
 (1652907091.290146)  can0  1E5   [8]  1C 00 6D 30 00 00 00 F5
 (1652907091.290411)  can0  012   [8]  E8 03 10 00 00 00 00 00
 (1652907091.291625)  can0  014   [5]  00 00 00 10 27
 (1652907091.300206)  can0  1E5   [8]  1C 00 6D 50 00 00 01 15
 (1652907091.300417)  can0  012   [8]  E8 03 10 00 00 00 00 00
 (1652907091.301626)  can0  014   [5]  00 00 00 10 27
 (1652907091.310205)  can0  1E5   [8]  1C 00 6D 70 00 00 01 35
 (1652907091.310427)  can0  012   [8]  E8 03 10 00 00 00 00 00
 (1652907091.311619)  can0  014   [5]  00 00 00 10 27
 (1652907091.320134)  can0  1E5   [8]  1C 00 6D 10 00 00 00 D5
 (1652907091.320419)  can0  012   [8]  E8 03 10 00 00 00 00 00
 (1652907091.321641)  can0  014   [5]  00 00 00 10 27
 (1652907091.330037)  can0  1E5   [8]  1C 00 6D 30 00 00 00 F5
 (1652907091.330425)  can0  012   [8]  E8 03 10 00 00 00 00 00
 (1652907091.331630)  can0  014   [5]  00 00 00 10 27
 (1652907091.340133)  can0  1E5   [8]  1C 00 6D 50 00 00 01 15
 (1652907091.340435)  can0  012   [8]  E8 03 10 00 00 00 00 00
 (1652907091.341613)  can0  014   [5]  00 00 00 10 27
 (1652907091.349970)  can0  1E5   [8]  1C 00 6D 70 00 00 01 35
 (1652907091.350232)  can0  010   [4]  36 8B 09 00
 (1652907091.350434)  can0  012   [8]  E8 03 10 00 00 00 00 00
 (1652907091.351635)  can0  014   [5]  00 00 00 13 27
 (1652907091.360132)  can0  1E5   [8]  1C 00 6D 10 00 00 00 D5
 (1652907091.360423)  can0  012   [8]  E8 03 10 00 00 00 00 00
 (1652907091.361628)  can0  014   [5]  00 00 00 0C 27
 (1652907091.370139)  can0  1E5   [8]  1C 00 6D 30 00 00 00 F5
 (1652907091.370427)  can0  012   [8]  E8 03 10 00 00 00 00 00
 (1652907091.371621)  can0  014   [5]  00 00 00 11 27
 (1652907091.380132)  can0  1E5   [8]  1C 00 6D 50 00 00 01 15
 (1652907091.380436)  can0  012   [8]  E8 03 10 00 00 00 00 00
 (1652907091.381636)  can0  014   [5]  00 00 00 10 27
 (1652907091.390205)  can0  1E5   [8]  1C 00 6D 70 00 00 01 35
 (1652907091.390416)  can0  012   [8]  E8 03 10 00 00 00 00 00
 (1652907091.391621)  can0  014   [5]  00 00 00 10 27
 (1652907091.400156)  can0  1E5   [8]  1C 00 6D 10 00 00 00 D5
 (1652907091.400422)  can0  012   [8]  E8 03 10 00 00 00 00 00
 (1652907091.401626)  can0  014   [5]  00 00 00 10 27
 (1652907091.410143)  can0  1E5   [8]  1C 00 6D 30 00 00 00 F5
 (1652907091.410436)  can0  012   [8]  E8 03 10 00 00 00 00 00
 (1652907091.411625)  can0  014   [5]  00 00 00 0F 27
 (1652907091.419970)  can0  1E5   [8]  1C 00 6D 50 00 00 01 15
 (1652907091.420386)  can0  012   [8]  E8 03 10 00 00 00 00 00
 (1652907091.421602)  can0  014   [5]  00 00 00 11 27
 (1652907091.429934)  can0  1E5   [8]  1C 00 6D 70 00 00 01 35
 (1652907091.433946)  can0  012   [8]  E8 03 10 00 00 00 00 00
 (1652907091.433951)  can0  014   [5]  00 00 00 10 27
 (1652907091.439951)  can0  1E5   [8]  1C 00 6D 10 00 00 00 D5
 (1652907091.440412)  can0  012   [8]  E8 03 10 00 00 00 00 00
 (1652907091.441781)  can0  014   [5]  00 00 00 10 27
 (1652907091.449952)  can0  1E5   [8]  1C 00 6D 30 00 00 00 F5
 (1652907091.450094)  can0  010   [4]  36 8B 09 00
 (1652907091.450385)  can0  012   [8]  E8 03 10 00 00 00 00 00
 (1652907091.451593)  can0  014   [5]  00 00 00 12 27
 (1652907091.460613)  can0  1E5   [8]  1C 00 6D 50 00 00 01 15
 (1652907091.460621)  can0  012   [8]  E8 03 10 00 00 00 00 00
 (1652907091.461626)  can0  014   [5]  00 00 00 0E 27
 (1652907091.469932)  can0  1E5   [8]  1C 00 6D 70 00 00 01 35
 (1652907091.470438)  can0  012   [8]  E8 03 10 00 00 00 00 00
 (1652907091.471620)  can0  014   [5]  00 00 00 10 27
 (1652907091.479958)  can0  1E5   [8]  1C 00 6D 10 00 00 00 D5
 (1652907091.480445)  can0  012   [8]  E8 03 10 00 00 00 00 00
 (1652907091.481592)  can0  014   [5]  00 00 00 10 27
 (1652907091.489972)  can0  1E5   [8]  1C 00 6D 30 00 00 00 F5
 (1652907091.490419)  can0  012   [8]  E8 03 10 00 00 00 00 00
 (1652907091.491619)  can0  014   [5]  00 00 00 10 27
 (1652907091.499943)  can0  1E5   [8]  1C 00 6D 50 00 00 01 15
 (1652907091.500417)  can0  012   [8]  E8 03 10 00 00 00 00 00
 (1652907091.501595)  can0  014   [5]  00 00 00 10 27
 (1652907091.510011)  can0  1E5   [8]  1C 00 6D 70 00 00 01 35
 (1652907091.510420)  can0  012   [8]  E8 03 10 00 00 00 00 00
 (1652907091.511588)  can0  014   [5]  00 00 00 10 27
 (1652907091.520117)  can0  1E5   [8]  1C 00 6D 10 00 00 00 D5
 (1652907091.520419)  can0  012   [8]  E8 03 10 00 00 00 00 00
 (1652907091.521619)  can0  014   [5]  00 00 00 10 27
 (1652907091.529970)  can0  1E5   [8]  1C 00 6D 30 00 00 00 F5
 (1652907091.530369)  can0  012   [8]  E8 03 10 00 00 00 00 00
 (1652907091.531590)  can0  014   [5]  00 00 00 0F 27
 (1652907091.540115)  can0  1E5   [8]  1C 00 6D 50 00 00 01 15
 (1652907091.540385)  can0  012   [8]  E8 03 10 00 00 00 00 00
 (1652907091.541593)  can0  014   [5]  00 00 00 11 27
 (1652907091.549958)  can0  1E5   [8]  1C 00 6D 70 00 00 01 35
 (1652907091.550088)  can0  010   [4]  36 8B 09 00
 (1652907091.550387)  can0  012   [8]  E8 03 10 00 00 00 00 00
 (1652907091.551595)  can0  014   [5]  00 00 00 12 27
 (1652907091.560276)  can0  1E5   [8]  1C 00 6D 10 00 00 00 D5
 (1652907091.560377)  can0  012   [8]  E8 03 10 00 00 00 00 00
 (1652907091.561601)  can0  014   [5]  00 00 00 0E 27
 (1652907091.570133)  can0  1E5   [8]  1C 00 6D 30 00 00 00 F5
 (1652907091.570366)  can0  012   [8]  E8 03 10 00 00 00 00 00
 (1652907091.571618)  can0  014   [5]  00 00 00 10 27
 (1652907091.579963)  can0  1E5   [8]  1C 00 6D 50 00 00 01 15
 (1652907091.580449)  can0  012   [8]  E8 03 10 00 00 00 00 00
 (1652907091.581600)  can0  014   [5]  00 00 00 10 27
 (1652907091.590156)  can0  1E5   [8]  1C 00 6D 70 00 00 01 35
 (1652907091.590375)  can0  012   [8]  E8 03 10 00 00 00 00 00
 (1652907091.591613)  can0  014   [5]  00 00 00 10 27
 (1652907091.599952)  can0  1E5   [8]  1C 00 6D 10 00 00 00 D5
 (1652907091.600433)  can0  012   [8]  E8 03 10 00 00 00 00 00
 (1652907091.601608)  can0  014   [5]  00 00 00 0F 27
 (1652907091.610125)  can0  1E5   [8]  1C 00 6D 30 00 00 00 F5
 (1652907091.610375)  can0  012   [8]  E8 03 10 00 00 00 00 00
 (1652907091.611611)  can0  014   [5]  00 00 00 11 27
 (1652907091.620204)  can0  1E5   [8]  1C 00 6D 50 00 00 01 15
 (1652907091.620376)  can0  012   [8]  E8 03 10 00 00 00 00 00
 (1652907091.621604)  can0  014   [5]  00 00 00 10 27
 (1652907091.629969)  can0  1E5   [8]  1C 00 6D 70 00 00 01 35
 (1652907091.630375)  can0  012   [8]  E8 03 10 00 00 00 00 00
 (1652907091.631620)  can0  014   [5]  00 00 00 10 27
 (1652907091.639955)  can0  1E5   [8]  1C 00 6D 10 00 00 00 D5
 (1652907091.640435)  can0  012   [8]  E8 03 10 00 00 00 00 00
 (1652907091.641605)  can0  014   [5]  00 00 00 10 27
 (1652907091.649947)  can0  1E5   [8]  1C 00 6D 30 00 00 00 F5
 (1652907091.650088)  can0  010   [4]  36 8B 09 00
 (1652907091.650384)  can0  012   [8]  E8 03 10 00 00 00 00 00
 (1652907091.651610)  can0  014   [5]  00 00 00 12 27
 (1652907091.660208)  can0  1E5   [8]  1C 00 6D 50 00 00 01 15
 (1652907091.660382)  can0  012   [8]  E8 03 10 00 00 00 00 00
 (1652907091.661606)  can0  014   [5]  00 00 00 0E 27
 (1652907091.670296)  can0  1E5   [8]  1C 00 6D 70 00 00 01 35
 (1652907091.670366)  can0  012   [8]  E8 03 10 00 00 00 00 00
 (1652907091.671590)  can0  014   [5]  00 00 00 0F 27
 (1652907091.679965)  can0  1E5   [8]  1C 00 6D 10 00 00 00 D5
 (1652907091.680462)  can0  012   [8]  E8 03 10 00 00 00 00 00
 (1652907091.681636)  can0  014   [5]  00 00 00 11 27
 (1652907091.690112)  can0  1E5   [8]  1C 00 6D 30 00 00 00 F5
 (1652907091.690376)  can0  012   [8]  E8 03 10 00 00 00 00 00
 (1652907091.691608)  can0  014   [5]  00 00 00 10 27
 (1652907091.699958)  can0  1E5   [8]  1C 00 6D 50 00 00 01 15
 (1652907091.700402)  can0  012   [8]  E8 03 10 00 00 00 00 00
 (1652907091.701591)  can0  014   [5]  00 00 00 10 27
 (1652907091.710385)  can0  1E5   [8]  1C 00 6D 70 00 00 01 35
 (1652907091.710394)  can0  012   [8]  E8 03 10 00 00 00 00 00
 (1652907091.711592)  can0  014   [5]  00 00 00 10 27
 (1652907091.720119)  can0  1E5   [8]  1C 00 6D 10 00 00 00 D5
 (1652907091.720383)  can0  012   [8]  E8 03 10 00 00 00 00 00
 (1652907091.721637)  can0  014   [5]  00 00 00 0F 27
 (1652907091.729958)  can0  1E5   [8]  1C 00 6D 30 00 00 00 F5
 (1652907091.730438)  can0  012   [8]  E8 03 10 00 00 00 00 00
 (1652907091.731584)  can0  014   [5]  00 00 00 11 27
 (1652907091.739963)  can0  1E5   [8]  1C 00 6D 50 00 00 01 15
 (1652907091.740410)  can0  012   [8]  E8 03 10 00 00 00 00 00
 (1652907091.741596)  can0  014   [5]  00 00 00 10 27
 (1652907091.749949)  can0  1E5   [8]  1C 00 6D 70 00 00 01 35
 (1652907091.750093)  can0  010   [4]  36 8B 09 00
 (1652907091.750389)  can0  012   [8]  E8 03 10 00 00 00 00 00
 (1652907091.751589)  can0  014   [5]  00 00 00 12 27
 (1652907091.760427)  can0  1E5   [8]  1C 00 6D 10 00 00 00 D5
 (1652907091.760437)  can0  012   [8]  E8 03 10 00 00 00 00 00
 (1652907091.761596)  can0  014   [5]  00 00 00 0E 27
 (1652907091.770093)  can0  1E5   [8]  1C 00 6D 30 00 00 00 F5
 (1652907091.770375)  can0  012   [8]  E8 03 10 00 00 00 00 00
 (1652907091.771817)  can0  014   [5]  00 00 00 10 27
 (1652907091.779967)  can0  1E5   [8]  1C 00 6D 50 00 00 01 15
 (1652907091.780435)  can0  012   [8]  E8 03 10 00 00 00 00 00
 (1652907091.781588)  can0  014   [5]  00 00 00 10 27
 (1652907091.790129)  can0  1E5   [8]  1C 00 6D 70 00 00 01 35
 (1652907091.790418)  can0  012   [8]  E8 03 10 00 00 00 00 00
 (1652907091.791633)  can0  014   [5]  00 00 00 0F 27
 (1652907091.800131)  can0  1E5   [8]  1C 00 6D 10 00 00 00 D5
 (1652907091.800416)  can0  012   [8]  E8 03 10 00 00 00 00 00
 (1652907091.801624)  can0  014   [5]  00 00 00 11 27
 (1652907091.810336)  can0  1E5   [8]  1C 00 6D 30 00 00 00 F5
 (1652907091.810391)  can0  012   [8]  E8 03 10 00 00 00 00 00
 (1652907091.811606)  can0  014   [5]  00 00 00 10 27
 (1652907091.819935)  can0  1E5   [8]  1C 00 6D 50 00 00 01 15
 (1652907091.820424)  can0  012   [8]  E8 03 10 00 00 00 00 00
 (1652907091.821612)  can0  014   [5]  00 00 00 10 27
 (1652907091.829995)  can0  1E5   [8]  1C 00 6D 70 00 00 01 35
 (1652907091.830373)  can0  012   [8]  E8 03 10 00 00 00 00 00
 (1652907091.831636)  can0  014   [5]  00 00 00 10 27
 (1652907091.840114)  can0  1E5   [8]  1C 00 6D 10 00 00 00 D5
 (1652907091.840408)  can0  012   [8]  E8 03 10 00 00 00 00 00
 (1652907091.841581)  can0  014   [5]  00 00 00 0F 27
 (1652907091.849953)  can0  1E5   [8]  1C 00 6D 30 00 00 00 F5
 (1652907091.850142)  can0  010   [4]  36 8B 09 00
 (1652907091.850229)  can0  0E2   [2]  CA 03
 (1652907091.850567)  can0  012   [8]  E8 03 10 00 00 00 00 00
 (1652907091.850604)  can0  0E3   [2]  CA 03
 (1652907091.851622)  can0  014   [5]  00 00 00 19 27
 (1652907091.851723)  can0  0E4   [2]  CA 03
 (1652907091.860378)  can0  1E5   [8]  1C 00 6D 50 00 00 01 15
 (1652907091.860386)  can0  012   [8]  E8 03 10 00 00 00 00 00
 (1652907091.861585)  can0  014   [5]  00 00 00 08 27
 (1652907091.870103)  can0  1E5   [8]  1C 00 6D 70 00 00 01 35
 (1652907091.870413)  can0  012   [8]  E8 03 10 00 00 00 00 00
 (1652907091.871627)  can0  014   [5]  00 00 00 10 27
 (1652907091.879959)  can0  1E5   [8]  1C 00 6D 10 00 00 00 D5
 (1652907091.880373)  can0  012   [8]  E8 03 10 00 00 00 00 00
 (1652907091.881588)  can0  014   [5]  00 00 00 10 27
 (1652907091.890102)  can0  1E5   [8]  1C 00 6D 30 00 00 00 F5
 (1652907091.890413)  can0  012   [8]  E8 03 10 00 00 00 00 00
 (1652907091.891626)  can0  014   [5]  00 00 00 10 27
 (1652907091.900104)  can0  1E5   [8]  1C 00 6D 50 00 00 01 15
 (1652907091.900421)  can0  012   [8]  E8 03 10 00 00 00 00 00
 (1652907091.901612)  can0  014   [5]  00 00 00 0F 27
 (1652907091.910116)  can0  1E5   [8]  1C 00 6D 70 00 00 01 35
 (1652907091.910424)  can0  012   [8]  E8 03 10 00 00 00 00 00
 (1652907091.911632)  can0  014   [5]  00 00 00 11 27
 (1652907091.920113)  can0  1E5   [8]  1C 00 6D 10 00 00 00 D5
 (1652907091.920402)  can0  012   [8]  E8 03 10 00 00 00 00 00
 (1652907091.921614)  can0  014   [5]  00 00 00 10 27
 (1652907091.929960)  can0  1E5   [8]  1C 00 6D 30 00 00 00 F5
 (1652907091.930374)  can0  012   [8]  E8 03 10 00 00 00 00 00
 (1652907091.931593)  can0  014   [5]  00 00 00 10 27
 (1652907091.940114)  can0  1E5   [8]  1C 00 6D 50 00 00 01 15
 (1652907091.940380)  can0  012   [8]  E8 03 10 00 00 00 00 00
 (1652907091.941599)  can0  014   [5]  00 00 00 10 27
 (1652907091.950116)  can0  1E5   [8]  1C 00 6D 70 00 00 01 35
 (1652907091.950125)  can0  010   [4]  36 8B 09 01
 (1652907091.950432)  can0  012   [8]  E8 03 10 00 00 00 00 00
 (1652907091.951621)  can0  014   [5]  00 00 00 12 27
 (1652907091.960122)  can0  1E5   [8]  1C 00 6D 10 00 00 00 D5
 (1652907091.960401)  can0  012   [8]  E8 03 10 00 00 00 00 00
 (1652907091.961587)  can0  014   [5]  00 00 00 0E 27
 (1652907091.970102)  can0  1E5   [8]  1C 00 6D 30 00 00 00 F5
 (1652907091.970412)  can0  012   [8]  E8 03 10 00 00 00 00 00
 (1652907091.971621)  can0  014   [5]  00 00 00 0F 27
 (1652907091.980138)  can0  1E5   [8]  1C 00 6D 50 00 00 01 15
 (1652907091.980426)  can0  012   [8]  E8 03 10 00 00 00 00 00
 (1652907091.981598)  can0  014   [5]  00 00 00 11 27
 (1652907091.990106)  can0  1E5   [8]  1C 00 6D 70 00 00 01 35
 (1652907091.990418)  can0  012   [8]  E8 03 10 00 00 00 00 00
 (1652907091.991631)  can0  014   [5]  00 00 00 10 27
 (1652907092.000101)  can0  1E5   [8]  1C 00 6D 10 00 00 00 D5
 (1652907092.000425)  can0  012   [8]  E8 03 10 00 00 00 00 00
 (1652907092.001608)  can0  014   [5]  00 00 00 10 27
 (1652907092.010125)  can0  1E5   [8]  1C 00 6D 30 00 00 00 F5
 (1652907092.010414)  can0  012   [8]  E8 03 10 00 00 00 00 00
 (1652907092.011616)  can0  014   [5]  00 00 00 10 27
 (1652907092.020092)  can0  1E5   [8]  1C 00 6D 50 00 00 01 15
 (1652907092.020386)  can0  012   [8]  E8 03 10 00 00 00 00 00
 (1652907092.021620)  can0  014   [5]  00 00 00 0F 27
 (1652907092.029926)  can0  1E5   [8]  1C 00 6D 70 00 00 01 35
 (1652907092.030431)  can0  012   [8]  E8 03 10 00 00 00 00 00
 (1652907092.031594)  can0  014   [5]  00 00 00 11 27
 (1652907092.040108)  can0  1E5   [8]  1C 00 6D 10 00 00 00 D5
 (1652907092.040412)  can0  012   [8]  E8 03 10 00 00 00 00 00
 (1652907092.041620)  can0  014   [5]  00 00 00 10 27
 (1652907092.050155)  can0  1E5   [8]  1C 00 6D 30 00 00 00 F5
 (1652907092.050164)  can0  010   [4]  36 8B 09 01
 (1652907092.050399)  can0  012   [8]  E8 03 10 00 00 00 00 00
 (1652907092.051591)  can0  014   [5]  00 00 00 12 27
 (1652907092.060269)  can0  1E5   [8]  1C 00 6D 50 00 00 01 15
 (1652907092.060382)  can0  012   [8]  E8 03 10 00 00 00 00 00
 (1652907092.061599)  can0  014   [5]  00 00 00 0E 27
 (1652907092.070103)  can0  1E5   [8]  1C 00 6D 70 00 00 01 35
 (1652907092.070421)  can0  012   [8]  E8 03 10 00 00 00 00 00
 (1652907092.071621)  can0  014   [5]  00 00 00 10 27
 (1652907092.080066)  can0  1E5   [8]  1C 00 6D 10 00 00 00 D5
 (1652907092.080411)  can0  012   [8]  E8 03 10 00 00 00 00 00
 (1652907092.081627)  can0  014   [5]  00 00 00 10 27
 (1652907092.090118)  can0  1E5   [8]  1C 00 6D 30 00 00 00 F5
 (1652907092.090422)  can0  012   [8]  E8 03 10 00 00 00 00 00
 (1652907092.091619)  can0  014   [5]  00 00 00 0F 27
 (1652907092.100115)  can0  1E5   [8]  1C 00 6D 50 00 00 01 15
 (1652907092.100412)  can0  012   [8]  E8 03 10 00 00 00 00 00
 (1652907092.101619)  can0  014   [5]  00 00 00 11 27
 (1652907092.110117)  can0  1E5   [8]  1C 00 6D 70 00 00 01 35
 (1652907092.110407)  can0  012   [8]  E8 03 10 00 00 00 00 00
 (1652907092.111629)  can0  014   [5]  00 00 00 10 27
 (1652907092.120181)  can0  1E5   [8]  1C 00 6D 10 00 00 00 D5
 (1652907092.120380)  can0  012   [8]  E8 03 10 00 00 00 00 00
 (1652907092.121623)  can0  014   [5]  00 00 00 10 27
 (1652907092.130277)  can0  1E5   [8]  1C 00 6D 30 00 00 00 F5
 (1652907092.130387)  can0  012   [8]  E8 03 10 00 00 00 00 00
 (1652907092.131633)  can0  014   [5]  00 00 00 10 27
 (1652907092.139957)  can0  1E5   [8]  1C 00 6D 50 00 00 01 15
 (1652907092.140419)  can0  012   [8]  E8 03 10 00 00 00 00 00
 (1652907092.141628)  can0  014   [5]  00 00 00 0F 27
 (1652907092.149941)  can0  1E5   [8]  1C 00 6D 70 00 00 01 35
 (1652907092.150144)  can0  010   [4]  36 8B 09 01
 (1652907092.150423)  can0  012   [8]  E8 03 10 00 00 00 00 00
 (1652907092.151609)  can0  014   [5]  FF 0F 00 14 27
 (1652907092.159932)  can0  1E5   [8]  1C 00 6D 10 00 00 00 D5
 (1652907092.160418)  can0  012   [8]  E8 03 10 00 00 00 00 00
 (1652907092.161618)  can0  014   [5]  00 F0 FF 0C 27
 (1652907092.170243)  can0  1E5   [8]  1C 00 6D 30 00 00 00 F5
 (1652907092.170410)  can0  012   [8]  E8 03 10 00 00 00 00 00
 (1652907092.171607)  can0  014   [5]  00 00 00 11 27
 (1652907092.179946)  can0  1E5   [8]  1C 00 6D 50 00 00 01 15
 (1652907092.180426)  can0  012   [8]  E8 03 10 00 00 00 00 00
 (1652907092.181598)  can0  014   [5]  FF 0F 00 10 27
 (1652907092.190283)  can0  1E5   [8]  1C 00 6D 70 00 00 01 35
 (1652907092.190389)  can0  012   [8]  E8 03 10 00 00 00 00 00
 (1652907092.191606)  can0  014   [5]  00 F0 FF 10 27
 (1652907092.199949)  can0  1E5   [8]  1C 00 6D 10 00 00 00 D5
 (1652907092.200424)  can0  012   [8]  E8 03 10 00 00 00 00 00
 (1652907092.201608)  can0  014   [5]  01 00 00 10 27
 (1652907092.210084)  can0  1E5   [8]  1C 00 6D 30 00 00 00 F5
 (1652907092.210418)  can0  012   [8]  E8 03 10 00 00 00 00 00
 (1652907092.211618)  can0  014   [5]  00 10 00 0F 27
 (1652907092.220104)  can0  1E5   [8]  1C 00 6D 50 00 00 01 15
 (1652907092.220413)  can0  012   [8]  E8 03 10 00 00 00 00 00
 (1652907092.221611)  can0  014   [5]  01 00 00 11 27
 (1652907092.230117)  can0  1E5   [8]  1C 00 6D 70 00 00 01 35
 (1652907092.230421)  can0  012   [8]  E8 03 10 00 00 00 00 00
 (1652907092.231589)  can0  014   [5]  01 10 00 10 27
 (1652907092.240104)  can0  1E5   [8]  1C 00 6D 10 00 00 00 D5
 (1652907092.240415)  can0  012   [8]  E8 03 10 00 00 00 00 00
 (1652907092.241627)  can0  014   [5]  01 10 00 10 27
 (1652907092.249940)  can0  1E5   [8]  1C 00 6D 30 00 00 00 F5
 (1652907092.250125)  can0  010   [4]  36 8B 09 01
 (1652907092.250423)  can0  012   [8]  E8 03 10 00 00 00 00 00
 (1652907092.251604)  can0  014   [5]  00 00 00 12 27
 (1652907092.260298)  can0  1E5   [8]  1C 00 6D 50 00 00 01 15
 (1652907092.260424)  can0  012   [8]  E8 03 10 00 00 00 00 00
 (1652907092.261596)  can0  014   [5]  01 00 00 0E 27
 (1652907092.270088)  can0  1E5   [8]  1C 00 6D 70 00 00 01 35
 (1652907092.270415)  can0  012   [8]  E8 03 10 00 00 00 00 00
 (1652907092.271627)  can0  014   [5]  00 10 00 10 27
 (1652907092.279949)  can0  1E5   [8]  1C 00 6D 10 00 00 00 D5
 (1652907092.280425)  can0  012   [8]  E8 03 10 00 00 00 00 00
 (1652907092.281595)  can0  014   [5]  00 00 00 0F 27
 (1652907092.290105)  can0  1E5   [8]  1C 00 6D 30 00 00 00 F5
 (1652907092.290409)  can0  012   [8]  E8 03 10 00 00 00 00 00
 (1652907092.291621)  can0  014   [5]  00 00 00 11 27
 (1652907092.299957)  can0  1E5   [8]  1C 00 6D 50 00 00 01 15
 (1652907092.300417)  can0  012   [8]  E8 03 10 00 00 00 00 00
 (1652907092.301606)  can0  014   [5]  00 00 00 10 27
 (1652907092.310097)  can0  1E5   [8]  1C 00 6D 70 00 00 01 35
 (1652907092.310409)  can0  012   [8]  E8 03 10 00 00 00 00 00
 (1652907092.311619)  can0  014   [5]  00 00 00 10 27
 (1652907092.320103)  can0  1E5   [8]  1C 00 6D 10 00 00 00 D5
 (1652907092.320409)  can0  012   [8]  E8 03 10 00 00 00 00 00
 (1652907092.321622)  can0  014   [5]  01 00 00 10 27
 (1652907092.329938)  can0  1E5   [8]  1C 00 6D 30 00 00 00 F5
 (1652907092.330427)  can0  012   [8]  E8 03 10 00 00 00 00 00
 (1652907092.331580)  can0  014   [5]  00 10 00 0F 27
 (1652907092.340094)  can0  1E5   [8]  1C 00 6D 50 00 00 01 15
 (1652907092.340375)  can0  012   [8]  E8 03 10 00 00 00 00 00
 (1652907092.341588)  can0  014   [5]  01 00 00 11 27
 (1652907092.349937)  can0  1E5   [8]  1C 00 6D 70 00 00 01 35
 (1652907092.350106)  can0  010   [4]  36 8B 09 01
 (1652907092.350379)  can0  012   [8]  E8 03 10 00 00 00 00 00
 (1652907092.351591)  can0  014   [5]  00 10 00 12 27
 (1652907092.360459)  can0  1E5   [8]  1C 00 6D 10 00 00 00 D5
 (1652907092.360468)  can0  012   [8]  E8 03 10 00 00 00 00 00
 (1652907092.361583)  can0  014   [5]  01 00 00 0E 27
 (1652907092.370107)  can0  1E5   [8]  1C 00 6D 30 00 00 00 F5
 (1652907092.370386)  can0  012   [8]  E8 03 10 00 00 00 00 00
 (1652907092.371610)  can0  014   [5]  01 10 00 10 27
 (1652907092.379943)  can0  1E5   [8]  1C 00 6D 50 00 00 01 15
 (1652907092.380414)  can0  012   [8]  E8 03 10 00 00 00 00 00
 (1652907092.381611)  can0  014   [5]  01 10 00 10 27
 (1652907092.390106)  can0  1E5   [8]  1C 00 6D 70 00 00 01 35
 (1652907092.390407)  can0  012   [8]  E8 03 10 00 00 00 00 00
 (1652907092.391617)  can0  014   [5]  01 10 00 10 27
 (1652907092.400137)  can0  1E5   [8]  1C 00 6D 10 00 00 00 D5
 (1652907092.400401)  can0  012   [8]  E8 03 10 00 00 00 00 00
 (1652907092.401610)  can0  014   [5]  01 00 00 0F 27
 (1652907092.410089)  can0  1E5   [8]  1C 00 6D 30 00 00 00 F5
 (1652907092.410392)  can0  012   [8]  E8 03 10 00 00 00 00 00
 (1652907092.411620)  can0  014   [5]  01 10 00 11 27
 (1652907092.420101)  can0  1E5   [8]  1C 00 6D 50 00 00 01 15
 (1652907092.420415)  can0  012   [8]  E8 03 10 00 00 00 00 00
 (1652907092.421624)  can0  014   [5]  01 10 00 10 27
 (1652907092.429940)  can0  1E5   [8]  1C 00 6D 70 00 00 01 35
 (1652907092.430414)  can0  012   [8]  E8 03 10 00 00 00 00 00
 (1652907092.431569)  can0  014   [5]  01 10 00 10 27
 (1652907092.440096)  can0  1E5   [8]  1C 00 6D 10 00 00 00 D5
 (1652907092.440425)  can0  012   [8]  E8 03 10 00 00 00 00 00
 (1652907092.441616)  can0  014   [5]  01 00 00 10 27
 (1652907092.449935)  can0  1E5   [8]  1C 00 6D 30 00 00 00 F5
 (1652907092.450143)  can0  010   [4]  36 8B 09 01
 (1652907092.450412)  can0  012   [8]  E8 03 10 00 00 00 00 00
 (1652907092.451617)  can0  014   [5]  01 10 00 12 27
 (1652907092.459923)  can0  1E5   [8]  1C 00 6D 50 00 00 01 15
 (1652907092.460409)  can0  012   [8]  E8 03 10 00 00 00 00 00
 (1652907092.461626)  can0  014   [5]  01 00 00 0E 27
 (1652907092.470099)  can0  1E5   [8]  1C 00 6D 70 00 00 01 35
 (1652907092.470421)  can0  012   [8]  E8 03 10 00 00 00 00 00
 (1652907092.471616)  can0  014   [5]  01 10 00 0F 27
 (1652907092.479939)  can0  1E5   [8]  1C 00 6D 10 00 00 00 D5
 (1652907092.480408)  can0  012   [8]  E8 03 10 00 00 00 00 00
 (1652907092.481601)  can0  014   [5]  00 10 00 11 27
 (1652907092.490099)  can0  1E5   [8]  1C 00 6D 30 00 00 00 F5
 (1652907092.490408)  can0  012   [8]  E8 03 10 00 00 00 00 00
 (1652907092.491620)  can0  014   [5]  01 10 00 10 27
 (1652907092.499934)  can0  1E5   [8]  1C 00 6D 50 00 00 01 15
 (1652907092.500410)  can0  012   [8]  E8 03 10 00 00 00 00 00
 (1652907092.501613)  can0  014   [5]  01 00 00 10 27
 (1652907092.510641)  can0  1E5   [8]  1C 00 6D 70 00 00 01 35
 (1652907092.510650)  can0  012   [8]  E8 03 10 00 00 00 00 00
 (1652907092.511593)  can0  014   [5]  01 10 00 10 27
 (1652907092.520092)  can0  1E5   [8]  1C 00 6D 10 00 00 00 D5
 (1652907092.520402)  can0  012   [8]  E8 03 10 00 00 00 00 00
 (1652907092.521576)  can0  014   [5]  02 20 00 0F 27
 (1652907092.529933)  can0  1E5   [8]  1C 00 6D 30 00 00 00 F5
 (1652907092.530406)  can0  012   [8]  E8 03 10 00 00 00 00 00
 (1652907092.531592)  can0  014   [5]  01 10 00 11 27
 (1652907092.540073)  can0  1E5   [8]  1C 00 6D 50 00 00 01 15
 (1652907092.540410)  can0  012   [8]  E8 03 10 00 00 00 00 00
 (1652907092.541631)  can0  014   [5]  02 10 00 10 27
 (1652907092.549925)  can0  1E5   [8]  1C 00 6D 70 00 00 01 35
 (1652907092.550135)  can0  010   [4]  36 8B 09 01
 (1652907092.550419)  can0  012   [8]  E8 03 10 00 00 00 00 00
 (1652907092.551614)  can0  014   [5]  01 10 00 12 27
 (1652907092.560092)  can0  1E5   [8]  1C 00 6D 10 00 00 00 D5
 (1652907092.560420)  can0  012   [8]  E8 03 10 00 00 00 00 00
 (1652907092.561625)  can0  014   [5]  02 10 00 0E 27
 (1652907092.570143)  can0  1E5   [8]  1C 00 6D 30 00 00 00 F5
 (1652907092.570389)  can0  012   [8]  E8 03 10 00 00 00 00 00
 (1652907092.571614)  can0  014   [5]  02 20 00 10 27
 (1652907092.579934)  can0  1E5   [8]  1C 00 6D 50 00 00 01 15
 (1652907092.580410)  can0  012   [8]  E8 03 10 00 00 00 00 00
 (1652907092.581593)  can0  014   [5]  01 10 00 10 27
 (1652907092.590327)  can0  1E5   [8]  1C 00 6D 70 00 00 01 35
 (1652907092.590382)  can0  012   [8]  E8 03 10 00 00 00 00 00
 (1652907092.591590)  can0  014   [5]  02 10 00 0F 27
 (1652907092.599921)  can0  1E5   [8]  1C 00 6D 10 00 00 00 D5
 (1652907092.600414)  can0  012   [8]  E8 03 10 00 00 00 00 00
 (1652907092.601587)  can0  014   [5]  02 10 00 11 27
 (1652907092.609939)  can0  1E5   [8]  1C 00 6D 30 00 00 00 F5
 (1652907092.610410)  can0  012   [8]  E8 03 10 00 00 00 00 00
 (1652907092.611604)  can0  014   [5]  01 20 00 10 27
 (1652907092.620168)  can0  1E5   [8]  1C 00 6D 50 00 00 01 15
 (1652907092.620385)  can0  012   [8]  E8 03 10 00 00 00 00 00
 (1652907092.621613)  can0  014   [5]  01 10 00 10 27
 (1652907092.629937)  can0  1E5   [8]  1C 00 6D 70 00 00 01 35
 (1652907092.630411)  can0  012   [8]  E8 03 10 00 00 00 00 00
 (1652907092.631611)  can0  014   [5]  02 10 00 10 27
 (1652907092.640065)  can0  1E5   [8]  1C 00 6D 10 00 00 00 D5
 (1652907092.640393)  can0  012   [8]  E8 03 10 00 00 00 00 00
 (1652907092.641576)  can0  014   [5]  01 10 00 0F 27
 (1652907092.649923)  can0  1E5   [8]  1C 00 6D 30 00 00 00 F5
 (1652907092.650115)  can0  010   [4]  36 8B 09 01
 (1652907092.650393)  can0  012   [8]  E8 03 10 00 00 00 00 00
 (1652907092.651581)  can0  014   [5]  01 20 00 14 27
 (1652907092.660138)  can0  1E5   [8]  1C 00 6C 5F FF 00 02 22
 (1652907092.660420)  can0  012   [8]  E8 03 10 00 00 00 00 00
 (1652907092.661611)  can0  014   [5]  02 10 00 0C 27
 (1652907092.670247)  can0  1E5   [8]  1C 00 6D 70 00 00 01 35
 (1652907092.670378)  can0  012   [8]  E8 03 10 00 00 00 00 00
 (1652907092.671595)  can0  014   [5]  01 20 00 11 27
 (1652907092.679933)  can0  1E5   [8]  1C 00 6C 10 00 00 00 D4
 (1652907092.680427)  can0  012   [8]  E8 03 10 00 00 00 00 00
 (1652907092.681626)  can0  014   [5]  02 10 00 10 27
 (1652907092.689915)  can0  1E5   [8]  1C 00 6C 30 00 00 00 F4
 (1652907092.690451)  can0  012   [8]  E8 03 10 00 00 00 00 00
 (1652907092.691631)  can0  014   [5]  02 20 00 10 27
 (1652907092.699932)  can0  1E5   [8]  1C 00 6C 50 00 00 01 14
 (1652907092.700422)  can0  012   [8]  E8 03 10 00 00 00 00 00
 (1652907092.701603)  can0  014   [5]  01 20 00 10 27
 (1652907092.710402)  can0  1E5   [8]  1C 00 6C 70 00 00 01 34
 (1652907092.710411)  can0  012   [8]  E8 03 10 00 00 00 00 00
 (1652907092.711610)  can0  014   [5]  02 10 00 0F 27
 (1652907092.720073)  can0  1E5   [8]  1C 00 6C 10 00 00 00 D4
 (1652907092.720389)  can0  012   [8]  E8 03 10 00 00 00 00 00
 (1652907092.721588)  can0  014   [5]  02 20 00 11 27
 (1652907092.729940)  can0  1E5   [8]  1C 00 6C 30 00 00 00 F4
 (1652907092.730422)  can0  012   [8]  E8 03 10 00 00 00 00 00
 (1652907092.731605)  can0  014   [5]  02 20 00 10 27
 (1652907092.740079)  can0  1E5   [8]  1C 00 6C 50 00 00 01 14
 (1652907092.740406)  can0  012   [8]  E8 03 10 00 00 00 00 00
 (1652907092.741624)  can0  014   [5]  02 20 00 10 27
 (1652907092.750072)  can0  1E5   [8]  1C 00 6C 70 00 00 01 34
 (1652907092.750118)  can0  010   [4]  36 8B 09 01
 (1652907092.750379)  can0  012   [8]  E8 03 10 00 00 00 00 00
 (1652907092.751570)  can0  014   [5]  02 20 00 12 27
 (1652907092.760453)  can0  1E5   [8]  1C 00 6C 10 00 00 00 D4
 (1652907092.760462)  can0  012   [8]  E8 03 10 00 00 00 00 00
 (1652907092.761602)  can0  014   [5]  02 20 00 0E 27
 (1652907092.770087)  can0  1E5   [8]  1C 00 6C 30 00 00 00 F4
 (1652907092.770402)  can0  012   [8]  E8 03 10 00 00 00 00 00
 (1652907092.771587)  can0  014   [5]  02 20 00 10 27
 (1652907092.779975)  can0  1E5   [8]  1C 00 6C 50 00 00 01 14
 (1652907092.780414)  can0  012   [8]  E8 03 10 00 00 00 00 00
 (1652907092.781601)  can0  014   [5]  02 20 00 0F 27
 (1652907092.789933)  can0  1E5   [8]  1C 00 6C 70 00 00 01 34
 (1652907092.790406)  can0  012   [8]  E8 03 10 00 00 00 00 00
 (1652907092.791607)  can0  014   [5]  02 20 00 11 27
 (1652907092.799926)  can0  1E5   [8]  1C 00 6C 10 00 00 00 D4
 (1652907092.800426)  can0  012   [8]  E8 03 10 00 00 00 00 00
 (1652907092.801611)  can0  014   [5]  02 20 00 10 27
 (1652907092.810417)  can0  1E5   [8]  1C 00 6C 30 00 00 00 F4
 (1652907092.810425)  can0  012   [8]  E8 03 10 00 00 00 00 00
 (1652907092.811598)  can0  014   [5]  02 20 00 10 27
 (1652907092.819936)  can0  1E5   [8]  1C 00 6A 5F FF 00 02 20
 (1652907092.820405)  can0  012   [8]  E8 03 10 00 00 00 00 00
 (1652907092.821608)  can0  014   [5]  03 20 00 10 27
 (1652907092.829905)  can0  1E5   [8]  1C 00 6A 7F FF 00 02 40
 (1652907092.830415)  can0  012   [8]  E8 03 10 00 00 00 00 00
 (1652907092.831612)  can0  014   [5]  02 20 00 0F 27
 (1652907092.840077)  can0  1E5   [8]  1C 00 6A 1F FF 00 01 E0
 (1652907092.840380)  can0  012   [8]  E8 03 10 00 00 00 00 00
 (1652907092.841613)  can0  014   [5]  02 20 00 11 27
 (1652907092.849947)  can0  1E5   [8]  1C 00 6A 3F FF 00 02 00
 (1652907092.850148)  can0  010   [4]  36 8B 09 01
 (1652907092.850266)  can0  0E2   [2]  F2 03
 (1652907092.850530)  can0  012   [8]  E8 03 10 00 00 00 00 00
 (1652907092.850628)  can0  0E3   [2]  F2 03
 (1652907092.851621)  can0  014   [5]  02 20 00 18 27
 (1652907092.851713)  can0  0E4   [2]  F2 03
 (1652907092.860072)  can0  1E5   [8]  1C 00 69 5F FE 00 02 1E
 (1652907092.860382)  can0  012   [8]  E8 03 10 00 00 00 00 00
 (1652907092.861594)  can0  014   [5]  03 30 00 07 27
 (1652907092.870089)  can0  1E5   [8]  1C 00 69 7F FE 00 02 3E
 (1652907092.870376)  can0  012   [8]  E8 03 10 00 00 00 00 00
 (1652907092.871581)  can0  014   [5]  02 20 00 11 27
 (1652907092.879939)  can0  1E5   [8]  1C 00 69 1F FE 00 01 DE
 (1652907092.880417)  can0  012   [8]  E8 03 10 00 00 00 00 00
 (1652907092.881581)  can0  014   [5]  02 20 00 10 27
 (1652907092.890075)  can0  1E5   [8]  1C 00 69 3F FE 00 01 FE
 (1652907092.890377)  can0  012   [8]  E8 03 10 00 00 00 00 00
 (1652907092.891599)  can0  014   [5]  03 30 00 0F 27
 (1652907092.899912)  can0  1E5   [8]  1C 00 69 5F FE 00 02 1E
 (1652907092.900412)  can0  012   [8]  E8 03 10 00 00 00 00 00
 (1652907092.901585)  can0  014   [5]  03 20 00 11 27
 (1652907092.910086)  can0  1E5   [8]  1C 00 67 7F FD 00 02 3B
 (1652907092.910377)  can0  012   [8]  E8 03 10 00 00 00 00 00
 (1652907092.911594)  can0  014   [5]  02 30 00 10 27
 (1652907092.920082)  can0  1E5   [8]  1C 00 69 10 00 00 00 D1
 (1652907092.920371)  can0  012   [8]  E8 03 10 00 00 00 00 00
 (1652907092.921600)  can0  014   [5]  03 20 00 10 27
 (1652907092.929906)  can0  1E5   [8]  1C 00 67 30 00 00 00 EF
 (1652907092.930424)  can0  012   [8]  E8 03 10 00 00 00 00 00
 (1652907092.931574)  can0  014   [5]  03 30 00 10 27
 (1652907092.940085)  can0  1E5   [8]  1C 00 69 50 00 00 01 11
 (1652907092.940368)  can0  012   [8]  E8 03 10 00 00 00 00 00
 (1652907092.941582)  can0  014   [5]  02 30 00 0F 27
 (1652907092.950134)  can0  1E5   [8]  1C 00 69 70 00 00 01 31
 (1652907092.950141)  can0  010   [4]  36 8B 09 01
 (1652907092.950412)  can0  012   [8]  E8 03 10 00 00 00 00 00
 (1652907092.951614)  can0  014   [5]  03 20 00 14 27
 (1652907092.960071)  can0  1E5   [8]  1C 00 69 10 00 00 00 D1
 (1652907092.960396)  can0  012   [8]  E8 03 10 00 00 00 00 00
 (1652907092.961575)  can0  014   [5]  03 30 00 0C 27
 (1652907092.970079)  can0  1E5   [8]  1C 00 69 30 00 00 00 F1
 (1652907092.970419)  can0  012   [8]  E8 03 10 00 00 00 00 00
 (1652907092.971625)  can0  014   [5]  03 30 00 11 27
 (1652907092.979921)  can0  1E5   [8]  1C 00 69 50 00 00 01 11
 (1652907092.980415)  can0  012   [8]  E8 03 10 00 00 00 00 00
 (1652907092.981622)  can0  014   [5]  03 20 00 10 27
 (1652907092.990122)  can0  1E5   [8]  1C 00 69 70 00 00 01 31
 (1652907092.990366)  can0  012   [8]  E8 03 10 00 00 00 00 00
 (1652907092.991584)  can0  014   [5]  03 30 00 10 27
 (1652907092.999891)  can0  1E5   [8]  1C 00 69 10 00 00 00 D1
 (1652907093.000375)  can0  012   [8]  E8 03 10 00 00 00 00 00
 (1652907093.001585)  can0  014   [5]  03 30 00 10 27
 (1652907093.010086)  can0  1E5   [8]  1C 00 69 30 00 00 00 F1
 (1652907093.010407)  can0  012   [8]  E8 03 10 00 00 00 00 00
 (1652907093.011608)  can0  014   [5]  03 30 00 0F 27
 (1652907093.020066)  can0  1E5   [8]  1C 00 69 50 00 00 01 11
 (1652907093.020419)  can0  012   [8]  E8 03 10 00 00 00 00 00
 (1652907093.021618)  can0  014   [5]  03 30 00 11 27
 (1652907093.029922)  can0  1E5   [8]  1C 00 69 70 00 00 01 31
 (1652907093.030401)  can0  012   [8]  E8 03 10 00 00 00 00 00
 (1652907093.031581)  can0  014   [5]  03 30 00 10 27
 (1652907093.040163)  can0  1E5   [8]  1C 00 69 10 00 00 00 D1
 (1652907093.040376)  can0  012   [8]  E8 03 10 00 00 00 00 00
 (1652907093.041597)  can0  014   [5]  04 40 00 10 27
 (1652907093.049905)  can0  1E5   [8]  1C 00 69 30 00 00 00 F1
 (1652907093.050094)  can0  010   [4]  36 8B 09 01
 (1652907093.050387)  can0  012   [8]  E8 03 10 00 00 00 00 00
 (1652907093.051592)  can0  014   [5]  03 30 00 12 27
 (1652907093.060090)  can0  1E5   [8]  1C 00 69 50 00 00 01 11
 (1652907093.060377)  can0  012   [8]  E8 03 10 00 00 00 00 00
 (1652907093.061597)  can0  014   [5]  03 30 00 0E 27
 (1652907093.070065)  can0  1E5   [8]  1C 00 69 70 00 00 01 31
 (1652907093.070413)  can0  012   [8]  E8 03 10 00 00 00 00 00
 (1652907093.071628)  can0  014   [5]  04 30 00 10 27
 (1652907093.079923)  can0  1E5   [8]  1C 00 69 10 00 00 00 D1
 (1652907093.080421)  can0  012   [8]  E8 03 10 00 00 00 00 00
 (1652907093.081603)  can0  014   [5]  03 40 00 0F 27
 (1652907093.090093)  can0  1E5   [8]  1C 00 69 30 00 00 00 F1
 (1652907093.090403)  can0  012   [8]  E8 03 10 00 00 00 00 00
 (1652907093.091584)  can0  014   [5]  03 30 00 11 27
 (1652907093.099904)  can0  1E5   [8]  1C 00 69 50 00 00 01 11
 (1652907093.100431)  can0  012   [8]  E8 03 10 00 00 00 00 00
 (1652907093.101603)  can0  014   [5]  04 40 00 10 27
 (1652907093.110115)  can0  1E5   [8]  1C 00 69 70 00 00 01 31
 (1652907093.110415)  can0  012   [8]  E8 03 10 00 00 00 00 00
 (1652907093.111610)  can0  014   [5]  03 30 00 10 27
 (1652907093.120091)  can0  1E5   [8]  1C 00 69 10 00 00 00 D1
 (1652907093.120408)  can0  012   [8]  E8 03 10 00 00 00 00 00
 (1652907093.121623)  can0  014   [5]  04 30 00 10 27
 (1652907093.129915)  can0  1E5   [8]  1C 00 69 30 00 00 00 F1
 (1652907093.130407)  can0  012   [8]  E8 03 10 00 00 00 00 00
 (1652907093.131601)  can0  014   [5]  04 40 00 0F 27
 (1652907093.139896)  can0  1E5   [8]  1C 00 69 50 00 00 01 11
 (1652907093.140374)  can0  011   [2]  00 00
 (1652907093.140386)  can0  012   [8]  E8 03 10 00 00 00 00 00
 (1652907093.141273)  can0  013   [1]  50
 (1652907093.141599)  can0  014   [5]  03 30 00 13 27
 (1652907093.149878)  can0  1E5   [8]  1C 00 69 70 00 00 01 31
 (1652907093.150145)  can0  010   [4]  26 73 00 00
 (1652907093.150382)  can0  012   [8]  E8 03 10 00 5C 0F 05 00
 (1652907093.151592)  can0  014   [5]  04 40 00 13 27
 (1652907093.159912)  can0  1E5   [8]  1C 00 69 10 00 00 00 D1
 (1652907093.160396)  can0  012   [8]  E8 03 10 00 2E 1D 0B 00
 (1652907093.161582)  can0  014   [5]  04 40 00 0B 27
 (1652907093.169921)  can0  1E5   [8]  1C 00 69 30 00 00 00 F1
 (1652907093.170417)  can0  012   [8]  E8 03 10 00 9F 29 10 00
 (1652907093.171587)  can0  014   [5]  04 40 00 12 27
 (1652907093.180125)  can0  1E5   [8]  1C 00 69 50 00 00 01 11
 (1652907093.180407)  can0  012   [8]  E8 03 10 00 D2 34 14 00
 (1652907093.181584)  can0  014   [5]  03 40 00 0E 27
 (1652907093.190151)  can0  1E5   [8]  1C 00 69 70 00 00 01 31
 (1652907093.190406)  can0  012   [8]  E8 03 10 00 E6 3E 18 00
 (1652907093.191617)  can0  014   [5]  04 30 00 0F 27
 (1652907093.199923)  can0  1E5   [8]  1C 00 69 10 00 00 00 D1
 (1652907093.200383)  can0  012   [8]  E8 03 10 00 F8 47 1C 00
 (1652907093.201579)  can0  014   [5]  04 40 00 11 27
 (1652907093.210253)  can0  1E5   [8]  1C 00 69 30 00 00 00 F1
 (1652907093.210364)  can0  012   [8]  E8 03 10 00 21 50 1F 00
 (1652907093.211590)  can0  014   [5]  03 30 00 10 27
 (1652907093.220075)  can0  1E5   [8]  1C 00 69 50 00 00 01 11
 (1652907093.220365)  can0  012   [8]  E8 03 10 00 7A 57 22 00
 (1652907093.221600)  can0  014   [5]  03 20 00 10 27
 (1652907093.229917)  can0  1E5   [8]  1C 00 69 70 00 00 01 31
 (1652907093.230400)  can0  012   [8]  E8 03 10 00 17 5E 24 00
 (1652907093.231601)  can0  014   [5]  02 30 00 10 27
 (1652907093.240054)  can0  1E5   [8]  1C 00 69 10 00 00 00 D1
 (1652907093.240364)  can0  012   [8]  E8 03 10 00 0A 64 27 00
 (1652907093.241596)  can0  014   [5]  03 20 00 0F 27
 (1652907093.249874)  can0  1E5   [8]  1C 00 69 30 00 00 00 F1
 (1652907093.250093)  can0  010   [4]  26 73 00 00
 (1652907093.250365)  can0  012   [8]  E8 03 10 00 65 69 29 00
 (1652907093.251595)  can0  014   [5]  02 30 00 17 27
 (1652907093.259882)  can0  1E5   [8]  1C 00 69 50 00 00 01 11
 (1652907093.260401)  can0  012   [8]  E8 03 10 00 37 6E 2B 00
 (1652907093.261593)  can0  014   [5]  02 20 00 09 27
 (1652907093.269908)  can0  1E5   [8]  1C 00 69 70 00 00 01 31
 (1652907093.270358)  can0  012   [8]  E8 03 10 00 8E 72 2C 00
 (1652907093.271594)  can0  014   [5]  03 30 00 11 27
 (1652907093.279912)  can0  1E5   [8]  1C 00 69 10 00 00 00 D1
 (1652907093.280363)  can0  012   [8]  E8 03 10 00 75 76 2E 00
 (1652907093.281585)  can0  014   [5]  03 30 00 10 27
 (1652907093.290059)  can0  1E5   [8]  1C 00 69 30 00 00 00 F1
 (1652907093.290359)  can0  012   [8]  E8 03 10 00 F9 79 2F 00
 (1652907093.291588)  can0  014   [5]  03 30 00 10 27
 (1652907093.299940)  can0  1E5   [8]  1C 00 69 50 00 00 01 11
 (1652907093.300377)  can0  012   [8]  E8 03 10 00 22 7D 30 00
 (1652907093.301576)  can0  014   [5]  04 40 00 10 27
 (1652907093.310471)  can0  1E5   [8]  1C 00 69 70 00 00 01 31
 (1652907093.310479)  can0  012   [8]  E8 03 10 00 FB 7F 31 00
 (1652907093.311596)  can0  014   [5]  03 40 00 0F 27
 (1652907093.319910)  can0  1E5   [8]  1C 00 69 10 00 00 00 D1
 (1652907093.320368)  can0  012   [8]  E8 03 10 00 8B 82 32 00
 (1652907093.321578)  can0  014   [5]  04 30 00 11 27
 (1652907093.329911)  can0  1E5   [8]  1C 00 69 30 00 00 00 F1
 (1652907093.330401)  can0  012   [8]  E8 03 10 00 D9 84 33 00
 (1652907093.331624)  can0  014   [5]  04 40 00 10 27
 (1652907093.340085)  can0  1E5   [8]  1C 00 69 50 00 00 01 11
 (1652907093.340371)  can0  012   [8]  E8 03 10 00 EC 86 34 00
 (1652907093.341590)  can0  014   [5]  04 40 00 10 27
 (1652907093.349899)  can0  1E5   [8]  1C 00 69 70 00 00 01 31
 (1652907093.350078)  can0  010   [4]  26 73 00 00
 (1652907093.350367)  can0  012   [8]  E8 03 10 00 CA 88 35 00
 (1652907093.351600)  can0  014   [5]  04 40 00 12 27
 (1652907093.360403)  can0  1E5   [8]  1C 00 69 10 00 00 00 D1
 (1652907093.360412)  can0  012   [8]  E8 03 10 00 78 8A 36 00
 (1652907093.361606)  can0  014   [5]  04 30 00 0E 27
 (1652907093.370048)  can0  1E5   [8]  1C 00 69 30 00 00 00 F1
 (1652907093.370402)  can0  012   [8]  E8 03 10 00 FC 8B 36 00
 (1652907093.371617)  can0  014   [5]  03 40 00 10 27
 (1652907093.379919)  can0  1E5   [8]  1C 00 69 50 00 00 01 11
 (1652907093.380394)  can0  012   [8]  E8 03 10 00 58 8D 37 00
 (1652907093.381620)  can0  014   [5]  04 30 00 0F 27
 (1652907093.389898)  can0  1E5   [8]  1C 00 69 70 00 00 01 31
 (1652907093.390386)  can0  012   [8]  E8 03 10 00 92 8E 37 00
 (1652907093.391606)  can0  014   [5]  03 30 00 11 27
 (1652907093.399899)  can0  1E5   [8]  1C 00 69 10 00 00 00 D1
 (1652907093.400373)  can0  012   [8]  E8 03 10 00 AC 8F 38 00
 (1652907093.401575)  can0  014   [5]  03 30 00 10 27
 (1652907093.409917)  can0  1E5   [8]  1C 00 69 30 00 00 00 F1
 (1652907093.410368)  can0  012   [8]  E8 03 10 00 AA 90 38 00
 (1652907093.411613)  can0  014   [5]  03 20 00 10 27
 (1652907093.419904)  can0  1E5   [8]  1C 00 69 50 00 00 01 11
 (1652907093.420402)  can0  012   [8]  E8 03 10 00 8F 91 38 00
 (1652907093.421591)  can0  014   [5]  02 30 00 10 27
 (1652907093.429902)  can0  1E5   [8]  1C 00 69 70 00 00 01 31
 (1652907093.430395)  can0  012   [8]  E8 03 10 00 5C 92 39 00
 (1652907093.431598)  can0  014   [5]  03 30 00 0F 27
 (1652907093.440067)  can0  1E5   [8]  1C 00 69 10 00 00 00 D1
 (1652907093.440402)  can0  012   [8]  E8 03 10 00 16 93 39 00
 (1652907093.441606)  can0  014   [5]  03 30 00 11 27
 (1652907093.449966)  can0  1E5   [8]  1C 00 69 30 00 00 00 F1
 (1652907093.450089)  can0  010   [4]  26 73 00 00
 (1652907093.450388)  can0  012   [8]  E8 03 10 00 BC 93 39 00
 (1652907093.451588)  can0  014   [5]  02 30 00 12 27
 (1652907093.459879)  can0  1E5   [8]  1C 00 69 50 00 00 01 11
 (1652907093.460358)  can0  012   [8]  E8 03 10 00 52 94 39 00
 (1652907093.461624)  can0  014   [5]  03 30 00 0E 27
 (1652907093.469868)  can0  1E5   [8]  1C 00 69 70 00 00 01 31
 (1652907093.470351)  can0  012   [8]  E8 03 10 00 D9 94 3A 00
 (1652907093.471570)  can0  014   [5]  03 30 00 10 27
 (1652907093.479910)  can0  1E5   [8]  1C 00 69 10 00 00 00 D1
 (1652907093.480397)  can0  012   [8]  E8 03 10 00 53 95 3A 00
 (1652907093.481650)  can0  014   [5]  04 30 00 10 27
 (1652907093.489906)  can0  1E5   [8]  1C 00 69 30 00 00 00 F1
 (1652907093.490408)  can0  012   [8]  E8 03 10 00 C0 95 3A 00
 (1652907093.491605)  can0  014   [5]  03 30 00 10 27
 (1652907093.499879)  can0  1E5   [8]  1C 00 69 50 00 00 01 11
 (1652907093.500392)  can0  012   [8]  E8 03 10 00 23 96 3A 00
 (1652907093.501590)  can0  014   [5]  03 30 00 0F 27
 (1652907093.510536)  can0  1E5   [8]  1C 00 69 70 00 00 01 31
 (1652907093.510544)  can0  012   [8]  E8 03 10 00 7B 96 3A 00
 (1652907093.511594)  can0  014   [5]  04 40 00 11 27
 (1652907093.519914)  can0  1E5   [8]  1C 00 69 10 00 00 00 D1
 (1652907093.520399)  can0  012   [8]  E8 03 10 00 CB 96 3A 00
 (1652907093.521628)  can0  014   [5]  03 30 00 10 27
 (1652907093.529894)  can0  1E5   [8]  1C 00 69 30 00 00 00 F1
 (1652907093.530395)  can0  012   [8]  E8 03 10 00 13 97 3B 00
 (1652907093.531613)  can0  014   [5]  03 30 00 10 27
 (1652907093.539895)  can0  1E5   [8]  1C 00 69 50 00 00 01 11
 (1652907093.540373)  can0  012   [8]  E8 03 10 00 53 97 3B 00
 (1652907093.541591)  can0  014   [5]  02 30 00 10 27
 (1652907093.549863)  can0  1E5   [8]  1C 00 69 70 00 00 01 31
 (1652907093.550079)  can0  010   [4]  26 73 00 00
 (1652907093.550347)  can0  012   [8]  E8 03 10 00 8D 97 3B 00
 (1652907093.551589)  can0  014   [5]  01 10 00 12 27
 (1652907093.560594)  can0  1E5   [8]  1C 00 69 10 00 00 00 D1
 (1652907093.560602)  can0  012   [8]  E8 03 10 00 C2 97 3B 00
 (1652907093.561579)  can0  014   [5]  01 10 00 0E 27
 (1652907093.570052)  can0  1E5   [8]  1C 00 69 30 00 00 00 F1
 (1652907093.570366)  can0  012   [8]  E8 03 10 00 F1 97 3B 00
 (1652907093.571597)  can0  014   [5]  01 10 00 0F 27
 (1652907093.579918)  can0  1E5   [8]  1C 00 69 50 00 00 01 11
 (1652907093.580417)  can0  012   [8]  E8 03 10 00 1B 98 3B 00
 (1652907093.581582)  can0  014   [5]  01 10 00 11 27
 (1652907093.590058)  can0  1E5   [8]  1C 00 69 70 00 00 01 31
 (1652907093.590361)  can0  012   [8]  E8 03 10 00 41 98 3B 00
 (1652907093.591604)  can0  014   [5]  01 10 00 10 27
 (1652907093.599887)  can0  1E5   [8]  1C 00 69 10 00 00 00 D1
 (1652907093.600363)  can0  012   [8]  E8 03 10 00 64 98 3B 00
 (1652907093.601612)  can0  014   [5]  01 10 00 10 27
 (1652907093.610765)  can0  1E5   [8]  1C 00 69 30 00 00 00 F1
 (1652907093.610773)  can0  012   [8]  E8 03 10 00 83 98 3B 00
 (1652907093.611606)  can0  014   [5]  00 10 00 10 27
 (1652907093.620071)  can0  1E5   [8]  1C 00 69 50 00 00 01 11
 (1652907093.620369)  can0  012   [8]  E8 03 10 00 9E 98 3B 00
 (1652907093.621571)  can0  014   [5]  01 10 00 0F 27
 (1652907093.629903)  can0  1E5   [8]  1C 00 69 70 00 00 01 31
 (1652907093.630369)  can0  012   [8]  E8 03 10 00 B7 98 3B 00
 (1652907093.631612)  can0  014   [5]  01 10 00 11 27
 (1652907093.640060)  can0  1E5   [8]  1C 00 69 10 00 00 00 D1
 (1652907093.640390)  can0  012   [8]  E8 03 10 00 CE 98 3B 00
 (1652907093.641580)  can0  014   [5]  00 10 00 10 27
 (1652907093.649926)  can0  1E5   [8]  1C 00 69 30 00 00 00 F1
 (1652907093.650136)  can0  010   [4]  26 73 00 00
 (1652907093.650377)  can0  012   [8]  E8 03 10 00 E2 98 3B 00
 (1652907093.651594)  can0  014   [5]  01 00 00 12 27
 (1652907093.659890)  can0  1E5   [8]  1C 00 69 50 00 00 01 11
 (1652907093.660374)  can0  012   [8]  E8 03 10 00 F4 98 3B 00
 (1652907093.661614)  can0  014   [5]  00 10 00 0E 27
 (1652907093.669887)  can0  1E5   [8]  1C 00 69 70 00 00 01 31
 (1652907093.670389)  can0  012   [8]  E8 03 10 00 05 99 3B 00
 (1652907093.671594)  can0  014   [5]  01 10 00 10 27
 (1652907093.679889)  can0  1E5   [8]  1C 00 69 10 00 00 00 D1
 (1652907093.680410)  can0  012   [8]  E8 03 10 00 14 99 3B 00
 (1652907093.681626)  can0  014   [5]  00 00 00 10 27
 (1652907093.690201)  can0  1E5   [8]  1C 00 69 30 00 00 00 F1
 (1652907093.690351)  can0  012   [8]  E8 03 10 00 21 99 3B 00
 (1652907093.691581)  can0  014   [5]  01 10 00 0F 27
 (1652907093.699874)  can0  1E5   [8]  1C 00 69 50 00 00 01 11
 (1652907093.700365)  can0  012   [8]  E8 03 10 00 2D 99 3B 00
 (1652907093.701595)  can0  014   [5]  01 00 00 11 27
 (1652907093.710202)  can0  1E5   [8]  1C 00 69 70 00 00 01 31
 (1652907093.710370)  can0  012   [8]  E8 03 10 00 38 99 3B 00
 (1652907093.711589)  can0  014   [5]  00 00 00 10 27
 (1652907093.720231)  can0  1E5   [8]  1C 00 69 10 00 00 00 D1
 (1652907093.720392)  can0  012   [8]  E8 03 10 00 41 99 3B 00
 (1652907093.721604)  can0  014   [5]  00 10 00 10 27
 (1652907093.729909)  can0  1E5   [8]  1C 00 69 30 00 00 00 F1
 (1652907093.730406)  can0  012   [8]  E8 03 10 00 4A 99 3B 00
 (1652907093.731624)  can0  014   [5]  00 00 00 10 27
 (1652907093.740051)  can0  1E5   [8]  1C 00 69 50 00 00 01 11
 (1652907093.740400)  can0  012   [8]  E8 03 10 00 52 99 3B 00
 (1652907093.741627)  can0  014   [5]  01 00 00 0F 27
 (1652907093.749913)  can0  1E5   [8]  1C 00 69 70 00 00 01 31
 (1652907093.750079)  can0  010   [4]  26 73 00 00
 (1652907093.750354)  can0  012   [8]  E8 03 10 00 59 99 3B 00
 (1652907093.751600)  can0  014   [5]  00 00 00 14 27
 (1652907093.760056)  can0  1E5   [8]  1C 00 69 10 00 00 00 D1
 (1652907093.760388)  can0  012   [8]  E8 03 10 00 5F 99 3B 00
 (1652907093.761629)  can0  014   [5]  00 10 00 0C 27
 (1652907093.770057)  can0  1E5   [8]  1C 00 69 30 00 00 00 F1
 (1652907093.770399)  can0  012   [8]  E8 03 10 00 65 99 3B 00
 (1652907093.771623)  can0  014   [5]  00 00 00 11 27
 (1652907093.779891)  can0  1E5   [8]  1C 00 69 50 00 00 01 11
 (1652907093.780377)  can0  012   [8]  E8 03 10 00 6A 99 3B 00
 (1652907093.781602)  can0  014   [5]  00 00 00 10 27
 (1652907093.789893)  can0  1E5   [8]  1C 00 69 70 00 00 01 31
 (1652907093.790370)  can0  012   [8]  E8 03 10 00 6F 99 3B 00
 (1652907093.791583)  can0  014   [5]  00 00 00 10 27
 (1652907093.799849)  can0  1E5   [8]  1C 00 69 10 00 00 00 D1
 (1652907093.800378)  can0  012   [8]  E8 03 10 00 73 99 3B 00
 (1652907093.801580)  can0  014   [5]  00 00 00 10 27
 (1652907093.809877)  can0  1E5   [8]  1C 00 69 30 00 00 00 F1
 (1652907093.810387)  can0  012   [8]  E8 03 10 00 77 99 3B 00
 (1652907093.811597)  can0  014   [5]  00 00 00 0F 27
 (1652907093.820097)  can0  1E5   [8]  1C 00 69 50 00 00 01 11
 (1652907093.820372)  can0  012   [8]  E8 03 10 00 7A 99 3B 00
 (1652907093.821595)  can0  014   [5]  00 00 00 11 27
 (1652907093.829891)  can0  1E5   [8]  1C 00 69 70 00 00 01 31
 (1652907093.830389)  can0  012   [8]  E8 03 10 00 7D 99 3B 00
 (1652907093.831608)  can0  014   [5]  00 00 00 10 27
 (1652907093.840054)  can0  1E5   [8]  1C 00 69 10 00 00 00 D1
 (1652907093.840371)  can0  012   [8]  E8 03 10 00 80 99 3B 00
 (1652907093.841593)  can0  014   [5]  00 00 00 10 27
 (1652907093.849880)  can0  1E5   [8]  1C 00 69 30 00 00 00 F1
 (1652907093.850070)  can0  010   [4]  26 73 00 00
 (1652907093.850206)  can0  0E2   [2]  1A 00
 (1652907093.850453)  can0  012   [8]  E8 03 10 00 82 99 3B 00
 (1652907093.850675)  can0  0E3   [2]  1A 00
 (1652907093.851591)  can0  014   [5]  00 00 00 18 27
 (1652907093.851714)  can0  0E4   [2]  1A 00
 (1652907093.860408)  can0  1E5   [8]  1C 00 69 50 00 00 01 11
 (1652907093.860417)  can0  012   [8]  E8 03 10 00 85 99 3B 00
 (1652907093.861584)  can0  014   [5]  00 00 00 08 27
 (1652907093.869879)  can0  1E5   [8]  1C 00 69 70 00 00 01 31
 (1652907093.870849)  can0  012   [8]  E8 03 10 00 87 99 3B 00
 (1652907093.871585)  can0  014   [5]  00 00 00 0F 27
 (1652907093.879893)  can0  1E5   [8]  1C 00 69 10 00 00 00 D1
 (1652907093.880388)  can0  012   [8]  E8 03 10 00 88 99 3B 00
 (1652907093.881614)  can0  014   [5]  00 00 00 11 27
 (1652907093.889852)  can0  1E5   [8]  1C 00 69 30 00 00 00 F1
 (1652907093.890362)  can0  012   [8]  E8 03 10 00 8A 99 3B 00
 (1652907093.891627)  can0  014   [5]  00 00 00 10 27
 (1652907093.899888)  can0  1E5   [8]  1C 00 69 50 00 00 01 11
 (1652907093.900374)  can0  012   [8]  E8 03 10 00 8B 99 3B 00
 (1652907093.901605)  can0  014   [5]  00 00 00 10 27
 (1652907093.910626)  can0  1E5   [8]  1C 00 69 70 00 00 01 31
 (1652907093.910634)  can0  012   [8]  E8 03 10 00 8D 99 3B 00
 (1652907093.911586)  can0  014   [5]  00 00 00 10 27
 (1652907093.919887)  can0  1E5   [8]  1C 00 69 10 00 00 00 D1
 (1652907093.920395)  can0  012   [8]  E8 03 10 00 8E 99 3B 00
 (1652907093.921629)  can0  014   [5]  00 00 00 0F 27
 (1652907093.929870)  can0  1E5   [8]  1C 00 69 30 00 00 00 F1
 (1652907093.930401)  can0  012   [8]  E8 03 10 00 8F 99 3B 00
 (1652907093.931614)  can0  014   [5]  00 00 00 11 27
 (1652907093.939885)  can0  1E5   [8]  1C 00 69 50 00 00 01 11
 (1652907093.940363)  can0  012   [8]  E8 03 10 00 90 99 3B 00
 (1652907093.941579)  can0  014   [5]  FF 0F 00 10 27
 (1652907093.949867)  can0  1E5   [8]  1C 00 69 70 00 00 01 31
 (1652907093.950078)  can0  010   [4]  26 73 00 00
 (1652907093.950428)  can0  012   [8]  E8 03 10 00 91 99 3B 00
 (1652907093.951596)  can0  014   [5]  00 00 00 12 27
 (1652907093.960424)  can0  1E5   [8]  1C 00 69 10 00 00 00 D1
 (1652907093.960434)  can0  012   [8]  E8 03 10 00 92 99 3B 00
 (1652907093.961593)  can0  014   [5]  00 00 00 0E 27
 (1652907093.970052)  can0  1E5   [8]  1C 00 69 30 00 00 00 F1
 (1652907093.970354)  can0  012   [8]  E8 03 10 00 92 99 3B 00
 (1652907093.971575)  can0  014   [5]  00 00 00 10 27
 (1652907093.979893)  can0  1E5   [8]  1C 00 69 50 00 00 01 11
 (1652907093.980394)  can0  012   [8]  E8 03 10 00 93 99 3B 00
 (1652907093.981608)  can0  014   [5]  00 00 00 10 27
 (1652907093.989949)  can0  1E5   [8]  1C 00 69 70 00 00 01 31
 (1652907093.990399)  can0  012   [8]  E8 03 10 00 93 99 3B 00
 (1652907093.991617)  can0  014   [5]  00 00 00 0F 27
 (1652907093.999846)  can0  1E5   [8]  1C 00 69 10 00 00 00 D1
 (1652907094.000364)  can0  012   [8]  E8 03 10 00 94 99 3B 00
 (1652907094.001572)  can0  014   [5]  00 00 00 11 27
 (1652907094.010507)  can0  1E5   [8]  1C 00 69 30 00 00 00 F1
 (1652907094.010517)  can0  012   [8]  E8 03 10 00 94 99 3B 00
 (1652907094.011578)  can0  014   [5]  00 F0 FF 10 27
 (1652907094.020032)  can0  1E5   [8]  1C 00 69 50 00 00 01 11
 (1652907094.020367)  can0  012   [8]  E8 03 10 00 95 99 3B 00
 (1652907094.021600)  can0  014   [5]  FF 0F 00 10 27
 (1652907094.029921)  can0  1E5   [8]  1C 00 69 70 00 00 01 31
 (1652907094.030404)  can0  012   [8]  E8 03 10 00 95 99 3B 00
 (1652907094.031599)  can0  014   [5]  00 00 00 10 27
 (1652907094.039897)  can0  1E5   [8]  1C 00 69 10 00 00 00 D1
 (1652907094.040391)  can0  012   [8]  E8 03 10 00 96 99 3B 00
 (1652907094.041591)  can0  014   [5]  00 00 00 0F 27
 (1652907094.049916)  can0  1E5   [8]  1C 00 6A 30 01 00 00 F3
 (1652907094.050073)  can0  010   [4]  26 73 00 00
 (1652907094.050348)  can0  012   [8]  E8 03 10 00 96 99 3B 00
 (1652907094.051576)  can0  014   [5]  00 F0 FF 14 27
 (1652907094.060111)  can0  1E5   [8]  1C 00 6A 50 01 00 01 13
 (1652907094.060359)  can0  012   [8]  E8 03 10 00 96 99 3B 00
 (1652907094.061599)  can0  014   [5]  00 00 00 0C 27
 (1652907094.069871)  can0  1E5   [8]  1C 00 6A 70 01 00 01 33
 (1652907094.070363)  can0  012   [8]  E8 03 10 00 96 99 3B 00
 (1652907094.071575)  can0  014   [5]  00 00 00 11 27
 (1652907094.079861)  can0  1E5   [8]  1C 00 6A 10 01 00 00 D3
 (1652907094.080363)  can0  012   [8]  E8 03 10 00 97 99 3B 00
 (1652907094.081638)  can0  014   [5]  00 00 00 10 27
 (1652907094.089861)  can0  1E5   [8]  1C 00 69 30 00 00 00 F1
 (1652907094.090358)  can0  012   [8]  E8 03 10 00 97 99 3B 00
 (1652907094.091576)  can0  014   [5]  00 F0 FF 10 27
 (1652907094.099836)  can0  1E5   [8]  1C 00 6A 50 00 00 01 12
 (1652907094.100360)  can0  012   [8]  E8 03 10 00 97 99 3B 00
 (1652907094.101578)  can0  014   [5]  00 00 00 10 27
 (1652907094.110690)  can0  1E5   [8]  1C 00 69 70 00 00 01 31
 (1652907094.110699)  can0  012   [8]  E8 03 10 00 97 99 3B 00
 (1652907094.111569)  can0  014   [5]  01 00 00 0F 27
 (1652907094.120046)  can0  1E5   [8]  1C 00 6A 10 00 00 00 D2
 (1652907094.120360)  can0  012   [8]  E8 03 10 00 97 99 3B 00
 (1652907094.121565)  can0  014   [5]  00 F0 FF 11 27
 (1652907094.129876)  can0  1E5   [8]  1C 00 69 30 00 00 00 F1
 (1652907094.130358)  can0  012   [8]  E8 03 10 00 97 99 3B 00
 (1652907094.131581)  can0  014   [5]  FF 0F 00 10 27
 (1652907094.140065)  can0  1E5   [8]  1C 00 69 50 00 00 01 11
 (1652907094.140364)  can0  012   [8]  E8 03 10 00 97 99 3B 00
 (1652907094.141611)  can0  014   [5]  00 00 00 10 27
 (1652907094.149843)  can0  1E5   [8]  1C 00 69 70 00 00 01 31
 (1652907094.150073)  can0  010   [4]  26 73 00 00
 (1652907094.150363)  can0  012   [8]  E8 03 10 00 98 99 3B 00
 (1652907094.151595)  can0  014   [5]  00 00 00 12 27
 (1652907094.160261)  can0  1E5   [8]  1C 00 69 10 00 00 00 D1
 (1652907094.160353)  can0  012   [8]  E8 03 10 00 98 99 3B 00
 (1652907094.161583)  can0  014   [5]  00 00 00 0E 27
 (1652907094.169866)  can0  1E5   [8]  1C 00 69 30 00 00 00 F1
 (1652907094.170389)  can0  012   [8]  E8 03 10 00 98 99 3B 00
 (1652907094.171587)  can0  014   [5]  00 00 00 10 27
 (1652907094.179875)  can0  1E5   [8]  1C 00 69 50 00 00 01 11
 (1652907094.180387)  can0  012   [8]  E8 03 10 00 98 99 3B 00
 (1652907094.181605)  can0  014   [5]  00 00 00 0F 27
 (1652907094.190146)  can0  1E5   [8]  1C 00 6A 70 00 00 01 32
 (1652907094.190400)  can0  012   [8]  E8 03 10 00 98 99 3B 00
 (1652907094.191604)  can0  014   [5]  00 F0 FF 11 27
 (1652907094.199853)  can0  1E5   [8]  1C 00 69 10 00 00 00 D1
 (1652907094.200354)  can0  012   [8]  E8 03 10 00 98 99 3B 00
 (1652907094.201565)  can0  014   [5]  00 00 00 10 27
 (1652907094.209850)  can0  1E5   [8]  1C 00 6A 30 00 00 00 F2
 (1652907094.210392)  can0  012   [8]  E8 03 10 00 98 99 3B 00
 (1652907094.211582)  can0  014   [5]  00 00 00 10 27
 (1652907094.219852)  can0  1E5   [8]  1C 00 69 50 00 00 01 11
 (1652907094.220359)  can0  012   [8]  E8 03 10 00 98 99 3B 00
 (1652907094.221583)  can0  014   [5]  00 00 00 10 27
 (1652907094.229847)  can0  1E5   [8]  1C 00 6A 70 00 00 01 32
 (1652907094.230355)  can0  012   [8]  E8 03 10 00 98 99 3B 00
 (1652907094.231599)  can0  014   [5]  00 00 00 0F 27
 (1652907094.239909)  can0  1E5   [8]  1C 00 6A 10 00 00 00 D2
 (1652907094.240403)  can0  012   [8]  E8 03 10 00 98 99 3B 00
 (1652907094.241586)  can0  014   [5]  00 00 00 11 27
 (1652907094.249840)  can0  1E5   [8]  1C 00 6A 30 00 00 00 F2
 (1652907094.250088)  can0  010   [4]  26 73 00 00
 (1652907094.250397)  can0  012   [8]  E8 03 10 00 98 99 3B 00
 (1652907094.251575)  can0  014   [5]  00 F0 FF 12 27
 (1652907094.260176)  can0  1E5   [8]  1C 00 6A 50 00 00 01 12
 (1652907094.260363)  can0  012   [8]  E8 03 10 00 98 99 3B 00
 (1652907094.261583)  can0  014   [5]  00 00 00 0E 27
 (1652907094.270031)  can0  1E5   [8]  1C 00 69 70 00 00 01 31
 (1652907094.270353)  can0  012   [8]  E8 03 10 00 98 99 3B 00
 (1652907094.271611)  can0  014   [5]  FF 0F 00 10 27
 (1652907094.279872)  can0  1E5   [8]  1C 00 6A 10 00 00 00 D2
 (1652907094.280407)  can0  012   [8]  E8 03 10 00 98 99 3B 00
 (1652907094.281615)  can0  014   [5]  00 00 00 10 27
 (1652907094.289882)  can0  1E5   [8]  1C 00 6A 30 00 00 00 F2
 (1652907094.290408)  can0  012   [8]  E8 03 10 00 98 99 3B 00
 (1652907094.291618)  can0  014   [5]  00 00 00 10 27
 (1652907094.299871)  can0  1E5   [8]  1C 00 6A 50 00 00 01 12
 (1652907094.300402)  can0  012   [8]  E8 03 10 00 98 99 3B 00
 (1652907094.301583)  can0  014   [5]  00 F0 FF 0F 27
 (1652907094.310430)  can0  1E5   [8]  1C 00 6A 70 00 00 01 32
 (1652907094.310439)  can0  012   [8]  E8 03 10 00 98 99 3B 00
 (1652907094.311596)  can0  014   [5]  00 00 00 11 27
 (1652907094.319872)  can0  1E5   [8]  1C 00 6A 10 00 00 00 D2
 (1652907094.320397)  can0  012   [8]  E8 03 10 00 98 99 3B 00
 (1652907094.321611)  can0  014   [5]  FF 0F 00 10 27
 (1652907094.329845)  can0  1E5   [8]  1C 00 6A 30 00 00 00 F2
 (1652907094.330347)  can0  012   [8]  E8 03 10 00 98 99 3B 00
 (1652907094.331606)  can0  014   [5]  00 00 00 10 27
 (1652907094.340042)  can0  1E5   [8]  1C 00 6A 50 00 00 01 12
 (1652907094.340353)  can0  012   [8]  E8 03 10 00 98 99 3B 00
 (1652907094.341621)  can0  014   [5]  00 00 00 10 27
 (1652907094.349875)  can0  1E5   [8]  1C 00 6A 70 00 00 01 32
 (1652907094.350090)  can0  010   [4]  26 73 00 00
 (1652907094.350354)  can0  012   [8]  E8 03 10 00 98 99 3B 00
 (1652907094.351609)  can0  014   [5]  00 00 00 12 27
 (1652907094.359848)  can0  1E5   [8]  1C 00 6A 10 00 00 00 D2
 (1652907094.360392)  can0  012   [8]  E8 03 10 00 98 99 3B 00
 (1652907094.361611)  can0  014   [5]  00 00 00 0E 27
 (1652907094.369842)  can0  1E5   [8]  1C 00 69 30 00 00 00 F1
 (1652907094.370357)  can0  012   [8]  E8 03 10 00 98 99 3B 00
 (1652907094.371616)  can0  014   [5]  01 00 00 0F 27
 (1652907094.379875)  can0  1E5   [8]  1C 00 6A 50 00 00 01 12
 (1652907094.380366)  can0  012   [8]  E8 03 10 00 98 99 3B 00
 (1652907094.381592)  can0  014   [5]  00 00 00 11 27
 (1652907094.390032)  can0  1E5   [8]  1C 00 6A 70 00 00 01 32
 (1652907094.390365)  can0  012   [8]  E8 03 10 00 98 99 3B 00
 (1652907094.391575)  can0  014   [5]  00 00 00 10 27
 (1652907094.399839)  can0  1E5   [8]  1C 00 6A 10 00 00 00 D2
 (1652907094.400351)  can0  012   [8]  E8 03 10 00 98 99 3B 00
 (1652907094.401582)  can0  014   [5]  FF 0F 00 10 27
 (1652907094.410411)  can0  1E5   [8]  1C 00 69 30 00 00 00 F1
 (1652907094.410420)  can0  012   [8]  E8 03 10 00 98 99 3B 00
 (1652907094.411580)  can0  014   [5]  00 F0 FF 10 27
 (1652907094.420013)  can0  1E5   [8]  1C 00 6A 50 00 00 01 12
 (1652907094.420403)  can0  012   [8]  E8 03 10 00 98 99 3B 00
 (1652907094.421601)  can0  014   [5]  00 00 00 0F 27
 (1652907094.429872)  can0  1E5   [8]  1C 00 6A 70 00 00 01 32
 (1652907094.430368)  can0  012   [8]  E8 03 10 00 98 99 3B 00
 (1652907094.431604)  can0  014   [5]  00 00 00 11 27
 (1652907094.440022)  can0  1E5   [8]  1C 00 6A 10 00 00 00 D2
 (1652907094.440391)  can0  012   [8]  E8 03 10 00 98 99 3B 00
 (1652907094.441613)  can0  014   [5]  00 00 00 10 27
 (1652907094.449841)  can0  1E5   [8]  1C 00 6A 30 00 00 00 F2
 (1652907094.450073)  can0  010   [4]  26 73 00 00
 (1652907094.450359)  can0  012   [8]  E8 03 10 00 98 99 3B 00
 (1652907094.451615)  can0  014   [5]  00 00 00 12 27
 (1652907094.459841)  can0  1E5   [8]  1C 00 6A 50 00 00 01 12
 (1652907094.460360)  can0  012   [8]  E8 03 10 00 98 99 3B 00
 (1652907094.461575)  can0  014   [5]  FF 0F 00 0E 27
 (1652907094.469876)  can0  1E5   [8]  1C 00 6A 70 00 00 01 32
 (1652907094.470365)  can0  012   [8]  E8 03 10 00 98 99 3B 00
 (1652907094.471589)  can0  014   [5]  00 00 00 10 27
 (1652907094.479843)  can0  1E5   [8]  1C 00 6A 10 00 00 00 D2
 (1652907094.480361)  can0  012   [8]  E8 03 10 00 98 99 3B 00
 (1652907094.481611)  can0  014   [5]  00 00 00 10 27
 (1652907094.489869)  can0  1E5   [8]  1C 00 6A 30 00 00 00 F2
 (1652907094.490418)  can0  012   [8]  E8 03 10 00 98 99 3B 00
 (1652907094.491623)  can0  014   [5]  00 00 00 0F 27
 (1652907094.499852)  can0  1E5   [8]  1C 00 6A 50 00 00 01 12
 (1652907094.500340)  can0  012   [8]  E8 03 10 00 98 99 3B 00
 (1652907094.501587)  can0  014   [5]  00 00 00 11 27
 (1652907094.509871)  can0  1E5   [8]  1C 00 69 70 00 00 01 31
 (1652907094.510387)  can0  012   [8]  E8 03 10 00 98 99 3B 00
 (1652907094.511590)  can0  014   [5]  00 00 00 10 27
 (1652907094.519863)  can0  1E5   [8]  1C 00 6A 10 00 00 00 D2
 (1652907094.520354)  can0  012   [8]  E8 03 10 00 98 99 3B 00
 (1652907094.521588)  can0  014   [5]  00 00 00 10 27
 (1652907094.529865)  can0  1E5   [8]  1C 00 6A 30 00 00 00 F2
 (1652907094.530388)  can0  012   [8]  E8 03 10 00 98 99 3B 00
 (1652907094.531593)  can0  014   [5]  00 00 00 10 27
 (1652907094.540025)  can0  1E5   [8]  1C 00 6A 50 00 00 01 12
 (1652907094.540382)  can0  012   [8]  E8 03 10 00 98 99 3B 00
 (1652907094.541591)  can0  014   [5]  00 00 00 0F 27
 (1652907094.549876)  can0  1E5   [8]  1C 00 6A 70 00 00 01 32
 (1652907094.550117)  can0  010   [4]  26 73 00 00
 (1652907094.550351)  can0  012   [8]  E8 03 10 00 98 99 3B 00
 (1652907094.551570)  can0  014   [5]  00 F0 FF 14 27
 (1652907094.560012)  can0  1E5   [8]  1C 00 6A 10 00 00 00 D2
 (1652907094.560379)  can0  012   [8]  E8 03 10 00 98 99 3B 00
 (1652907094.561617)  can0  014   [5]  FF 0F 00 0C 27
 (1652907094.570043)  can0  1E5   [8]  1C 00 6A 30 00 00 00 F2
 (1652907094.570407)  can0  012   [8]  E8 03 10 00 98 99 3B 00
 (1652907094.571624)  can0  014   [5]  00 00 00 11 27
 (1652907094.579900)  can0  1E5   [8]  1C 00 6A 50 00 00 01 12
 (1652907094.580342)  can0  012   [8]  E8 03 10 00 98 99 3B 00
 (1652907094.581613)  can0  014   [5]  00 00 00 10 27
 (1652907094.590024)  can0  1E5   [8]  1C 00 6A 70 00 00 01 32
 (1652907094.590405)  can0  012   [8]  E8 03 10 00 98 99 3B 00
 (1652907094.592101)  can0  014   [5]  FF 0F 00 10 27
 (1652907094.599840)  can0  1E5   [8]  1C 00 6A 10 00 00 00 D2
 (1652907094.600368)  can0  012   [8]  E8 03 10 00 98 99 3B 00
 (1652907094.601586)  can0  014   [5]  00 F0 FF 10 27
 (1652907094.610615)  can0  1E5   [8]  1C 00 6A 30 00 00 00 F2
 (1652907094.610624)  can0  012   [8]  E8 03 10 00 98 99 3B 00
 (1652907094.611571)  can0  014   [5]  00 00 00 0F 27
 (1652907094.619878)  can0  1E5   [8]  1C 00 6A 50 00 00 01 12
 (1652907094.620391)  can0  012   [8]  E8 03 10 00 98 99 3B 00
 (1652907094.621629)  can0  014   [5]  00 00 00 11 27
 (1652907094.629836)  can0  1E5   [8]  1C 00 6A 70 00 00 01 32
 (1652907094.630354)  can0  012   [8]  E8 03 10 00 98 99 3B 00
 (1652907094.631636)  can0  014   [5]  00 00 00 10 27
 (1652907094.639863)  can0  1E5   [8]  1C 00 6A 10 00 00 00 D2
 (1652907094.640384)  can0  012   [8]  E8 03 10 00 98 99 3B 00
 (1652907094.641592)  can0  014   [5]  00 00 00 10 27
 (1652907094.649910)  can0  1E5   [8]  1C 00 6A 30 00 00 00 F2
 (1652907094.650077)  can0  010   [4]  26 73 00 00
 (1652907094.650342)  can0  012   [8]  E8 03 10 00 98 99 3B 00
 (1652907094.651589)  can0  014   [5]  00 00 00 12 27
 (1652907094.660738)  can0  1E5   [8]  1C 00 6A 50 00 00 01 12
 (1652907094.660747)  can0  012   [8]  E8 03 10 00 98 99 3B 00
 (1652907094.661588)  can0  014   [5]  00 00 00 0E 27
 (1652907094.670079)  can0  1E5   [8]  1C 00 6A 70 00 00 01 32
 (1652907094.670388)  can0  012   [8]  E8 03 10 00 98 99 3B 00
 (1652907094.671587)  can0  014   [5]  00 00 00 10 27
 (1652907094.679869)  can0  1E5   [8]  1C 00 6A 10 00 00 00 D2
 (1652907094.680349)  can0  012   [8]  E8 03 10 00 98 99 3B 00
 (1652907094.681603)  can0  014   [5]  00 00 00 0F 27
 (1652907094.689859)  can0  1E5   [8]  1C 00 6A 30 00 00 00 F2
 (1652907094.690401)  can0  012   [8]  E8 03 10 00 98 99 3B 00
 (1652907094.691605)  can0  014   [5]  00 F0 FF 11 27
 (1652907094.699857)  can0  1E5   [8]  1C 00 6A 50 00 00 01 12
 (1652907094.700395)  can0  012   [8]  E8 03 10 00 98 99 3B 00
 (1652907094.701602)  can0  014   [5]  FF 0F 00 10 27
 (1652907094.709863)  can0  1E5   [8]  1C 00 6A 70 00 00 01 32
 (1652907094.710397)  can0  012   [8]  E8 03 10 00 98 99 3B 00
 (1652907094.711614)  can0  014   [5]  00 00 00 10 27
 (1652907094.719862)  can0  1E5   [8]  1C 00 6A 10 00 00 00 D2
 (1652907094.720394)  can0  012   [8]  E8 03 10 00 98 99 3B 00
 (1652907094.721625)  can0  014   [5]  00 F0 FF 10 27
 (1652907094.729857)  can0  1E5   [8]  1C 00 6A 30 00 00 00 F2
 (1652907094.730425)  can0  012   [8]  E8 03 10 00 98 99 3B 00
 (1652907094.731567)  can0  014   [5]  FF 0F 00 0F 27
 (1652907094.739869)  can0  1E5   [8]  1C 00 6A 50 00 00 01 12
 (1652907094.740413)  can0  012   [8]  E8 03 10 00 98 99 3B 00
 (1652907094.741601)  can0  014   [5]  00 00 00 11 27
 (1652907094.749826)  can0  1E5   [8]  1C 00 6A 70 00 00 01 32
 (1652907094.750083)  can0  010   [4]  26 73 00 00
 (1652907094.750342)  can0  012   [8]  E8 03 10 00 98 99 3B 00
 (1652907094.751574)  can0  014   [5]  00 00 00 12 27
 (1652907094.760218)  can0  1E5   [8]  1C 00 6A 10 00 00 00 D2
 (1652907094.760361)  can0  012   [8]  E8 03 10 00 98 99 3B 00
 (1652907094.761570)  can0  014   [5]  FF 0F 00 0E 27
 (1652907094.770020)  can0  1E5   [8]  1C 00 6A 30 00 00 00 F2
 (1652907094.770351)  can0  012   [8]  E8 03 10 00 98 99 3B 00
 (1652907094.771574)  can0  014   [5]  00 00 00 10 27
 (1652907094.779839)  can0  1E5   [8]  1C 00 6A 50 00 00 01 12
 (1652907094.780369)  can0  012   [8]  E8 03 10 00 98 99 3B 00
 (1652907094.781586)  can0  014   [5]  00 00 00 10 27
 (1652907094.790021)  can0  1E5   [8]  1C 00 6A 70 00 00 01 32
 (1652907094.790395)  can0  012   [8]  E8 03 10 00 98 99 3B 00
 (1652907094.791620)  can0  014   [5]  00 00 00 10 27
 (1652907094.799846)  can0  1E5   [8]  1C 00 6A 10 00 00 00 D2
 (1652907094.800388)  can0  012   [8]  E8 03 10 00 98 99 3B 00
 (1652907094.801573)  can0  014   [5]  00 00 00 0F 27
 (1652907094.810384)  can0  1E5   [8]  1C 00 6A 30 00 00 00 F2
 (1652907094.810392)  can0  012   [8]  E8 03 10 00 98 99 3B 00
 (1652907094.811594)  can0  014   [5]  00 00 00 11 27
 (1652907094.819865)  can0  1E5   [8]  1C 00 6A 50 00 00 01 12
 (1652907094.820382)  can0  012   [8]  E8 03 10 00 98 99 3B 00
 (1652907094.821620)  can0  014   [5]  01 00 00 10 27
 (1652907094.829865)  can0  1E5   [8]  1C 00 6A 70 00 00 01 32
 (1652907094.830408)  can0  012   [8]  E8 03 10 00 98 99 3B 00
 (1652907094.831627)  can0  014   [5]  00 00 00 10 27
 (1652907094.839852)  can0  1E5   [8]  1C 00 6A 10 00 00 00 D2
