 (1652892565.705690)  can0  010   [4]  26 73 00 00
 (1652892565.705782)  can0  012   [8]  E8 03 10 00 00 00 00 00
 (1652892565.706697)  can0  1E5   [8]  1C 03 07 70 00 00 00 D2
 (1652892565.706900)  can0  014   [5]  00 00 00 13 27
 (1652892565.716306)  can0  012   [8]  E8 03 10 00 00 00 00 00
 (1652892565.716683)  can0  1E5   [8]  1C 03 07 10 00 00 00 72
 (1652892565.716888)  can0  014   [5]  00 00 00 0D 27
 (1652892565.726402)  can0  012   [8]  E8 03 10 00 00 00 00 00
 (1652892565.726687)  can0  1E5   [8]  1C 03 07 30 00 00 00 92
 (1652892565.726915)  can0  014   [5]  00 00 00 10 27
 (1652892565.735963)  can0  012   [8]  E8 03 10 00 00 00 00 00
 (1652892565.736701)  can0  1E5   [8]  1C 03 07 50 00 00 00 B2
 (1652892565.736906)  can0  014   [5]  00 00 00 10 27
 (1652892565.745792)  can0  012   [8]  E8 03 10 00 00 00 00 00
 (1652892565.746685)  can0  1E5   [8]  1C 03 07 70 00 00 00 D2
 (1652892565.746912)  can0  014   [5]  00 00 00 10 27
 (1652892565.755979)  can0  012   [8]  E8 03 10 00 00 00 00 00
 (1652892565.756697)  can0  1E5   [8]  1C 03 07 10 00 00 00 72
 (1652892565.756903)  can0  014   [5]  00 00 00 0F 27
 (1652892565.765981)  can0  012   [8]  E8 03 10 00 00 00 00 00
 (1652892565.766690)  can0  1E5   [8]  1C 03 07 30 00 00 00 92
 (1652892565.766892)  can0  014   [5]  00 00 00 11 27
 (1652892565.775975)  can0  012   [8]  E8 03 10 00 00 00 00 00
 (1652892565.776702)  can0  1E5   [8]  1C 03 07 50 00 00 00 B2
 (1652892565.776909)  can0  014   [5]  00 00 00 10 27
 (1652892565.785986)  can0  012   [8]  E8 03 10 00 00 00 00 00
 (1652892565.786700)  can0  1E5   [8]  1C 03 09 70 01 00 00 D5
 (1652892565.786848)  can0  014   [5]  00 00 00 0F 27
 (1652892565.795975)  can0  012   [8]  E8 03 10 00 00 00 00 00
 (1652892565.796678)  can0  1E5   [8]  1C 03 09 10 01 00 00 75
 (1652892565.796901)  can0  014   [5]  00 00 00 10 27
 (1652892565.805611)  can0  010   [4]  26 73 00 00
 (1652892565.805800)  can0  012   [8]  E8 03 10 00 00 00 00 00
 (1652892565.806693)  can0  1E5   [8]  1C 03 07 30 00 00 00 92
 (1652892565.806912)  can0  014   [5]  00 00 00 14 27
 (1652892565.815974)  can0  012   [8]  E8 03 10 00 00 00 00 00
 (1652892565.816678)  can0  1E5   [8]  1C 03 09 50 00 00 00 B4
 (1652892565.816908)  can0  014   [5]  00 00 00 0D 27
 (1652892565.825969)  can0  012   [8]  E8 03 10 00 00 00 00 00
 (1652892565.826696)  can0  1E5   [8]  1C 03 09 70 00 00 00 D4
 (1652892565.826902)  can0  014   [5]  00 00 00 0F 27
 (1652892565.835979)  can0  012   [8]  E8 03 10 00 00 00 00 00
 (1652892565.836693)  can0  1E5   [8]  1C 03 09 10 00 00 00 74
 (1652892565.836894)  can0  014   [5]  00 00 00 10 27
 (1652892565.845980)  can0  012   [8]  E8 03 10 00 00 00 00 00
 (1652892565.846697)  can0  1E5   [8]  1C 03 09 30 00 00 00 94
 (1652892565.846896)  can0  014   [5]  00 00 00 10 27
 (1652892565.855987)  can0  012   [8]  E8 03 10 00 00 00 00 00
 (1652892565.856679)  can0  1E5   [8]  1C 03 09 50 00 00 00 B4
 (1652892565.856911)  can0  014   [5]  00 00 00 10 27
 (1652892565.865979)  can0  012   [8]  E8 03 10 00 00 00 00 00
 (1652892565.866678)  can0  1E5   [8]  1C 03 09 70 00 00 00 D4
 (1652892565.866906)  can0  014   [5]  00 00 00 11 27
 (1652892565.875986)  can0  012   [8]  E8 03 10 00 00 00 00 00
 (1652892565.876693)  can0  1E5   [8]  1C 03 09 10 00 00 00 74
 (1652892565.876894)  can0  014   [5]  00 00 00 0F 27
 (1652892565.885988)  can0  012   [8]  E8 03 10 00 00 00 00 00
 (1652892565.886682)  can0  1E5   [8]  1C 03 09 30 00 00 00 94
 (1652892565.886908)  can0  014   [5]  00 00 00 11 27
 (1652892565.895977)  can0  012   [8]  E8 03 10 00 00 00 00 00
 (1652892565.896695)  can0  1E5   [8]  1C 03 09 50 00 00 00 B4
 (1652892565.896894)  can0  014   [5]  00 00 00 0F 27
 (1652892565.905606)  can0  010   [4]  26 73 00 00
 (1652892565.905812)  can0  012   [8]  E8 03 10 00 00 00 00 00
 (1652892565.906679)  can0  1E5   [8]  1C 03 09 70 00 00 00 D4
 (1652892565.906908)  can0  014   [5]  00 00 00 13 27
 (1652892565.916023)  can0  012   [8]  E8 03 10 00 00 00 00 00
 (1652892565.916679)  can0  1E5   [8]  1C 03 09 10 00 00 00 74
 (1652892565.916894)  can0  014   [5]  00 00 00 0D 27
 (1652892565.926049)  can0  012   [8]  E8 03 10 00 00 00 00 00
 (1652892565.926693)  can0  1E5   [8]  1C 03 09 30 00 00 00 94
 (1652892565.926890)  can0  014   [5]  00 00 00 10 27
 (1652892565.936061)  can0  012   [8]  E8 03 10 00 00 00 00 00
 (1652892565.936662)  can0  1E5   [8]  1C 03 09 50 00 00 00 B4
 (1652892565.936853)  can0  014   [5]  00 00 00 0F 27
 (1652892565.946083)  can0  012   [8]  E8 03 10 00 00 00 00 00
 (1652892565.946688)  can0  1E5   [8]  1C 03 09 70 00 00 00 D4
 (1652892565.946904)  can0  014   [5]  00 00 00 11 27
 (1652892565.956103)  can0  012   [8]  E8 03 10 00 00 00 00 00
 (1652892565.956685)  can0  1E5   [8]  1C 03 09 10 00 00 00 74
 (1652892565.956894)  can0  014   [5]  00 00 00 10 27
 (1652892565.965974)  can0  012   [8]  E8 03 10 00 00 00 00 00
 (1652892565.966678)  can0  1E5   [8]  1C 03 09 30 00 00 00 94
 (1652892565.966901)  can0  014   [5]  00 00 00 0F 27
 (1652892565.975989)  can0  012   [8]  E8 03 10 00 00 00 00 00
 (1652892565.976685)  can0  1E5   [8]  1C 03 07 50 00 00 00 B2
 (1652892565.976889)  can0  014   [5]  00 00 00 11 27
 (1652892565.985987)  can0  012   [8]  E8 03 10 00 00 00 00 00
 (1652892565.986679)  can0  1E5   [8]  1C 03 07 70 00 00 00 D2
 (1652892565.986854)  can0  014   [5]  00 00 00 10 27
 (1652892565.995980)  can0  012   [8]  E8 03 10 00 00 00 00 00
 (1652892565.996683)  can0  1E5   [8]  1C 03 07 10 00 00 00 72
 (1652892565.996889)  can0  014   [5]  FF 0F 00 0F 27
 (1652892566.005404)  can0  010   [4]  26 73 00 00
 (1652892566.005531)  can0  0E2   [2]  90 02
 (1652892566.005764)  can0  012   [8]  E8 03 10 00 00 00 00 00
 (1652892566.005894)  can0  0E3   [2]  90 02
 (1652892566.006682)  can0  1E5   [8]  1C 03 07 30 00 00 00 92
 (1652892566.006905)  can0  014   [5]  00 00 00 1A 27
 (1652892566.007037)  can0  0E4   [2]  90 02
 (1652892566.016031)  can0  012   [8]  E8 03 10 00 00 00 00 00
 (1652892566.016681)  can0  1E5   [8]  1C 03 07 50 00 00 00 B2
 (1652892566.016907)  can0  014   [5]  00 00 00 07 27
 (1652892566.025981)  can0  012   [8]  E8 03 10 00 00 00 00 00
 (1652892566.026679)  can0  1E5   [8]  1C 03 07 70 00 00 00 D2
 (1652892566.026900)  can0  014   [5]  00 00 00 0F 27
 (1652892566.035971)  can0  012   [8]  E8 03 10 00 00 00 00 00
 (1652892566.036672)  can0  1E5   [8]  1C 03 09 10 00 00 00 74
 (1652892566.036895)  can0  014   [5]  00 00 00 10 27
 (1652892566.045983)  can0  012   [8]  E8 03 10 00 00 00 00 00
 (1652892566.046685)  can0  1E5   [8]  1C 03 07 30 00 00 00 92
 (1652892566.046903)  can0  014   [5]  00 00 00 11 27
 (1652892566.055977)  can0  012   [8]  E8 03 10 00 00 00 00 00
 (1652892566.056668)  can0  1E5   [8]  1C 03 07 50 00 00 00 B2
 (1652892566.056907)  can0  014   [5]  00 00 00 0F 27
 (1652892566.065989)  can0  012   [8]  E8 03 10 00 00 00 00 00
 (1652892566.066687)  can0  1E5   [8]  1C 03 07 70 00 00 00 D2
 (1652892566.066906)  can0  014   [5]  00 00 00 10 27
 (1652892566.076014)  can0  012   [8]  E8 03 10 00 00 00 00 00
 (1652892566.076678)  can0  1E5   [8]  1C 03 07 10 00 00 00 72
 (1652892566.076893)  can0  014   [5]  00 00 00 10 27
 (1652892566.085987)  can0  012   [8]  E8 03 10 00 00 00 00 00
 (1652892566.086673)  can0  1E5   [8]  1C 03 09 30 00 00 00 94
 (1652892566.086890)  can0  014   [5]  00 00 00 10 27
 (1652892566.095982)  can0  012   [8]  E8 03 10 00 00 00 00 00
 (1652892566.096671)  can0  1E5   [8]  1C 03 07 50 00 00 00 B2
 (1652892566.096897)  can0  014   [5]  00 00 00 10 27
 (1652892566.105603)  can0  010   [4]  26 73 00 00
 (1652892566.105801)  can0  012   [8]  E8 03 10 00 00 00 00 00
 (1652892566.106670)  can0  1E5   [8]  1C 03 09 70 00 00 00 D4
 (1652892566.106893)  can0  014   [5]  00 00 00 13 27
 (1652892566.115976)  can0  012   [8]  E8 03 10 00 00 00 00 00
 (1652892566.116676)  can0  1E5   [8]  1C 03 09 10 00 00 00 74
 (1652892566.116901)  can0  014   [5]  00 00 00 0C 27
 (1652892566.125967)  can0  012   [8]  E8 03 10 00 00 00 00 00
 (1652892566.126677)  can0  1E5   [8]  1C 03 07 30 00 00 00 92
 (1652892566.126894)  can0  014   [5]  00 00 00 11 27
 (1652892566.135985)  can0  012   [8]  E8 03 10 00 00 00 00 00
 (1652892566.136671)  can0  1E5   [8]  1C 03 09 50 00 00 00 B4
 (1652892566.136890)  can0  014   [5]  00 00 00 10 27
 (1652892566.145975)  can0  012   [8]  E8 03 10 00 00 00 00 00
 (1652892566.146672)  can0  1E5   [8]  1C 03 07 70 00 00 00 D2
 (1652892566.146895)  can0  014   [5]  00 00 00 0E 27
 (1652892566.155941)  can0  012   [8]  E8 03 10 00 00 00 00 00
 (1652892566.156679)  can0  1E5   [8]  1C 03 09 10 00 00 00 74
 (1652892566.156904)  can0  014   [5]  00 00 00 12 27
 (1652892566.165953)  can0  012   [8]  E8 03 10 00 00 00 00 00
 (1652892566.166672)  can0  1E5   [8]  1C 03 07 30 00 00 00 92
 (1652892566.166895)  can0  014   [5]  00 00 00 10 27
 (1652892566.175966)  can0  012   [8]  E8 03 10 00 00 00 00 00
 (1652892566.176668)  can0  1E5   [8]  1C 03 07 50 00 00 00 B2
 (1652892566.176892)  can0  014   [5]  00 00 00 0D 27
 (1652892566.185970)  can0  012   [8]  E8 03 10 00 00 00 00 00
 (1652892566.186673)  can0  1E5   [8]  1C 03 07 70 00 00 00 D2
 (1652892566.186890)  can0  014   [5]  00 00 00 12 27
 (1652892566.195819)  can0  012   [8]  E8 03 10 00 00 00 00 00
 (1652892566.196663)  can0  1E5   [8]  1C 03 07 10 00 00 00 72
 (1652892566.196849)  can0  014   [5]  00 00 00 11 27
 (1652892566.205438)  can0  010   [4]  26 73 00 00
 (1652892566.205813)  can0  012   [8]  E8 03 10 00 00 00 00 00
 (1652892566.206684)  can0  1E5   [8]  1C 03 07 30 00 00 00 92
 (1652892566.206899)  can0  014   [5]  00 00 00 13 27
 (1652892566.215857)  can0  012   [8]  E8 03 10 00 00 00 00 00
 (1652892566.216677)  can0  1E5   [8]  1C 03 07 50 00 00 00 B2
 (1652892566.216899)  can0  014   [5]  00 00 00 0B 27
 (1652892566.225953)  can0  012   [8]  E8 03 10 00 00 00 00 00
 (1652892566.226676)  can0  1E5   [8]  1C 03 07 70 00 00 00 D2
 (1652892566.226895)  can0  014   [5]  00 00 00 10 27
 (1652892566.235973)  can0  012   [8]  E8 03 10 00 00 00 00 00
 (1652892566.236665)  can0  1E5   [8]  1C 03 07 10 00 00 00 72
 (1652892566.236889)  can0  014   [5]  00 00 00 0F 27
 (1652892566.245966)  can0  012   [8]  E8 03 10 00 00 00 00 00
 (1652892566.246670)  can0  1E5   [8]  1C 03 07 30 00 00 00 92
 (1652892566.246856)  can0  014   [5]  00 00 00 12 27
 (1652892566.255963)  can0  012   [8]  E8 03 10 00 00 00 00 00
 (1652892566.256685)  can0  1E5   [8]  1C 03 07 50 00 00 00 B2
 (1652892566.256910)  can0  014   [5]  00 00 00 0E 27
 (1652892566.265971)  can0  012   [8]  E8 03 10 00 00 00 00 00
 (1652892566.266676)  can0  1E5   [8]  1C 03 07 70 00 00 00 D2
 (1652892566.266900)  can0  014   [5]  00 00 00 0F 27
 (1652892566.275966)  can0  012   [8]  E8 03 10 00 00 00 00 00
 (1652892566.276674)  can0  1E5   [8]  1C 03 07 10 00 00 00 72
 (1652892566.276854)  can0  014   [5]  01 00 00 12 27
 (1652892566.285805)  can0  012   [8]  E8 03 10 00 00 00 00 00
 (1652892566.286680)  can0  1E5   [8]  1C 03 07 30 00 00 00 92
 (1652892566.286893)  can0  014   [5]  00 00 00 10 27
 (1652892566.295975)  can0  012   [8]  E8 03 10 00 00 00 00 00
 (1652892566.296623)  can0  1E5   [8]  1C 03 07 50 00 00 00 B2
 (1652892566.296897)  can0  014   [5]  00 00 00 0D 27
 (1652892566.305607)  can0  010   [4]  26 73 00 00
 (1652892566.305790)  can0  012   [8]  E8 03 10 00 00 00 00 00
 (1652892566.306662)  can0  1E5   [8]  1C 03 07 70 00 00 00 D2
 (1652892566.306888)  can0  014   [5]  00 00 00 13 27
 (1652892566.315976)  can0  012   [8]  E8 03 10 00 00 00 00 00
 (1652892566.316677)  can0  1E5   [8]  1C 03 05 1F FF 00 01 7E
 (1652892566.316896)  can0  014   [5]  00 00 00 11 27
 (1652892566.325963)  can0  012   [8]  E8 03 10 00 00 00 00 00
 (1652892566.326676)  can0  1E5   [8]  1C 03 05 3F FF 00 01 9E
 (1652892566.326888)  can0  014   [5]  00 00 00 0C 27
 (1652892566.335973)  can0  012   [8]  E8 03 10 00 00 00 00 00
 (1652892566.336673)  can0  1E5   [8]  1C 03 07 50 00 00 00 B2
 (1652892566.336889)  can0  014   [5]  00 00 00 11 27
 (1652892566.346004)  can0  012   [8]  E8 03 10 00 00 00 00 00
 (1652892566.346680)  can0  1E5   [8]  1C 03 07 70 00 00 00 D2
 (1652892566.346895)  can0  014   [5]  00 00 00 10 27
 (1652892566.355982)  can0  012   [8]  E8 03 10 00 00 00 00 00
 (1652892566.356660)  can0  1E5   [8]  1C 03 07 10 00 00 00 72
 (1652892566.356855)  can0  014   [5]  00 00 00 10 27
 (1652892566.365970)  can0  012   [8]  E8 03 10 00 00 00 00 00
 (1652892566.366675)  can0  1E5   [8]  1C 03 07 30 00 00 00 92
 (1652892566.366899)  can0  014   [5]  00 10 00 11 27
 (1652892566.375972)  can0  012   [8]  E8 03 10 00 00 00 00 00
 (1652892566.376640)  can0  1E5   [8]  1C 03 07 50 00 00 00 B2
 (1652892566.376842)  can0  014   [5]  00 00 00 10 27
 (1652892566.386012)  can0  012   [8]  E8 03 10 00 00 00 00 00
 (1652892566.386665)  can0  1E5   [8]  1C 03 09 70 01 00 00 D5
 (1652892566.386885)  can0  014   [5]  00 00 00 0E 27
 (1652892566.395970)  can0  012   [8]  E8 03 10 00 00 00 00 00
 (1652892566.396666)  can0  1E5   [8]  1C 03 09 10 01 00 00 75
 (1652892566.396892)  can0  014   [5]  00 00 00 10 27
 (1652892566.405605)  can0  010   [4]  26 73 00 00
 (1652892566.405805)  can0  012   [8]  E8 03 10 00 00 00 00 00
 (1652892566.406661)  can0  1E5   [8]  1C 03 0A 30 02 00 00 97
 (1652892566.406893)  can0  014   [5]  00 00 00 14 27
 (1652892566.415973)  can0  012   [8]  E8 03 10 00 00 00 00 00
 (1652892566.416673)  can0  1E5   [8]  1C 03 09 50 00 00 00 B4
 (1652892566.416893)  can0  014   [5]  00 00 00 0C 27
 (1652892566.426005)  can0  012   [8]  E8 03 10 00 00 00 00 00
 (1652892566.426665)  can0  1E5   [8]  1C 03 09 70 00 00 00 D4
 (1652892566.426893)  can0  014   [5]  00 00 00 11 27
 (1652892566.436008)  can0  012   [8]  E8 03 10 00 00 00 00 00
 (1652892566.436657)  can0  1E5   [8]  1C 03 0A 10 00 00 00 75
 (1652892566.436897)  can0  014   [5]  00 00 00 0F 27
 (1652892566.446047)  can0  012   [8]  E8 03 10 00 00 00 00 00
 (1652892566.446669)  can0  1E5   [8]  1C 03 09 30 00 00 00 94
 (1652892566.446894)  can0  014   [5]  00 00 00 10 27
 (1652892566.456065)  can0  012   [8]  E8 03 10 00 00 00 00 00
 (1652892566.456678)  can0  1E5   [8]  1C 03 0A 50 00 00 00 B5
 (1652892566.456888)  can0  014   [5]  00 00 00 10 27
 (1652892566.466080)  can0  012   [8]  E8 03 10 00 00 00 00 00
 (1652892566.466663)  can0  1E5   [8]  1C 03 09 70 00 00 00 D4
 (1652892566.466885)  can0  014   [5]  00 00 00 10 27
 (1652892566.476098)  can0  012   [8]  E8 03 10 00 00 00 00 00
 (1652892566.476659)  can0  1E5   [8]  1C 03 0A 10 00 00 00 75
 (1652892566.476892)  can0  014   [5]  00 00 00 10 27
 (1652892566.485964)  can0  012   [8]  E8 03 10 00 00 00 00 00
 (1652892566.486674)  can0  1E5   [8]  1C 03 09 30 00 00 00 94
 (1652892566.486846)  can0  014   [5]  00 00 00 10 27
 (1652892566.495972)  can0  012   [8]  E8 03 10 00 00 00 00 00
 (1652892566.496658)  can0  1E5   [8]  1C 03 09 50 00 00 00 B4
 (1652892566.496897)  can0  014   [5]  00 00 00 10 27
 (1652892566.505596)  can0  010   [4]  26 73 00 00
 (1652892566.505795)  can0  012   [8]  E8 03 10 00 00 00 00 00
 (1652892566.506670)  can0  1E5   [8]  1C 03 09 70 00 00 00 D4
 (1652892566.506839)  can0  014   [5]  00 00 00 13 27
 (1652892566.515981)  can0  012   [8]  E8 03 10 00 00 00 00 00
 (1652892566.516659)  can0  1E5   [8]  1C 03 09 10 00 00 00 74
 (1652892566.516883)  can0  014   [5]  00 00 00 0D 27
 (1652892566.525977)  can0  012   [8]  E8 03 10 00 00 00 00 00
 (1652892566.526674)  can0  1E5   [8]  1C 03 09 30 00 00 00 94
 (1652892566.526895)  can0  014   [5]  00 00 00 10 27
 (1652892566.535963)  can0  012   [8]  E8 03 10 00 00 00 00 00
 (1652892566.536672)  can0  1E5   [8]  1C 03 09 50 00 00 00 B4
 (1652892566.536890)  can0  014   [5]  00 00 00 10 27
 (1652892566.545984)  can0  012   [8]  E8 03 10 00 00 00 00 00
 (1652892566.546662)  can0  1E5   [8]  1C 03 09 70 00 00 00 D4
 (1652892566.546901)  can0  014   [5]  00 00 00 10 27
 (1652892566.556015)  can0  012   [8]  E8 03 10 00 00 00 00 00
 (1652892566.556667)  can0  1E5   [8]  1C 03 09 10 00 00 00 74
 (1652892566.556885)  can0  014   [5]  00 00 00 10 27
 (1652892566.565984)  can0  012   [8]  E8 03 10 00 00 00 00 00
 (1652892566.566660)  can0  1E5   [8]  1C 03 09 30 00 00 00 94
 (1652892566.566903)  can0  014   [5]  00 00 00 10 27
 (1652892566.575984)  can0  012   [8]  E8 03 10 00 00 00 00 00
 (1652892566.576670)  can0  1E5   [8]  1C 03 07 5F FF 00 01 C0
 (1652892566.576886)  can0  014   [5]  00 00 00 10 27
 (1652892566.585978)  can0  012   [8]  E8 03 10 00 00 00 00 00
 (1652892566.586661)  can0  1E5   [8]  1C 03 09 70 00 00 00 D4
 (1652892566.586887)  can0  014   [5]  00 00 00 10 27
 (1652892566.595980)  can0  012   [8]  E8 03 10 00 00 00 00 00
 (1652892566.596657)  can0  1E5   [8]  1C 03 09 10 00 00 00 74
 (1652892566.596889)  can0  014   [5]  00 00 00 10 27
 (1652892566.605597)  can0  010   [4]  26 73 00 00
 (1652892566.605812)  can0  012   [8]  E8 03 10 00 00 00 00 00
 (1652892566.606658)  can0  1E5   [8]  1C 03 09 30 00 00 00 94
 (1652892566.606904)  can0  014   [5]  00 00 00 13 27
 (1652892566.615975)  can0  012   [8]  E8 03 10 00 00 00 00 00
 (1652892566.616652)  can0  1E5   [8]  1C 03 09 50 00 00 00 B4
 (1652892566.616893)  can0  014   [5]  00 00 00 0D 27
 (1652892566.625961)  can0  012   [8]  E8 03 10 00 00 00 00 00
 (1652892566.626648)  can0  1E5   [8]  1C 03 09 70 00 00 00 D4
 (1652892566.626891)  can0  014   [5]  00 00 00 10 27
 (1652892566.635976)  can0  012   [8]  E8 03 10 00 00 00 00 00
 (1652892566.636608)  can0  1E5   [8]  1C 03 09 10 00 00 00 74
 (1652892566.636890)  can0  014   [5]  00 00 00 10 27
 (1652892566.645969)  can0  012   [8]  E8 03 10 00 00 00 00 00
 (1652892566.646652)  can0  1E5   [8]  1C 03 09 30 00 00 00 94
 (1652892566.646893)  can0  014   [5]  00 00 00 10 27
 (1652892566.655987)  can0  012   [8]  E8 03 10 00 00 00 00 00
 (1652892566.656661)  can0  1E5   [8]  1C 03 09 50 00 00 00 B4
 (1652892566.656896)  can0  014   [5]  00 00 00 10 27
 (1652892566.665972)  can0  012   [8]  E8 03 10 00 00 00 00 00
 (1652892566.666628)  can0  1E5   [8]  1C 03 09 70 00 00 00 D4
 (1652892566.666848)  can0  014   [5]  00 00 00 10 27
 (1652892566.675964)  can0  012   [8]  E8 03 10 00 00 00 00 00
 (1652892566.676666)  can0  1E5   [8]  1C 03 09 10 00 00 00 74
 (1652892566.676890)  can0  014   [5]  00 00 00 10 27
 (1652892566.685954)  can0  012   [8]  E8 03 10 00 00 00 00 00
 (1652892566.686661)  can0  1E5   [8]  1C 03 09 30 00 00 00 94
 (1652892566.686906)  can0  014   [5]  00 00 00 10 27
 (1652892566.695999)  can0  012   [8]  E8 03 10 00 00 00 00 00
 (1652892566.696653)  can0  1E5   [8]  1C 03 09 50 00 00 00 B4
 (1652892566.696888)  can0  014   [5]  00 00 00 10 27
 (1652892566.705602)  can0  010   [4]  26 73 00 00
 (1652892566.705808)  can0  012   [8]  E8 03 10 00 00 00 00 00
 (1652892566.706663)  can0  1E5   [8]  1C 03 09 70 00 00 00 D4
 (1652892566.706853)  can0  014   [5]  00 00 00 13 27
 (1652892566.715969)  can0  012   [8]  E8 03 10 00 00 00 00 00
 (1652892566.716653)  can0  1E5   [8]  1C 03 07 10 00 00 00 72
 (1652892566.716848)  can0  014   [5]  00 00 00 0D 27
 (1652892566.725979)  can0  012   [8]  E8 03 10 00 00 00 00 00
 (1652892566.726666)  can0  1E5   [8]  1C 03 09 30 00 00 00 94
 (1652892566.726890)  can0  014   [5]  00 00 00 10 27
 (1652892566.735977)  can0  012   [8]  E8 03 10 00 00 00 00 00
 (1652892566.736661)  can0  1E5   [8]  1C 03 09 50 00 00 00 B4
 (1652892566.736886)  can0  014   [5]  00 F0 FF 10 27
 (1652892566.745982)  can0  012   [8]  E8 03 10 00 00 00 00 00
 (1652892566.746648)  can0  1E5   [8]  1C 03 07 70 00 00 00 D2
 (1652892566.746889)  can0  014   [5]  00 00 00 10 27
 (1652892566.755996)  can0  012   [8]  E8 03 10 00 00 00 00 00
 (1652892566.756654)  can0  1E5   [8]  1C 03 09 10 00 00 00 74
 (1652892566.756894)  can0  014   [5]  00 00 00 10 27
 (1652892566.765987)  can0  012   [8]  E8 03 10 00 00 00 00 00
 (1652892566.766654)  can0  1E5   [8]  1C 03 09 30 00 00 00 94
 (1652892566.766892)  can0  014   [5]  FF 0F 00 10 27
 (1652892566.775976)  can0  012   [8]  E8 03 10 00 00 00 00 00
 (1652892566.776655)  can0  1E5   [8]  1C 03 07 50 00 00 00 B2
 (1652892566.776889)  can0  014   [5]  00 00 00 10 27
 (1652892566.785971)  can0  012   [8]  E8 03 10 00 00 00 00 00
 (1652892566.786661)  can0  1E5   [8]  1C 03 07 70 00 00 00 D2
 (1652892566.786902)  can0  014   [5]  00 00 00 10 27
 (1652892566.795971)  can0  012   [8]  E8 03 10 00 00 00 00 00
 (1652892566.796648)  can0  1E5   [8]  1C 03 07 10 00 00 00 72
 (1652892566.796890)  can0  014   [5]  00 00 00 10 27
 (1652892566.805724)  can0  010   [4]  26 73 00 00
 (1652892566.805765)  can0  012   [8]  E8 03 10 00 00 00 00 00
 (1652892566.806665)  can0  1E5   [8]  1C 03 07 30 00 00 00 92
 (1652892566.806906)  can0  014   [5]  00 00 00 13 27
 (1652892566.815959)  can0  012   [8]  E8 03 10 00 00 00 00 00
 (1652892566.816661)  can0  1E5   [8]  1C 03 07 50 00 00 00 B2
 (1652892566.816896)  can0  014   [5]  00 00 00 0D 27
 (1652892566.825963)  can0  012   [8]  E8 03 10 00 00 00 00 00
 (1652892566.826649)  can0  1E5   [8]  1C 03 07 70 00 00 00 D2
 (1652892566.826891)  can0  014   [5]  00 00 00 10 27
 (1652892566.835981)  can0  012   [8]  E8 03 10 00 00 00 00 00
 (1652892566.836665)  can0  1E5   [8]  1C 03 09 10 00 00 00 74
 (1652892566.836887)  can0  014   [5]  00 00 00 10 27
 (1652892566.845963)  can0  012   [8]  E8 03 10 00 00 00 00 00
 (1652892566.846656)  can0  1E5   [8]  1C 03 09 30 00 00 00 94
 (1652892566.846842)  can0  014   [5]  00 00 00 10 27
 (1652892566.855984)  can0  012   [8]  E8 03 10 00 00 00 00 00
 (1652892566.856668)  can0  1E5   [8]  1C 03 07 50 00 00 00 B2
 (1652892566.856897)  can0  014   [5]  00 00 00 10 27
 (1652892566.865963)  can0  012   [8]  E8 03 10 00 00 00 00 00
 (1652892566.866646)  can0  1E5   [8]  1C 03 09 70 00 00 00 D4
 (1652892566.866890)  can0  014   [5]  00 00 00 10 27
 (1652892566.875982)  can0  012   [8]  E8 03 10 00 00 00 00 00
 (1652892566.876643)  can0  1E5   [8]  1C 03 07 10 00 00 00 72
 (1652892566.876884)  can0  014   [5]  00 00 00 10 27
 (1652892566.885978)  can0  012   [8]  E8 03 10 00 00 00 00 00
 (1652892566.886655)  can0  1E5   [8]  1C 03 07 30 00 00 00 92
 (1652892566.886895)  can0  014   [5]  00 00 00 10 27
 (1652892566.895994)  can0  012   [8]  E8 03 10 00 00 00 00 00
 (1652892566.896653)  can0  1E5   [8]  1C 03 07 50 00 00 00 B2
 (1652892566.896889)  can0  014   [5]  00 00 00 10 27
 (1652892566.905600)  can0  010   [4]  26 73 00 00
 (1652892566.905808)  can0  012   [8]  E8 03 10 00 00 00 00 00
 (1652892566.906662)  can0  1E5   [8]  1C 03 09 70 00 00 00 D4
 (1652892566.906899)  can0  014   [5]  00 00 00 13 27
 (1652892566.915971)  can0  012   [8]  E8 03 10 00 00 00 00 00
 (1652892566.916653)  can0  1E5   [8]  1C 03 09 10 00 00 00 74
 (1652892566.916879)  can0  014   [5]  00 00 00 0D 27
 (1652892566.925970)  can0  012   [8]  E8 03 10 00 00 00 00 00
 (1652892566.926649)  can0  1E5   [8]  1C 03 09 30 00 00 00 94
 (1652892566.926889)  can0  014   [5]  00 00 00 10 27
 (1652892566.935981)  can0  012   [8]  E8 03 10 00 00 00 00 00
 (1652892566.936641)  can0  1E5   [8]  1C 03 07 50 00 00 00 B2
 (1652892566.936885)  can0  014   [5]  01 00 00 10 27
 (1652892566.945990)  can0  012   [8]  E8 03 10 00 00 00 00 00
 (1652892566.946655)  can0  1E5   [8]  1C 03 07 70 00 00 00 D2
 (1652892566.946902)  can0  014   [5]  00 00 00 10 27
 (1652892566.956011)  can0  012   [8]  E8 03 10 00 00 00 00 00
 (1652892566.956646)  can0  1E5   [8]  1C 03 07 10 00 00 00 72
 (1652892566.956836)  can0  014   [5]  00 00 00 10 27
 (1652892566.966035)  can0  012   [8]  E8 03 10 00 00 00 00 00
 (1652892566.966658)  can0  1E5   [8]  1C 03 07 30 00 00 00 92
 (1652892566.966895)  can0  014   [5]  00 00 00 10 27
 (1652892566.976057)  can0  012   [8]  E8 03 10 00 00 00 00 00
 (1652892566.976603)  can0  1E5   [8]  1C 03 07 50 00 00 00 B2
 (1652892566.976890)  can0  014   [5]  00 00 00 10 27
 (1652892566.986070)  can0  012   [8]  E8 03 10 00 00 00 00 00
 (1652892566.986644)  can0  1E5   [8]  1C 03 09 70 00 00 00 D4
 (1652892566.986894)  can0  014   [5]  00 00 00 10 27
 (1652892566.996085)  can0  012   [8]  E8 03 10 00 00 00 00 00
 (1652892566.996657)  can0  1E5   [8]  1C 03 07 10 00 00 00 72
 (1652892566.996893)  can0  014   [5]  00 00 00 10 27
 (1652892567.005619)  can0  010   [4]  26 73 00 00
 (1652892567.005627)  can0  0E2   [2]  B8 02
 (1652892567.005813)  can0  012   [8]  E8 03 10 00 00 00 00 00
 (1652892567.005902)  can0  0E3   [2]  B8 02
 (1652892567.006642)  can0  1E5   [8]  1C 03 09 30 00 00 00 94
 (1652892567.006902)  can0  014   [5]  00 00 00 19 27
 (1652892567.006975)  can0  0E4   [2]  B8 02
 (1652892567.015980)  can0  012   [8]  E8 03 10 00 00 00 00 00
 (1652892567.016643)  can0  1E5   [8]  1C 03 09 50 00 00 00 B4
 (1652892567.016902)  can0  014   [5]  00 00 00 07 27
 (1652892567.025964)  can0  012   [8]  E8 03 10 00 00 00 00 00
 (1652892567.026655)  can0  1E5   [8]  1C 03 07 70 00 00 00 D2
 (1652892567.026896)  can0  014   [5]  00 00 00 10 27
 (1652892567.035960)  can0  012   [8]  E8 03 10 00 00 00 00 00
 (1652892567.036649)  can0  1E5   [8]  1C 03 09 10 00 00 00 74
 (1652892567.036890)  can0  014   [5]  00 00 00 10 27
 (1652892567.045971)  can0  012   [8]  E8 03 10 00 00 00 00 00
 (1652892567.046640)  can0  1E5   [8]  1C 03 07 30 00 00 00 92
 (1652892567.046894)  can0  014   [5]  00 00 00 10 27
 (1652892567.055976)  can0  012   [8]  E8 03 10 00 00 00 00 00
 (1652892567.056643)  can0  1E5   [8]  1C 03 09 50 00 00 00 B4
 (1652892567.056838)  can0  014   [5]  00 00 00 10 27
 (1652892567.065973)  can0  012   [8]  E8 03 10 00 00 00 00 00
 (1652892567.066642)  can0  1E5   [8]  1C 03 09 70 00 00 00 D4
 (1652892567.066885)  can0  014   [5]  00 00 00 10 27
 (1652892567.075966)  can0  012   [8]  E8 03 10 00 00 00 00 00
 (1652892567.076653)  can0  1E5   [8]  1C 03 07 10 00 00 00 72
 (1652892567.076894)  can0  014   [5]  00 00 00 10 27
 (1652892567.085957)  can0  012   [8]  E8 03 10 00 00 00 00 00
 (1652892567.086642)  can0  1E5   [8]  1C 03 07 30 00 00 00 92
 (1652892567.086888)  can0  014   [5]  00 00 00 10 27
 (1652892567.095975)  can0  012   [8]  E8 03 10 00 00 00 00 00
 (1652892567.096640)  can0  1E5   [8]  1C 03 07 50 00 00 00 B2
 (1652892567.096894)  can0  014   [5]  FF 0F 00 10 27
 (1652892567.105608)  can0  010   [4]  26 73 00 00
 (1652892567.105747)  can0  012   [8]  E8 03 10 00 00 00 00 00
 (1652892567.106651)  can0  1E5   [8]  1C 03 07 70 00 00 00 D2
 (1652892567.106888)  can0  014   [5]  00 00 00 13 27
 (1652892567.115976)  can0  012   [8]  E8 03 10 00 00 00 00 00
 (1652892567.116641)  can0  1E5   [8]  1C 03 07 10 00 00 00 72
 (1652892567.116884)  can0  014   [5]  00 00 00 0D 27
 (1652892567.125965)  can0  012   [8]  E8 03 10 00 00 00 00 00
 (1652892567.126642)  can0  1E5   [8]  1C 03 07 30 00 00 00 92
 (1652892567.126897)  can0  014   [5]  00 00 00 10 27
 (1652892567.135953)  can0  012   [8]  E8 03 10 00 00 00 00 00
 (1652892567.136651)  can0  1E5   [8]  1C 03 07 50 00 00 00 B2
 (1652892567.136843)  can0  014   [5]  00 00 00 10 27
 (1652892567.145974)  can0  012   [8]  E8 03 10 00 00 00 00 00
 (1652892567.146651)  can0  1E5   [8]  1C 03 05 7F FF 00 01 DE
 (1652892567.146896)  can0  014   [5]  00 00 00 10 27
 (1652892567.155941)  can0  012   [8]  E8 03 10 00 00 00 00 00
 (1652892567.156658)  can0  1E5   [8]  1C 03 05 1F FF 00 01 7E
 (1652892567.156835)  can0  014   [5]  00 00 00 10 27
 (1652892567.165958)  can0  012   [8]  E8 03 10 00 00 00 00 00
 (1652892567.166620)  can0  1E5   [8]  1C 03 05 3F FF 00 01 9E
 (1652892567.166876)  can0  014   [5]  00 00 00 10 27
 (1652892567.175984)  can0  012   [8]  E8 03 10 00 00 00 00 00
 (1652892567.176607)  can0  1E5   [8]  1C 03 05 5F FF 00 01 BE
 (1652892567.176848)  can0  014   [5]  00 00 00 10 27
 (1652892567.185987)  can0  012   [8]  E8 03 10 00 00 00 00 00
 (1652892567.186641)  can0  1E5   [8]  1C 03 05 7F FF 00 01 DE
 (1652892567.186885)  can0  014   [5]  00 00 00 10 27
 (1652892567.195954)  can0  012   [8]  E8 03 10 00 00 00 00 00
 (1652892567.196643)  can0  1E5   [8]  1C 03 05 1F FF 00 01 7E
 (1652892567.196884)  can0  014   [5]  00 00 00 10 27
 (1652892567.205587)  can0  010   [4]  26 73 00 00
 (1652892567.205802)  can0  012   [8]  E8 03 10 00 00 00 00 00
 (1652892567.206642)  can0  1E5   [8]  1C 03 05 3F FF 00 01 9E
 (1652892567.206896)  can0  014   [5]  00 00 00 13 27
 (1652892567.215972)  can0  012   [8]  E8 03 10 00 00 00 00 00
 (1652892567.216651)  can0  1E5   [8]  1C 03 05 5F FF 00 01 BE
 (1652892567.216895)  can0  014   [5]  00 00 00 0D 27
 (1652892567.225975)  can0  012   [8]  E8 03 10 00 00 00 00 00
 (1652892567.226642)  can0  1E5   [8]  1C 03 05 7F FF 00 01 DE
 (1652892567.226889)  can0  014   [5]  00 00 00 10 27
 (1652892567.235951)  can0  012   [8]  E8 03 10 00 00 00 00 00
 (1652892567.236638)  can0  1E5   [8]  1C 03 05 1F FF 00 01 7E
 (1652892567.236897)  can0  014   [5]  00 00 00 10 27
 (1652892567.245977)  can0  012   [8]  E8 03 10 00 00 00 00 00
 (1652892567.246656)  can0  1E5   [8]  1C 03 05 30 00 00 00 90
 (1652892567.246886)  can0  014   [5]  00 00 00 10 27
 (1652892567.255964)  can0  012   [8]  E8 03 10 00 00 00 00 00
 (1652892567.256638)  can0  1E5   [8]  1C 03 05 50 00 00 00 B0
 (1652892567.256891)  can0  014   [5]  00 00 00 10 27
 (1652892567.265974)  can0  012   [8]  E8 03 10 00 00 00 00 00
 (1652892567.266647)  can0  1E5   [8]  1C 03 07 70 00 00 00 D2
 (1652892567.266890)  can0  014   [5]  00 00 00 10 27
 (1652892567.275982)  can0  012   [8]  E8 03 10 00 00 00 00 00
 (1652892567.276642)  can0  1E5   [8]  1C 03 05 10 00 00 00 70
 (1652892567.276884)  can0  014   [5]  00 00 00 10 27
 (1652892567.285959)  can0  012   [8]  E8 03 10 00 00 00 00 00
 (1652892567.286646)  can0  1E5   [8]  1C 03 07 30 00 00 00 92
 (1652892567.286895)  can0  014   [5]  00 00 00 10 27
 (1652892567.295954)  can0  012   [8]  E8 03 10 00 00 00 00 00
 (1652892567.296655)  can0  1E5   [8]  1C 03 07 50 00 00 00 B2
 (1652892567.296891)  can0  014   [5]  00 00 00 10 27
 (1652892567.305686)  can0  010   [4]  26 73 00 00
 (1652892567.305778)  can0  012   [8]  E8 03 10 00 00 00 00 00
 (1652892567.306641)  can0  1E5   [8]  1C 03 05 70 00 00 00 D0
 (1652892567.306902)  can0  014   [5]  00 00 00 13 27
 (1652892567.316001)  can0  012   [8]  E8 03 10 00 00 00 00 00
 (1652892567.316640)  can0  1E5   [8]  1C 03 05 10 00 00 00 70
 (1652892567.316888)  can0  014   [5]  00 00 00 0D 27
 (1652892567.325958)  can0  012   [8]  E8 03 10 00 00 00 00 00
 (1652892567.326650)  can0  1E5   [8]  1C 03 07 30 00 00 00 92
 (1652892567.326890)  can0  014   [5]  00 00 00 10 27
 (1652892567.335970)  can0  012   [8]  E8 03 10 00 00 00 00 00
 (1652892567.336648)  can0  1E5   [8]  1C 03 05 50 00 00 00 B0
 (1652892567.336889)  can0  014   [5]  00 00 00 10 27
 (1652892567.345956)  can0  012   [8]  E8 03 10 00 00 00 00 00
 (1652892567.346638)  can0  1E5   [8]  1C 03 07 70 00 00 00 D2
 (1652892567.346890)  can0  014   [5]  00 00 00 10 27
 (1652892567.355963)  can0  012   [8]  E8 03 10 00 00 00 00 00
 (1652892567.356643)  can0  1E5   [8]  1C 03 07 10 00 00 00 72
 (1652892567.356886)  can0  014   [5]  00 00 00 10 27
 (1652892567.365971)  can0  012   [8]  E8 03 10 00 00 00 00 00
 (1652892567.366636)  can0  1E5   [8]  1C 03 07 30 00 00 00 92
 (1652892567.366895)  can0  014   [5]  00 00 00 10 27
 (1652892567.375965)  can0  012   [8]  E8 03 10 00 00 00 00 00
 (1652892567.376630)  can0  1E5   [8]  1C 03 05 50 00 00 00 B0
 (1652892567.376889)  can0  014   [5]  00 00 00 10 27
 (1652892567.385973)  can0  012   [8]  E8 03 10 00 00 00 00 00
 (1652892567.386640)  can0  1E5   [8]  1C 03 05 70 00 00 00 D0
 (1652892567.386884)  can0  014   [5]  00 00 00 10 27
 (1652892567.395796)  can0  012   [8]  E8 03 10 00 00 00 00 00
 (1652892567.396638)  can0  1E5   [8]  1C 03 07 10 00 00 00 72
 (1652892567.396899)  can0  014   [5]  00 00 00 10 27
 (1652892567.405611)  can0  010   [4]  26 73 00 00
 (1652892567.405791)  can0  012   [8]  E8 03 10 00 00 00 00 00
 (1652892567.406645)  can0  1E5   [8]  1C 03 07 30 00 00 00 92
 (1652892567.406885)  can0  014   [5]  00 00 00 13 27
 (1652892567.415964)  can0  012   [8]  E8 03 10 00 00 00 00 00
 (1652892567.416642)  can0  1E5   [8]  1C 03 07 50 00 00 00 B2
 (1652892567.416885)  can0  014   [5]  00 00 00 0D 27
 (1652892567.425967)  can0  012   [8]  E8 03 10 00 00 00 00 00
 (1652892567.426645)  can0  1E5   [8]  1C 03 05 70 00 00 00 D0
 (1652892567.426896)  can0  014   [5]  00 00 00 10 27
 (1652892567.435957)  can0  012   [8]  E8 03 10 00 00 00 00 00
 (1652892567.436631)  can0  1E5   [8]  1C 03 07 10 00 00 00 72
 (1652892567.436888)  can0  014   [5]  00 00 00 10 27
 (1652892567.445967)  can0  012   [8]  E8 03 10 00 00 00 00 00
 (1652892567.446644)  can0  1E5   [8]  1C 03 05 30 00 00 00 90
 (1652892567.446889)  can0  014   [5]  00 00 00 10 27
 (1652892567.455975)  can0  012   [8]  E8 03 10 00 00 00 00 00
 (1652892567.456632)  can0  1E5   [8]  1C 03 05 50 00 00 00 B0
 (1652892567.456891)  can0  014   [5]  00 00 00 10 27
 (1652892567.465985)  can0  012   [8]  E8 03 10 00 00 00 00 00
 (1652892567.466629)  can0  1E5   [8]  1C 03 05 70 00 00 00 D0
 (1652892567.466889)  can0  014   [5]  00 00 00 10 27
 (1652892567.476000)  can0  012   [8]  E8 03 10 00 00 00 00 00
 (1652892567.476641)  can0  1E5   [8]  1C 03 05 10 00 00 00 70
 (1652892567.476884)  can0  014   [5]  00 00 00 10 27
 (1652892567.486040)  can0  012   [8]  E8 03 10 00 00 00 00 00
 (1652892567.486635)  can0  1E5   [8]  1C 03 05 30 00 00 00 90
 (1652892567.486888)  can0  014   [5]  00 00 00 10 27
 (1652892567.495958)  can0  012   [8]  E8 03 10 00 00 00 00 00
 (1652892567.496633)  can0  1E5   [8]  1C 03 05 50 00 00 00 B0
 (1652892567.496882)  can0  014   [5]  00 00 00 10 27
 (1652892567.505589)  can0  010   [4]  26 73 00 00
 (1652892567.505800)  can0  012   [8]  E8 03 10 00 00 00 00 00
 (1652892567.506637)  can0  1E5   [8]  1C 03 05 70 00 00 00 D0
 (1652892567.506846)  can0  014   [5]  00 00 00 13 27
 (1652892567.516091)  can0  012   [8]  E8 03 10 00 00 00 00 00
 (1652892567.516632)  can0  1E5   [8]  1C 03 05 10 00 00 00 70
 (1652892567.516889)  can0  014   [5]  00 00 00 0D 27
 (1652892567.526111)  can0  012   [8]  E8 03 10 00 00 00 00 00
 (1652892567.526628)  can0  1E5   [8]  1C 03 05 30 00 00 00 90
 (1652892567.526890)  can0  014   [5]  00 00 00 10 27
 (1652892567.535969)  can0  012   [8]  E8 03 10 00 00 00 00 00
 (1652892567.536636)  can0  1E5   [8]  1C 03 05 50 00 00 00 B0
 (1652892567.536895)  can0  014   [5]  00 00 00 10 27
 (1652892567.545957)  can0  012   [8]  E8 03 10 00 00 00 00 00
 (1652892567.546632)  can0  1E5   [8]  1C 03 05 70 00 00 00 D0
 (1652892567.546893)  can0  014   [5]  00 00 00 10 27
 (1652892567.555969)  can0  012   [8]  E8 03 10 00 00 00 00 00
 (1652892567.556645)  can0  1E5   [8]  1C 03 05 10 00 00 00 70
 (1652892567.556895)  can0  014   [5]  00 00 00 10 27
 (1652892567.565976)  can0  012   [8]  E8 03 10 00 00 00 00 00
 (1652892567.566631)  can0  1E5   [8]  1C 03 05 30 00 00 00 90
 (1652892567.566890)  can0  014   [5]  00 00 00 10 27
 (1652892567.575975)  can0  012   [8]  E8 03 10 00 00 00 00 00
 (1652892567.576630)  can0  1E5   [8]  1C 03 07 50 00 00 00 B2
 (1652892567.576888)  can0  014   [5]  00 00 00 10 27
 (1652892567.585955)  can0  012   [8]  E8 03 10 00 00 00 00 00
 (1652892567.586639)  can0  1E5   [8]  1C 03 05 70 00 00 00 D0
 (1652892567.586841)  can0  014   [5]  00 00 00 10 27
 (1652892567.595977)  can0  012   [8]  E8 03 10 00 00 00 00 00
 (1652892567.596631)  can0  1E5   [8]  1C 03 05 10 00 00 00 70
 (1652892567.596892)  can0  014   [5]  00 00 00 10 27
 (1652892567.605596)  can0  010   [4]  26 73 00 00
 (1652892567.605794)  can0  012   [8]  E8 03 10 00 00 00 00 00
 (1652892567.606627)  can0  1E5   [8]  1C 03 05 30 00 00 00 90
 (1652892567.606886)  can0  014   [5]  00 00 00 13 27
 (1652892567.615983)  can0  012   [8]  E8 03 10 00 00 00 00 00
 (1652892567.616628)  can0  1E5   [8]  1C 03 05 50 00 00 00 B0
 (1652892567.616884)  can0  014   [5]  00 00 00 0D 27
 (1652892567.625831)  can0  012   [8]  E8 03 10 00 00 00 00 00
 (1652892567.626637)  can0  1E5   [8]  1C 03 04 7F FF 00 01 DD
 (1652892567.626901)  can0  014   [5]  00 00 00 10 27
 (1652892567.635969)  can0  012   [8]  E8 03 10 00 00 00 00 00
 (1652892567.636635)  can0  1E5   [8]  1C 03 05 10 00 00 00 70
 (1652892567.636883)  can0  014   [5]  00 00 00 10 27
 (1652892567.645975)  can0  012   [8]  E8 03 10 00 00 00 00 00
 (1652892567.646582)  can0  1E5   [8]  1C 03 05 30 00 00 00 90
 (1652892567.646848)  can0  014   [5]  00 00 00 10 27
 (1652892567.655971)  can0  012   [8]  E8 03 10 00 00 00 00 00
 (1652892567.656636)  can0  1E5   [8]  1C 03 05 50 00 00 00 B0
 (1652892567.656884)  can0  014   [5]  00 00 00 10 27
 (1652892567.665970)  can0  012   [8]  E8 03 10 00 00 00 00 00
 (1652892567.666628)  can0  1E5   [8]  1C 03 04 70 00 00 00 CF
 (1652892567.666883)  can0  014   [5]  00 00 00 10 27
 (1652892567.675961)  can0  012   [8]  E8 03 10 00 00 00 00 00
 (1652892567.676643)  can0  1E5   [8]  1C 03 05 10 00 00 00 70
 (1652892567.676902)  can0  014   [5]  00 00 00 10 27
 (1652892567.685958)  can0  012   [8]  E8 03 10 00 00 00 00 00
 (1652892567.686631)  can0  1E5   [8]  1C 03 04 30 00 00 00 8F
 (1652892567.686888)  can0  014   [5]  00 00 00 10 27
 (1652892567.695974)  can0  012   [8]  E8 03 10 00 00 00 00 00
 (1652892567.696638)  can0  1E5   [8]  1C 03 04 50 00 00 00 AF
 (1652892567.696902)  can0  014   [5]  00 00 00 10 27
 (1652892567.705427)  can0  010   [4]  26 73 00 00
 (1652892567.705794)  can0  012   [8]  E8 03 10 00 00 00 00 00
 (1652892567.706628)  can0  1E5   [8]  1C 03 04 70 00 00 00 CF
 (1652892567.706883)  can0  014   [5]  00 00 00 13 27
 (1652892567.715795)  can0  012   [8]  E8 03 10 00 00 00 00 00
 (1652892567.716627)  can0  1E5   [8]  1C 03 04 10 00 00 00 6F
 (1652892567.716883)  can0  014   [5]  00 00 00 0D 27
 (1652892567.725790)  can0  012   [8]  E8 03 10 00 00 00 00 00
 (1652892567.726637)  can0  1E5   [8]  1C 03 02 3F FF 00 01 9B
 (1652892567.726895)  can0  014   [5]  00 00 00 10 27
 (1652892567.735783)  can0  012   [8]  E8 03 10 00 00 00 00 00
 (1652892567.736630)  can0  1E5   [8]  1C 03 02 5F FF 00 01 BB
 (1652892567.736893)  can0  014   [5]  00 00 00 10 27
 (1652892567.745778)  can0  012   [8]  E8 03 10 00 00 00 00 00
 (1652892567.746639)  can0  1E5   [8]  1C 03 02 7F FF 00 01 DB
 (1652892567.746900)  can0  014   [5]  00 00 00 10 27
 (1652892567.755837)  can0  012   [8]  E8 03 10 00 00 00 00 00
 (1652892567.756625)  can0  1E5   [8]  1C 03 01 1F FE 00 01 79
 (1652892567.756880)  can0  014   [5]  00 00 00 10 27
 (1652892567.765788)  can0  012   [8]  E8 03 10 00 00 00 00 00
 (1652892567.766622)  can0  1E5   [8]  1C 03 01 3F FE 00 01 99
 (1652892567.766880)  can0  014   [5]  00 00 00 10 27
 (1652892567.775782)  can0  012   [8]  E8 03 10 00 00 00 00 00
 (1652892567.776610)  can0  1E5   [8]  1C 02 FF 5F FD 00 02 B5
 (1652892567.776891)  can0  014   [5]  00 00 00 10 27
 (1652892567.785773)  can0  012   [8]  E8 03 10 00 00 00 00 00
 (1652892567.786623)  can0  1E5   [8]  1C 02 FF 7F FD 00 02 D5
 (1652892567.786886)  can0  014   [5]  00 00 00 10 27
 (1652892567.795787)  can0  012   [8]  E8 03 10 00 00 00 00 00
 (1652892567.796610)  can0  1E5   [8]  1C 02 FF 1F FD 00 02 75
 (1652892567.796891)  can0  014   [5]  00 00 00 10 27
 (1652892567.805423)  can0  010   [4]  26 73 00 00
 (1652892567.805781)  can0  012   [8]  E8 03 10 00 00 00 00 00
 (1652892567.806624)  can0  1E5   [8]  1C 02 FF 3F FD 00 02 95
 (1652892567.806888)  can0  014   [5]  00 00 00 13 27
 (1652892567.815794)  can0  012   [8]  E8 03 10 00 00 00 00 00
 (1652892567.816616)  can0  1E5   [8]  1C 02 FF 5F FD 00 02 B5
 (1652892567.816878)  can0  014   [5]  00 00 00 0D 27
 (1652892567.825787)  can0  012   [8]  E8 03 10 00 00 00 00 00
 (1652892567.826611)  can0  1E5   [8]  1C 02 FF 7F FE 00 02 D6
 (1652892567.826894)  can0  014   [5]  00 00 00 10 27
 (1652892567.835782)  can0  012   [8]  E8 03 10 00 00 00 00 00
 (1652892567.836630)  can0  1E5   [8]  1C 02 FF 1F FE 00 02 76
 (1652892567.836882)  can0  014   [5]  00 00 00 10 27
 (1652892567.845777)  can0  012   [8]  E8 03 10 00 00 00 00 00
 (1652892567.846614)  can0  1E5   [8]  1C 02 FF 3F FE 00 02 96
 (1652892567.846891)  can0  014   [5]  00 00 00 10 27
 (1652892567.855783)  can0  012   [8]  E8 03 10 00 00 00 00 00
 (1652892567.856622)  can0  1E5   [8]  1C 02 FF 5F FF 00 02 B7
 (1652892567.856888)  can0  014   [5]  00 00 00 10 27
 (1652892567.865796)  can0  012   [8]  E8 03 10 00 00 00 00 00
 (1652892567.866627)  can0  1E5   [8]  1C 02 FF 7F FF 00 02 D7
 (1652892567.866888)  can0  014   [5]  00 00 00 10 27
 (1652892567.875786)  can0  012   [8]  E8 03 10 00 00 00 00 00
 (1652892567.876614)  can0  1E5   [8]  1C 02 FF 10 00 00 01 69
 (1652892567.876853)  can0  014   [5]  00 00 00 10 27
 (1652892567.885792)  can0  012   [8]  E8 03 10 00 00 00 00 00
 (1652892567.886619)  can0  1E5   [8]  1C 02 FF 30 00 00 01 89
 (1652892567.886891)  can0  014   [5]  00 00 00 10 27
 (1652892567.895795)  can0  012   [8]  E8 03 10 00 00 00 00 00
 (1652892567.896620)  can0  1E5   [8]  1C 02 FF 50 00 00 01 A9
 (1652892567.896890)  can0  014   [5]  00 00 00 10 27
 (1652892567.905409)  can0  010   [4]  26 73 00 00
 (1652892567.905790)  can0  012   [8]  E8 03 10 00 00 00 00 00
 (1652892567.906616)  can0  1E5   [8]  1C 02 FF 70 00 00 01 C9
 (1652892567.906885)  can0  014   [5]  00 00 00 13 27
 (1652892567.915778)  can0  012   [8]  E8 03 10 00 00 00 00 00
 (1652892567.916622)  can0  1E5   [8]  1C 02 FF 10 00 00 01 69
 (1652892567.916878)  can0  014   [5]  00 00 00 0D 27
 (1652892567.925790)  can0  012   [8]  E8 03 10 00 00 00 00 00
 (1652892567.926616)  can0  1E5   [8]  1C 02 FF 30 00 00 01 89
 (1652892567.926897)  can0  014   [5]  00 00 00 10 27
 (1652892567.935786)  can0  012   [8]  E8 03 10 00 00 00 00 00
 (1652892567.936611)  can0  1E5   [8]  1C 02 FF 50 00 00 01 A9
 (1652892567.936890)  can0  014   [5]  00 00 00 10 27
 (1652892567.945784)  can0  012   [8]  E8 03 10 00 00 00 00 00
 (1652892567.946615)  can0  1E5   [8]  1C 02 FF 70 00 00 01 C9
 (1652892567.946893)  can0  014   [5]  00 00 00 10 27
 (1652892567.955790)  can0  012   [8]  E8 03 10 00 00 00 00 00
 (1652892567.956630)  can0  1E5   [8]  1C 03 01 10 00 00 00 6C
 (1652892567.956884)  can0  014   [5]  00 00 00 10 27
 (1652892567.965786)  can0  012   [8]  E8 03 10 00 00 00 00 00
 (1652892567.966627)  can0  1E5   [8]  1C 03 01 30 00 00 00 8C
 (1652892567.966889)  can0  014   [5]  00 00 00 10 27
 (1652892567.975797)  can0  012   [8]  E8 03 10 00 00 00 00 00
 (1652892567.976615)  can0  1E5   [8]  1C 03 01 50 00 00 00 AC
 (1652892567.976874)  can0  014   [5]  00 00 00 10 27
 (1652892567.985791)  can0  012   [8]  E8 03 10 00 00 00 00 00
 (1652892567.986614)  can0  1E5   [8]  1C 03 01 70 00 00 00 CC
 (1652892567.986842)  can0  014   [5]  00 00 00 10 27
 (1652892567.995785)  can0  012   [8]  E8 03 10 00 00 00 00 00
 (1652892567.996621)  can0  1E5   [8]  1C 03 01 10 00 00 00 6C
 (1652892567.996877)  can0  014   [5]  00 00 00 10 27
 (1652892568.005415)  can0  010   [4]  26 73 00 00
 (1652892568.005564)  can0  0E2   [2]  E0 02
 (1652892568.005797)  can0  012   [8]  E8 03 10 00 00 00 00 00
 (1652892568.005901)  can0  0E3   [2]  E0 02
 (1652892568.006617)  can0  1E5   [8]  1C 02 FF 30 00 00 01 89
 (1652892568.006899)  can0  014   [5]  00 00 00 19 27
 (1652892568.007031)  can0  0E4   [2]  E0 02
 (1652892568.015789)  can0  012   [8]  E8 03 10 00 00 00 00 00
 (1652892568.016620)  can0  1E5   [8]  1C 02 FF 50 00 00 01 A9
 (1652892568.016891)  can0  014   [5]  00 00 00 07 27
 (1652892568.025780)  can0  012   [8]  E8 03 10 00 00 00 00 00
 (1652892568.026614)  can0  1E5   [8]  1C 02 FF 70 00 00 01 C9
 (1652892568.026888)  can0  014   [5]  00 00 00 10 27
 (1652892568.035792)  can0  012   [8]  E8 03 10 00 00 00 00 00
 (1652892568.036624)  can0  1E5   [8]  1C 02 FF 10 00 00 01 69
 (1652892568.036830)  can0  014   [5]  00 00 00 10 27
 (1652892568.045787)  can0  012   [8]  E8 03 10 00 00 00 00 00
 (1652892568.046617)  can0  1E5   [8]  1C 02 FF 30 00 00 01 89
 (1652892568.046881)  can0  014   [5]  00 00 00 10 27
 (1652892568.051387)  can0  0F0   [1]  01
 (1652892568.052694)  can0  011   [2]  01 01
 (1652892568.055763)  can0  012   [8]  E8 03 10 00 00 00 00 00
 (1652892568.056570)  can0  1E5   [8]  1C 03 01 50 00 00 00 AC
 (1652892568.056860)  can0  014   [5]  00 00 00 16 27
 (1652892568.065747)  can0  012   [8]  E8 03 10 00 00 00 00 00
 (1652892568.066580)  can0  1E5   [8]  1C 02 FF 70 00 00 01 C9
 (1652892568.066835)  can0  014   [5]  00 00 00 0A 27
 (1652892568.075967)  can0  012   [8]  E8 03 10 00 00 00 00 00
 (1652892568.076616)  can0  1E5   [8]  1C 02 FF 10 00 00 01 69
 (1652892568.076887)  can0  014   [5]  00 00 00 10 27
 (1652892568.085791)  can0  012   [8]  E8 03 10 00 00 00 00 00
 (1652892568.086613)  can0  1E5   [8]  1C 03 01 30 00 00 00 8C
 (1652892568.086870)  can0  014   [5]  00 00 00 10 27
 (1652892568.095764)  can0  012   [8]  E8 03 10 00 00 00 00 00
 (1652892568.096570)  can0  1E5   [8]  1C 03 01 50 00 00 00 AC
 (1652892568.096841)  can0  014   [5]  00 00 00 10 27
 (1652892568.105425)  can0  010   [4]  28 76 01 00
 (1652892568.105784)  can0  012   [8]  E8 03 10 00 00 00 00 00
 (1652892568.106616)  can0  1E5   [8]  1C 02 FF 70 00 00 01 C9
 (1652892568.106890)  can0  014   [5]  00 00 00 13 27
 (1652892568.115750)  can0  012   [8]  E8 03 10 00 00 00 00 00
 (1652892568.116580)  can0  1E5   [8]  1C 03 01 10 00 00 00 6C
 (1652892568.116829)  can0  014   [5]  00 00 00 0D 27
 (1652892568.126027)  can0  012   [8]  E8 03 10 00 00 00 00 00
 (1652892568.126613)  can0  1E5   [8]  1C 03 01 30 00 00 00 8C
 (1652892568.126881)  can0  014   [5]  00 00 00 10 27
 (1652892568.135926)  can0  012   [8]  E8 03 10 00 00 00 00 00
 (1652892568.136615)  can0  1E5   [8]  1C 03 01 50 00 00 00 AC
 (1652892568.136841)  can0  014   [5]  00 00 00 10 27
 (1652892568.145826)  can0  012   [8]  E8 03 10 00 00 00 00 00
 (1652892568.146600)  can0  1E5   [8]  1C 03 01 70 00 00 00 CC
 (1652892568.146908)  can0  014   [5]  00 00 00 10 27
 (1652892568.155783)  can0  012   [8]  E8 03 10 00 00 00 00 00
 (1652892568.156606)  can0  1E5   [8]  1C 03 02 10 01 00 00 6E
 (1652892568.156884)  can0  014   [5]  00 00 00 10 27
 (1652892568.165784)  can0  012   [8]  E8 03 10 00 00 00 00 00
 (1652892568.166631)  can0  1E5   [8]  1C 03 02 30 01 00 00 8E
 (1652892568.166838)  can0  014   [5]  00 00 00 10 27
 (1652892568.175781)  can0  012   [8]  E8 03 10 00 00 00 00 00
 (1652892568.176810)  can0  1E5   [8]  1C 03 04 50 02 00 00 B1
 (1652892568.176854)  can0  014   [5]  00 00 00 10 27
 (1652892568.185959)  can0  012   [8]  E8 03 10 00 00 00 00 00
 (1652892568.186625)  can0  1E5   [8]  1C 03 07 70 04 00 00 D6
 (1652892568.186880)  can0  014   [5]  00 00 00 10 27
 (1652892568.195798)  can0  012   [8]  E8 03 10 00 00 00 00 00
 (1652892568.196895)  can0  1E5   [8]  1C 03 07 10 04 00 00 76
 (1652892568.196917)  can0  014   [5]  00 00 00 10 27
 (1652892568.205571)  can0  010   [4]  28 76 01 00
 (1652892568.205741)  can0  012   [8]  E8 03 10 00 00 00 00 00
 (1652892568.206603)  can0  1E5   [8]  1C 03 09 30 05 00 00 99
 (1652892568.206899)  can0  014   [5]  00 00 00 13 27
 (1652892568.215858)  can0  012   [8]  E8 03 10 00 00 00 00 00
 (1652892568.216580)  can0  1E5   [8]  1C 03 09 50 05 00 00 B9
 (1652892568.216828)  can0  014   [5]  01 00 00 0D 27
 (1652892568.225792)  can0  012   [8]  E8 03 10 00 00 00 00 00
 (1652892568.226584)  can0  1E5   [8]  1C 03 09 70 05 00 00 D9
 (1652892568.226883)  can0  014   [5]  00 00 00 10 27
 (1652892568.235790)  can0  012   [8]  E8 03 10 00 00 00 00 00
 (1652892568.236600)  can0  1E5   [8]  1C 03 07 10 00 00 00 72
 (1652892568.236842)  can0  014   [5]  00 00 00 10 27
 (1652892568.245783)  can0  012   [8]  E8 03 10 00 00 00 00 00
 (1652892568.246616)  can0  1E5   [8]  1C 03 07 30 00 00 00 92
 (1652892568.246839)  can0  014   [5]  00 00 00 10 27
 (1652892568.255936)  can0  012   [8]  E8 03 10 00 00 00 00 00
 (1652892568.256602)  can0  1E5   [8]  1C 03 05 5F FF 00 01 BE
 (1652892568.256837)  can0  014   [5]  00 00 00 10 27
 (1652892568.265757)  can0  012   [8]  E8 03 10 00 00 00 00 00
 (1652892568.266570)  can0  1E5   [8]  1C 03 04 7F FE 00 01 DC
 (1652892568.266831)  can0  014   [5]  00 00 00 10 27
 (1652892568.276286)  can0  012   [8]  E8 03 10 00 00 00 00 00
 (1652892568.276608)  can0  1E5   [8]  1C 03 02 1F FD 00 01 79
 (1652892568.276884)  can0  014   [5]  00 00 00 10 27
 (1652892568.285931)  can0  012   [8]  E8 03 10 00 00 00 00 00
 (1652892568.286598)  can0  1E5   [8]  1C 03 01 3F FC 00 01 97
 (1652892568.286872)  can0  014   [5]  00 00 00 10 27
 (1652892568.295795)  can0  012   [8]  E8 03 10 00 00 00 00 00
 (1652892568.296575)  can0  1E5   [8]  1C 02 FF 5F FB 00 02 B3
 (1652892568.296846)  can0  014   [5]  00 00 00 10 27
 (1652892568.305666)  can0  010   [4]  28 76 01 00
 (1652892568.305738)  can0  012   [8]  E8 03 10 00 00 00 00 00
 (1652892568.306562)  can0  1E5   [8]  1C 02 FD 7F FA 00 02 D0
 (1652892568.306839)  can0  014   [5]  00 10 00 13 27
 (1652892568.315765)  can0  012   [8]  E8 03 10 00 00 00 00 00
 (1652892568.316566)  can0  1E5   [8]  1C 02 FC 1F F9 00 02 6E
 (1652892568.316838)  can0  014   [5]  00 00 00 0D 27
 (1652892568.325797)  can0  012   [8]  E8 03 10 00 00 00 00 00
 (1652892568.326623)  can0  1E5   [8]  1C 02 F9 3F F7 00 02 89
 (1652892568.326848)  can0  014   [5]  00 00 00 10 27
 (1652892568.335786)  can0  012   [8]  E8 03 10 00 00 00 00 00
 (1652892568.336580)  can0  1E5   [8]  1C 02 F7 5F F6 00 02 A6
 (1652892568.336843)  can0  014   [5]  00 00 00 10 27
 (1652892568.345783)  can0  012   [8]  E8 03 10 00 00 00 00 00
 (1652892568.346567)  can0  1E5   [8]  1C 02 F7 7F F6 00 02 C6
 (1652892568.346828)  can0  014   [5]  00 00 00 10 27
 (1652892568.355943)  can0  012   [8]  E8 03 10 00 00 00 00 00
 (1652892568.356570)  can0  1E5   [8]  1C 02 F5 1F F6 00 02 64
 (1652892568.356846)  can0  014   [5]  FF 0F 00 10 27
 (1652892568.365779)  can0  012   [8]  E8 03 10 00 00 00 00 00
 (1652892568.366559)  can0  1E5   [8]  1C 02 F4 3F F6 00 02 83
 (1652892568.366843)  can0  014   [5]  00 00 00 10 27
 (1652892568.376442)  can0  012   [8]  E8 03 10 00 00 00 00 00
 (1652892568.376559)  can0  1E5   [8]  1C 02 F4 5F F7 00 02 A4
 (1652892568.376835)  can0  014   [5]  00 00 00 10 27
 (1652892568.385940)  can0  012   [8]  E8 03 10 00 00 00 00 00
 (1652892568.386621)  can0  1E5   [8]  1C 02 F4 7F F8 00 02 C5
 (1652892568.386826)  can0  014   [5]  00 F0 FF 10 27
 (1652892568.395792)  can0  012   [8]  E8 03 10 00 00 00 00 00
 (1652892568.396575)  can0  1E5   [8]  1C 02 F5 10 00 00 01 5F
 (1652892568.396833)  can0  014   [5]  00 00 00 10 27
 (1652892568.405567)  can0  010   [4]  28 76 01 00
 (1652892568.405790)  can0  012   [8]  E8 03 10 00 00 00 00 00
 (1652892568.406608)  can0  1E5   [8]  1C 02 F7 30 01 00 01 82
 (1652892568.406884)  can0  014   [5]  00 00 00 13 27
 (1652892568.415783)  can0  012   [8]  E8 03 10 00 00 00 00 00
 (1652892568.416578)  can0  1E5   [8]  1C 02 F7 50 01 00 01 A2
 (1652892568.416841)  can0  014   [5]  00 00 00 0D 27
 (1652892568.425951)  can0  012   [8]  E8 03 10 00 00 00 00 00
 (1652892568.426585)  can0  1E5   [8]  1C 02 F9 70 02 00 01 C5
 (1652892568.426844)  can0  014   [5]  00 00 00 10 27
 (1652892568.435794)  can0  012   [8]  E8 03 10 00 00 00 00 00
 (1652892568.436576)  can0  1E5   [8]  1C 02 FC 10 04 00 01 6A
 (1652892568.436849)  can0  014   [5]  00 00 00 10 27
 (1652892568.445788)  can0  012   [8]  E8 03 10 00 00 00 00 00
 (1652892568.446573)  can0  1E5   [8]  1C 02 FC 30 04 00 01 8A
 (1652892568.446838)  can0  014   [5]  00 00 00 10 27
 (1652892568.455752)  can0  012   [8]  E8 03 10 00 00 00 00 00
 (1652892568.456562)  can0  1E5   [8]  1C 02 FF 50 06 00 01 AF
 (1652892568.456847)  can0  014   [5]  00 00 00 10 27
 (1652892568.465784)  can0  012   [8]  E8 03 10 00 00 00 00 00
 (1652892568.466581)  can0  1E5   [8]  1C 02 FF 70 06 00 01 CF
 (1652892568.466840)  can0  014   [5]  00 00 00 10 27
 (1652892568.475946)  can0  012   [8]  E8 03 10 00 00 00 00 00
 (1652892568.476562)  can0  1E5   [8]  1C 03 01 10 07 00 00 73
 (1652892568.476841)  can0  014   [5]  00 00 00 10 27
 (1652892568.486016)  can0  012   [8]  E8 03 10 00 00 00 00 00
 (1652892568.486580)  can0  1E5   [8]  1C 03 01 30 07 00 00 93
 (1652892568.486831)  can0  014   [5]  00 00 00 10 27
 (1652892568.495942)  can0  012   [8]  E8 03 10 00 00 00 00 00
 (1652892568.496596)  can0  1E5   [8]  1C 03 01 50 07 00 00 B3
 (1652892568.496853)  can0  014   [5]  00 00 00 10 27
 (1652892568.505421)  can0  010   [4]  28 76 01 00
 (1652892568.505783)  can0  012   [8]  E8 03 10 00 00 00 00 00
 (1652892568.506592)  can0  1E5   [8]  1C 03 01 70 06 00 00 D2
 (1652892568.506835)  can0  014   [5]  00 00 00 13 27
 (1652892568.515770)  can0  012   [8]  E8 03 10 00 00 00 00 00
 (1652892568.516563)  can0  1E5   [8]  1C 03 02 10 07 00 00 74
 (1652892568.516829)  can0  014   [5]  00 00 00 0D 27
 (1652892568.525952)  can0  012   [8]  E8 03 10 00 00 00 00 00
 (1652892568.526574)  can0  1E5   [8]  1C 03 02 30 06 00 00 93
 (1652892568.526850)  can0  014   [5]  00 00 00 10 27
 (1652892568.536105)  can0  012   [8]  E8 03 10 00 00 00 00 00
 (1652892568.536573)  can0  1E5   [8]  1C 03 02 50 04 00 00 B1
 (1652892568.536842)  can0  014   [5]  00 00 00 10 27
 (1652892568.545771)  can0  012   [8]  E8 03 10 00 00 00 00 00
 (1652892568.546614)  can0  1E5   [8]  1C 03 02 70 04 00 00 D1
 (1652892568.546849)  can0  014   [5]  00 00 00 10 27
 (1652892568.556167)  can0  012   [8]  E8 03 10 00 00 00 00 00
 (1652892568.556570)  can0  1E5   [8]  1C 03 01 10 00 00 00 6C
 (1652892568.556837)  can0  014   [5]  00 00 00 10 27
 (1652892568.565767)  can0  012   [8]  E8 03 10 00 00 00 00 00
 (1652892568.566567)  can0  1E5   [8]  1C 03 01 30 00 00 00 8C
 (1652892568.566832)  can0  014   [5]  00 00 00 10 27
 (1652892568.575762)  can0  012   [8]  E8 03 10 00 00 00 00 00
 (1652892568.576563)  can0  1E5   [8]  1C 03 01 50 00 00 00 AC
 (1652892568.576830)  can0  014   [5]  00 00 00 10 27
 (1652892568.585760)  can0  012   [8]  E8 03 10 00 00 00 00 00
 (1652892568.586567)  can0  1E5   [8]  1C 02 FF 7F FF 00 02 D7
 (1652892568.586849)  can0  014   [5]  00 00 00 10 27
 (1652892568.595780)  can0  012   [8]  E8 03 10 00 00 00 00 00
 (1652892568.596555)  can0  1E5   [8]  1C 02 FF 1F FF 00 02 77
 (1652892568.596832)  can0  014   [5]  00 00 00 10 27
 (1652892568.605564)  can0  010   [4]  28 76 01 00
 (1652892568.605786)  can0  012   [8]  E8 03 10 00 00 00 00 00
 (1652892568.606574)  can0  1E5   [8]  1C 02 FF 3F FF 00 02 97
 (1652892568.606841)  can0  014   [5]  00 00 00 13 27
 (1652892568.615840)  can0  012   [8]  E8 03 10 00 00 00 00 00
 (1652892568.616557)  can0  1E5   [8]  1C 02 FF 5F FF 00 02 B7
 (1652892568.616834)  can0  014   [5]  00 00 00 0D 27
 (1652892568.625943)  can0  012   [8]  E8 03 10 00 00 00 00 00
 (1652892568.626595)  can0  1E5   [8]  1C 02 FF 7F FF 00 02 D7
 (1652892568.626836)  can0  014   [5]  00 00 00 10 27
 (1652892568.635924)  can0  012   [8]  E8 03 10 00 00 00 00 00
 (1652892568.636554)  can0  1E5   [8]  1C 02 FF 1F FF 00 02 77
 (1652892568.636832)  can0  014   [5]  00 00 00 10 27
 (1652892568.645819)  can0  012   [8]  E8 03 10 00 00 00 00 00
 (1652892568.646558)  can0  1E5   [8]  1C 02 FF 3F FF 00 02 97
 (1652892568.646835)  can0  014   [5]  00 00 00 10 27
 (1652892568.655942)  can0  012   [8]  E8 03 10 00 00 00 00 00
 (1652892568.656555)  can0  1E5   [8]  1C 02 FF 5F FF 00 02 B7
 (1652892568.656840)  can0  014   [5]  00 00 00 10 27
 (1652892568.665789)  can0  012   [8]  E8 03 10 00 00 00 00 00
 (1652892568.666563)  can0  1E5   [8]  1C 02 FF 7F FF 00 02 D7
 (1652892568.666839)  can0  014   [5]  00 00 00 10 27
 (1652892568.675940)  can0  012   [8]  E8 03 10 00 00 00 00 00
 (1652892568.676551)  can0  1E5   [8]  1C 03 01 10 00 00 00 6C
 (1652892568.676829)  can0  014   [5]  00 00 00 10 27
 (1652892568.685928)  can0  012   [8]  E8 03 10 00 00 00 00 00
 (1652892568.686558)  can0  1E5   [8]  1C 02 FF 30 00 00 01 89
 (1652892568.686834)  can0  014   [5]  00 00 00 10 27
 (1652892568.695783)  can0  012   [8]  E8 03 10 00 00 00 00 00
 (1652892568.696585)  can0  1E5   [8]  1C 02 FD 5F FF 00 02 B5
 (1652892568.696840)  can0  014   [5]  00 00 00 10 27
 (1652892568.705379)  can0  010   [4]  28 76 01 00
 (1652892568.705781)  can0  012   [8]  E8 03 10 00 00 00 00 00
 (1652892568.706598)  can0  1E5   [8]  1C 02 FC 7F FE 00 02 D3
 (1652892568.706836)  can0  014   [5]  00 00 00 13 27
 (1652892568.715746)  can0  012   [8]  E8 03 10 00 00 00 00 00
 (1652892568.716553)  can0  1E5   [8]  1C 02 FA 1F FD 00 02 70
 (1652892568.716827)  can0  014   [5]  00 00 00 0D 27
 (1652892568.725944)  can0  012   [8]  E8 03 10 00 00 00 00 00
 (1652892568.726553)  can0  1E5   [8]  1C 02 FA 3F FD 00 02 90
 (1652892568.726835)  can0  014   [5]  00 00 00 10 27
 (1652892568.735939)  can0  012   [8]  E8 03 10 00 00 00 00 00
 (1652892568.736577)  can0  1E5   [8]  1C 02 FA 5F FD 00 02 B0
 (1652892568.736842)  can0  014   [5]  00 00 00 10 27
 (1652892568.745745)  can0  012   [8]  E8 03 10 00 00 00 00 00
 (1652892568.746559)  can0  1E5   [8]  1C 02 FA 7F FD 00 02 D0
 (1652892568.746839)  can0  014   [5]  00 00 00 10 27
 (1652892568.755952)  can0  012   [8]  E8 03 10 00 00 00 00 00
 (1652892568.756582)  can0  1E5   [8]  1C 02 F9 1F FC 00 02 6E
 (1652892568.756842)  can0  014   [5]  00 00 00 10 27
 (1652892568.765772)  can0  012   [8]  E8 03 10 00 00 00 00 00
 (1652892568.766570)  can0  1E5   [8]  1C 02 F9 3F FC 00 02 8E
 (1652892568.766838)  can0  014   [5]  00 00 00 10 27
 (1652892568.775938)  can0  012   [8]  E8 03 10 00 00 00 00 00
 (1652892568.776553)  can0  1E5   [8]  1C 02 F9 5F FC 00 02 AE
 (1652892568.776833)  can0  014   [5]  00 00 00 10 27
 (1652892568.785951)  can0  012   [8]  E8 03 10 00 00 00 00 00
 (1652892568.786548)  can0  1E5   [8]  1C 02 F9 7F FC 00 02 CE
 (1652892568.786847)  can0  014   [5]  00 00 00 10 27
 (1652892568.795780)  can0  012   [8]  E8 03 10 00 00 00 00 00
 (1652892568.796559)  can0  1E5   [8]  1C 02 F7 1F FC 00 02 6C
 (1652892568.796834)  can0  014   [5]  00 00 00 10 27
 (1652892568.805612)  can0  010   [4]  28 76 01 00
 (1652892568.805728)  can0  012   [8]  E8 03 10 00 00 00 00 00
 (1652892568.806593)  can0  1E5   [8]  1C 02 F7 3F FD 00 02 8D
 (1652892568.806846)  can0  014   [5]  00 00 00 13 27
 (1652892568.815808)  can0  012   [8]  E8 03 10 00 00 00 00 00
 (1652892568.816548)  can0  1E5   [8]  1C 02 F7 5F FE 00 02 AE
 (1652892568.816842)  can0  014   [5]  00 00 00 0D 27
 (1652892568.825780)  can0  012   [8]  E8 03 10 00 00 00 00 00
 (1652892568.826583)  can0  1E5   [8]  1C 02 F7 7F FE 00 02 CE
 (1652892568.826881)  can0  014   [5]  00 00 00 10 27
 (1652892568.835765)  can0  012   [8]  E8 03 10 00 00 00 00 00
 (1652892568.836559)  can0  1E5   [8]  1C 02 F7 1F FE 00 02 6E
 (1652892568.836836)  can0  014   [5]  00 00 00 10 27
 (1652892568.845784)  can0  012   [8]  E8 03 10 00 00 00 00 00
 (1652892568.846553)  can0  1E5   [8]  1C 02 F7 3F FE 00 02 8E
 (1652892568.846848)  can0  014   [5]  00 00 00 10 27
 (1652892568.855933)  can0  012   [8]  E8 03 10 00 00 00 00 00
 (1652892568.856577)  can0  1E5   [8]  1C 02 F7 5F FF 00 02 AF
 (1652892568.856838)  can0  014   [5]  00 00 00 10 27
 (1652892568.865747)  can0  012   [8]  E8 03 10 00 00 00 00 00
 (1652892568.866551)  can0  1E5   [8]  1C 02 F7 7F FF 00 02 CF
 (1652892568.866827)  can0  014   [5]  00 00 00 10 27
 (1652892568.876469)  can0  012   [8]  E8 03 10 00 00 00 00 00
 (1652892568.876547)  can0  1E5   [8]  1C 02 F7 1F FF 00 02 6F
 (1652892568.876847)  can0  014   [5]  00 00 00 10 27
 (1652892568.885781)  can0  012   [8]  E8 03 10 00 00 00 00 00
 (1652892568.886557)  can0  1E5   [8]  1C 02 F7 3F FF 00 02 8F
 (1652892568.886837)  can0  014   [5]  00 00 00 10 27
 (1652892568.895750)  can0  012   [8]  E8 03 10 00 00 00 00 00
 (1652892568.896587)  can0  1E5   [8]  1C 02 F7 50 00 00 01 A1
 (1652892568.896834)  can0  014   [5]  00 00 00 10 27
 (1652892568.905568)  can0  010   [4]  28 76 01 00
 (1652892568.905786)  can0  012   [8]  E8 03 10 00 00 00 00 00
 (1652892568.906568)  can0  1E5   [8]  1C 02 F7 70 00 00 01 C1
 (1652892568.906840)  can0  014   [5]  00 00 00 13 27
 (1652892568.915777)  can0  012   [8]  E8 03 10 00 00 00 00 00
 (1652892568.916548)  can0  1E5   [8]  1C 02 F7 10 00 00 01 61
 (1652892568.916834)  can0  014   [5]  00 00 00 0D 27
 (1652892568.926530)  can0  012   [8]  E8 03 10 00 00 00 00 00
 (1652892568.926603)  can0  1E5   [8]  1C 02 F7 30 00 00 01 81
 (1652892568.926833)  can0  014   [5]  00 00 00 10 27
 (1652892568.935795)  can0  012   [8]  E8 03 10 00 00 00 00 00
 (1652892568.936582)  can0  1E5   [8]  1C 02 F7 50 00 00 01 A1
 (1652892568.936843)  can0  014   [5]  00 00 00 10 27
 (1652892568.945771)  can0  012   [8]  E8 03 10 00 00 00 00 00
 (1652892568.946549)  can0  1E5   [8]  1C 02 F7 70 00 00 01 C1
 (1652892568.946836)  can0  014   [5]  00 00 00 10 27
 (1652892568.955770)  can0  012   [8]  E8 03 10 00 00 00 00 00
 (1652892568.956592)  can0  1E5   [8]  1C 02 F7 10 00 00 01 61
 (1652892568.956842)  can0  014   [5]  00 00 00 10 27
 (1652892568.965783)  can0  012   [8]  E8 03 10 00 00 00 00 00
 (1652892568.966543)  can0  1E5   [8]  1C 02 F7 30 00 00 01 81
 (1652892568.966831)  can0  014   [5]  00 00 00 10 27
 (1652892568.975768)  can0  012   [8]  E8 03 10 00 00 00 00 00
 (1652892568.976544)  can0  1E5   [8]  1C 02 F7 50 00 00 01 A1
 (1652892568.976826)  can0  014   [5]  00 00 00 10 27
 (1652892568.985763)  can0  012   [8]  E8 03 10 00 00 00 00 00
 (1652892568.986682)  can0  1E5   [8]  1C 02 F7 70 00 00 01 C1
 (1652892568.986847)  can0  014   [5]  00 00 00 10 27
 (1652892568.995768)  can0  012   [8]  E8 03 10 00 00 00 00 00
 (1652892568.996543)  can0  1E5   [8]  1C 02 F7 10 00 00 01 61
 (1652892568.996832)  can0  014   [5]  00 00 00 10 27
 (1652892569.005580)  can0  010   [4]  28 76 01 00
 (1652892569.005588)  can0  0E2   [2]  0A 03
 (1652892569.005749)  can0  012   [8]  E8 03 10 00 00 00 00 00
 (1652892569.005927)  can0  0E3   [2]  0A 03
 (1652892569.006596)  can0  1E5   [8]  1C 02 F7 30 00 00 01 81
 (1652892569.006848)  can0  014   [5]  00 00 00 19 27
 (1652892569.006985)  can0  0E4   [2]  0A 03
 (1652892569.015766)  can0  012   [8]  E8 03 10 00 00 00 00 00
 (1652892569.016540)  can0  1E5   [8]  1C 02 F7 50 00 00 01 A1
 (1652892569.016851)  can0  014   [5]  00 00 00 07 27
 (1652892569.026029)  can0  012   [8]  E8 03 10 00 00 00 00 00
 (1652892569.026543)  can0  1E5   [8]  1C 02 F7 70 00 00 01 C1
 (1652892569.026843)  can0  014   [5]  00 00 00 10 27
 (1652892569.036055)  can0  012   [8]  E8 03 10 00 00 00 00 00
 (1652892569.036547)  can0  1E5   [8]  1C 02 F7 10 00 00 01 61
 (1652892569.036837)  can0  014   [5]  00 00 00 10 27
 (1652892569.045786)  can0  012   [8]  E8 03 10 00 00 00 00 00
 (1652892569.046548)  can0  1E5   [8]  1C 02 F7 30 00 00 01 81
 (1652892569.046831)  can0  014   [5]  00 00 00 10 27
 (1652892569.056092)  can0  012   [8]  E8 03 10 00 00 00 00 00
 (1652892569.056568)  can0  1E5   [8]  1C 02 F7 50 00 00 01 A1
 (1652892569.056830)  can0  014   [5]  00 00 00 10 27
 (1652892569.065764)  can0  012   [8]  E8 03 10 00 00 00 00 00
 (1652892569.066549)  can0  1E5   [8]  1C 02 F7 70 00 00 01 C1
 (1652892569.066832)  can0  014   [5]  00 00 00 10 27
 (1652892569.075952)  can0  012   [8]  E8 03 10 00 00 00 00 00
 (1652892569.076576)  can0  1E5   [8]  1C 02 F7 10 00 00 01 61
 (1652892569.076848)  can0  014   [5]  00 00 00 10 27
 (1652892569.085941)  can0  012   [8]  E8 03 10 00 00 00 00 00
 (1652892569.086586)  can0  1E5   [8]  1C 02 F7 30 00 00 01 81
 (1652892569.086842)  can0  014   [5]  00 00 00 10 27
 (1652892569.095783)  can0  012   [8]  E8 03 10 00 00 00 00 00
 (1652892569.096578)  can0  1E5   [8]  1C 02 F7 50 00 00 01 A1
 (1652892569.096839)  can0  014   [5]  00 00 00 10 27
 (1652892569.105416)  can0  010   [4]  28 76 01 01
 (1652892569.105737)  can0  012   [8]  E8 03 10 00 00 00 00 00
 (1652892569.106574)  can0  1E5   [8]  1C 02 F7 70 00 00 01 C1
 (1652892569.106884)  can0  014   [5]  00 00 00 13 27
 (1652892569.115820)  can0  012   [8]  E8 03 10 00 00 00 00 00
 (1652892569.116555)  can0  1E5   [8]  1C 02 F7 10 00 00 01 61
 (1652892569.116851)  can0  014   [5]  00 00 00 0D 27
 (1652892569.125946)  can0  012   [8]  E8 03 10 00 00 00 00 00
 (1652892569.126582)  can0  1E5   [8]  1C 02 F7 30 00 00 01 81
 (1652892569.126843)  can0  014   [5]  00 00 00 10 27
 (1652892569.135932)  can0  012   [8]  E8 03 10 00 00 00 00 00
 (1652892569.136536)  can0  1E5   [8]  1C 02 F7 50 00 00 01 A1
 (1652892569.136840)  can0  014   [5]  00 00 00 10 27
 (1652892569.145781)  can0  012   [8]  E8 03 10 00 00 00 00 00
 (1652892569.146563)  can0  1E5   [8]  1C 02 F7 70 00 00 01 C1
 (1652892569.146843)  can0  014   [5]  00 00 00 10 27
 (1652892569.155943)  can0  012   [8]  E8 03 10 00 00 00 00 00
 (1652892569.156564)  can0  1E5   [8]  1C 02 F7 10 00 00 01 61
 (1652892569.156831)  can0  014   [5]  00 00 00 10 27
 (1652892569.165747)  can0  012   [8]  E8 03 10 00 00 00 00 00
 (1652892569.166556)  can0  1E5   [8]  1C 02 F7 30 00 00 01 81
 (1652892569.166830)  can0  014   [5]  00 00 00 10 27
 (1652892569.175985)  can0  012   [8]  E8 03 10 00 00 00 00 00
 (1652892569.176575)  can0  1E5   [8]  1C 02 F7 50 00 00 01 A1
 (1652892569.176833)  can0  014   [5]  00 00 00 10 27
 (1652892569.185935)  can0  012   [8]  E8 03 10 00 00 00 00 00
 (1652892569.186587)  can0  1E5   [8]  1C 02 F7 70 00 00 01 C1
 (1652892569.186838)  can0  014   [5]  00 00 00 10 27
 (1652892569.195781)  can0  012   [8]  E8 03 10 00 00 00 00 00
 (1652892569.196560)  can0  1E5   [8]  1C 02 F7 10 00 00 01 61
 (1652892569.196827)  can0  014   [5]  00 00 00 10 27
 (1652892569.205605)  can0  010   [4]  28 76 01 01
 (1652892569.205763)  can0  012   [8]  E8 03 10 00 00 00 00 00
 (1652892569.206579)  can0  1E5   [8]  1C 02 F7 30 00 00 01 81
 (1652892569.206847)  can0  014   [5]  00 00 00 13 27
 (1652892569.215752)  can0  012   [8]  E8 03 10 00 00 00 00 00
 (1652892569.216545)  can0  1E5   [8]  1C 02 F7 50 00 00 01 A1
 (1652892569.216837)  can0  014   [5]  00 00 00 0D 27
 (1652892569.225754)  can0  012   [8]  E8 03 10 00 00 00 00 00
 (1652892569.226559)  can0  1E5   [8]  1C 02 F7 70 00 00 01 C1
 (1652892569.226849)  can0  014   [5]  00 00 00 10 27
 (1652892569.235954)  can0  012   [8]  E8 03 10 00 00 00 00 00
 (1652892569.236541)  can0  1E5   [8]  1C 02 F7 10 00 00 01 61
 (1652892569.236843)  can0  014   [5]  00 00 00 10 27
 (1652892569.245793)  can0  012   [8]  E8 03 10 00 00 00 00 00
 (1652892569.246613)  can0  1E5   [8]  1C 02 F7 30 00 00 01 81
 (1652892569.246880)  can0  014   [5]  00 00 00 10 27
 (1652892569.255926)  can0  012   [8]  E8 03 10 00 00 00 00 00
 (1652892569.256574)  can0  1E5   [8]  1C 02 F7 50 00 00 01 A1
 (1652892569.256850)  can0  014   [5]  00 00 00 10 27
 (1652892569.265747)  can0  012   [8]  E8 03 10 00 00 00 00 00
 (1652892569.266544)  can0  1E5   [8]  1C 02 F7 70 00 00 01 C1
 (1652892569.266843)  can0  014   [5]  00 00 00 10 27
 (1652892569.276222)  can0  012   [8]  E8 03 10 00 00 00 00 00
 (1652892569.276543)  can0  1E5   [8]  1C 02 F7 10 00 00 01 61
 (1652892569.276842)  can0  014   [5]  00 00 00 10 27
 (1652892569.285926)  can0  012   [8]  E8 03 10 00 00 00 00 00
 (1652892569.286537)  can0  1E5   [8]  1C 02 F7 30 00 00 01 81
 (1652892569.286829)  can0  014   [5]  00 00 00 10 27
 (1652892569.295791)  can0  012   [8]  E8 03 10 00 00 00 00 00
 (1652892569.296557)  can0  1E5   [8]  1C 02 F7 50 00 00 01 A1
 (1652892569.296838)  can0  014   [5]  00 00 00 10 27
 (1652892569.305591)  can0  010   [4]  28 76 01 01
 (1652892569.305780)  can0  012   [8]  E8 03 10 00 00 00 00 00
 (1652892569.306552)  can0  1E5   [8]  1C 02 F7 70 00 00 01 C1
 (1652892569.306835)  can0  014   [5]  00 00 00 13 27
 (1652892569.315779)  can0  012   [8]  E8 03 10 00 00 00 00 00
 (1652892569.316538)  can0  1E5   [8]  1C 02 F7 10 00 00 01 61
 (1652892569.316836)  can0  014   [5]  00 00 00 0D 27
 (1652892569.325947)  can0  012   [8]  E8 03 10 00 00 00 00 00
 (1652892569.326559)  can0  1E5   [8]  1C 02 F5 3F FF 00 02 8D
 (1652892569.326845)  can0  014   [5]  00 00 00 10 27
 (1652892569.335783)  can0  012   [8]  E8 03 10 00 00 00 00 00
 (1652892569.336538)  can0  1E5   [8]  1C 02 F5 5F FF 00 02 AD
 (1652892569.336841)  can0  014   [5]  00 00 00 10 27
 (1652892569.345766)  can0  012   [8]  E8 03 10 00 00 00 00 00
 (1652892569.346551)  can0  1E5   [8]  1C 02 F5 7F FF 00 02 CD
 (1652892569.346851)  can0  014   [5]  00 00 00 10 27
 (1652892569.355952)  can0  012   [8]  E8 03 10 00 00 00 00 00
 (1652892569.356575)  can0  1E5   [8]  1C 02 F5 1F FF 00 02 6D
 (1652892569.356835)  can0  014   [5]  00 00 00 10 27
 (1652892569.365767)  can0  012   [8]  E8 03 10 00 00 00 00 00
 (1652892569.366546)  can0  1E5   [8]  1C 02 F5 3F FF 00 02 8D
 (1652892569.366831)  can0  014   [5]  00 00 00 10 27
 (1652892569.376442)  can0  012   [8]  E8 03 10 00 00 00 00 00
 (1652892569.376548)  can0  1E5   [8]  1C 02 F5 5F FF 00 02 AD
 (1652892569.376887)  can0  014   [5]  00 00 00 10 27
 (1652892569.385797)  can0  012   [8]  E8 03 10 00 00 00 00 00
 (1652892569.386548)  can0  1E5   [8]  1C 02 F5 7F FF 00 02 CD
 (1652892569.386842)  can0  014   [5]  00 00 00 10 27
 (1652892569.395766)  can0  012   [8]  E8 03 10 00 00 00 00 00
 (1652892569.396544)  can0  1E5   [8]  1C 02 F5 1F FF 00 02 6D
 (1652892569.396832)  can0  014   [5]  00 00 00 10 27
 (1652892569.405570)  can0  010   [4]  28 76 01 01
 (1652892569.405779)  can0  012   [8]  E8 03 10 00 00 00 00 00
 (1652892569.406556)  can0  1E5   [8]  1C 02 F5 3F FF 00 02 8D
 (1652892569.406836)  can0  014   [5]  00 00 00 13 27
 (1652892569.415777)  can0  012   [8]  E8 03 10 00 00 00 00 00
 (1652892569.416547)  can0  1E5   [8]  1C 02 F5 5F FF 00 02 AD
 (1652892569.416836)  can0  014   [5]  00 00 00 0D 27
 (1652892569.425952)  can0  012   [8]  E8 03 10 00 00 00 00 00
 (1652892569.426576)  can0  1E5   [8]  1C 02 F5 70 00 00 01 BF
 (1652892569.426831)  can0  014   [5]  00 00 00 10 27
 (1652892569.435772)  can0  012   [8]  E8 03 10 00 00 00 00 00
 (1652892569.436538)  can0  1E5   [8]  1C 02 F5 10 00 00 01 5F
 (1652892569.436837)  can0  014   [5]  00 00 00 10 27
 (1652892569.445791)  can0  012   [8]  E8 03 10 00 00 00 00 00
 (1652892569.446533)  can0  1E5   [8]  1C 02 F5 30 00 00 01 7F
 (1652892569.446840)  can0  014   [5]  00 00 00 10 27
 (1652892569.455937)  can0  012   [8]  E8 03 10 00 00 00 00 00
 (1652892569.456544)  can0  1E5   [8]  1C 02 F5 50 00 00 01 9F
 (1652892569.456826)  can0  014   [5]  00 00 00 10 27
 (1652892569.465810)  can0  012   [8]  E8 03 10 00 00 00 00 00
 (1652892569.466541)  can0  1E5   [8]  1C 02 F5 70 00 00 01 BF
 (1652892569.466834)  can0  014   [5]  00 00 00 10 27
 (1652892569.475888)  can0  012   [8]  E8 03 10 00 00 00 00 00
 (1652892569.476542)  can0  1E5   [8]  1C 02 F5 10 00 00 01 5F
 (1652892569.476840)  can0  014   [5]  00 00 00 10 27
 (1652892569.485776)  can0  012   [8]  E8 03 10 00 00 00 00 00
 (1652892569.486574)  can0  1E5   [8]  1C 02 F5 30 00 00 01 7F
 (1652892569.486892)  can0  014   [5]  00 00 00 10 27
 (1652892569.495763)  can0  012   [8]  E8 03 10 00 00 00 00 00
 (1652892569.496567)  can0  1E5   [8]  1C 02 F5 50 00 00 01 9F
 (1652892569.496842)  can0  014   [5]  00 00 00 10 27
 (1652892569.505561)  can0  010   [4]  28 76 01 01
 (1652892569.505744)  can0  012   [8]  E8 03 10 00 00 00 00 00
 (1652892569.506550)  can0  1E5   [8]  1C 02 F5 70 00 00 01 BF
 (1652892569.506838)  can0  014   [5]  00 00 00 13 27
 (1652892569.515776)  can0  012   [8]  E8 03 10 00 00 00 00 00
 (1652892569.516556)  can0  1E5   [8]  1C 02 F5 10 00 00 01 5F
 (1652892569.516833)  can0  014   [5]  00 00 00 0D 27
 (1652892569.525988)  can0  012   [8]  E8 03 10 00 00 00 00 00
 (1652892569.526557)  can0  1E5   [8]  1C 02 F5 30 00 00 01 7F
 (1652892569.526848)  can0  014   [5]  00 00 00 10 27
 (1652892569.535753)  can0  012   [8]  E8 03 10 00 00 00 00 00
 (1652892569.536543)  can0  1E5   [8]  1C 02 F4 5F FF 00 02 AC
 (1652892569.536845)  can0  014   [5]  00 00 00 10 27
 (1652892569.545781)  can0  012   [8]  E8 03 10 00 00 00 00 00
 (1652892569.546558)  can0  1E5   [8]  1C 02 F5 70 00 00 01 BF
 (1652892569.546836)  can0  014   [5]  00 00 00 10 27
 (1652892569.556053)  can0  012   [8]  E8 03 10 00 00 00 00 00
 (1652892569.556541)  can0  1E5   [8]  1C 02 F5 10 00 00 01 5F
 (1652892569.556837)  can0  014   [5]  00 00 00 10 27
 (1652892569.565832)  can0  012   [8]  E8 03 10 00 00 00 00 00
 (1652892569.566543)  can0  1E5   [8]  1C 02 F5 30 00 00 01 7F
 (1652892569.566830)  can0  014   [5]  00 00 00 10 27
 (1652892569.576108)  can0  012   [8]  E8 03 10 00 00 00 00 00
 (1652892569.576528)  can0  1E5   [8]  1C 02 F5 50 00 00 01 9F
 (1652892569.576827)  can0  014   [5]  00 00 00 10 27
 (1652892569.585784)  can0  012   [8]  E8 03 10 00 00 00 00 00
 (1652892569.586541)  can0  1E5   [8]  1C 02 F5 70 00 00 01 BF
 (1652892569.586842)  can0  014   [5]  00 00 00 10 27
 (1652892569.595776)  can0  012   [8]  E8 03 10 00 00 00 00 00
 (1652892569.596535)  can0  1E5   [8]  1C 02 F5 10 00 00 01 5F
 (1652892569.596824)  can0  014   [5]  00 00 00 10 27
 (1652892569.605407)  can0  010   [4]  28 76 01 01
 (1652892569.605746)  can0  012   [8]  E8 03 10 00 00 00 00 00
 (1652892569.606550)  can0  1E5   [8]  1C 02 F5 30 00 00 01 7F
 (1652892569.606838)  can0  014   [5]  00 00 00 13 27
 (1652892569.615768)  can0  012   [8]  E8 03 10 00 00 00 00 00
 (1652892569.616538)  can0  1E5   [8]  1C 02 F4 50 00 00 01 9E
 (1652892569.616837)  can0  014   [5]  00 00 00 0D 27
 (1652892569.625945)  can0  012   [8]  E8 03 10 00 00 00 00 00
 (1652892569.626549)  can0  1E5   [8]  1C 02 F5 70 00 00 01 BF
 (1652892569.626826)  can0  014   [5]  00 00 00 10 27
 (1652892569.635935)  can0  012   [8]  E8 03 10 00 00 00 00 00
 (1652892569.636547)  can0  1E5   [8]  1C 02 F5 10 00 00 01 5F
 (1652892569.636840)  can0  014   [5]  00 00 00 10 27
 (1652892569.645786)  can0  012   [8]  E8 03 10 00 00 00 00 00
 (1652892569.646533)  can0  1E5   [8]  1C 02 F5 30 00 00 01 7F
 (1652892569.646822)  can0  014   [5]  00 00 00 10 27
 (1652892569.655935)  can0  012   [8]  E8 03 10 00 00 00 00 00
 (1652892569.656540)  can0  1E5   [8]  1C 02 F5 50 00 00 01 9F
 (1652892569.656838)  can0  014   [5]  00 00 00 10 27
 (1652892569.665744)  can0  012   [8]  E8 03 10 00 00 00 00 00
 (1652892569.666540)  can0  1E5   [8]  1C 02 F5 70 00 00 01 BF
 (1652892569.666833)  can0  014   [5]  00 00 00 10 27
 (1652892569.675964)  can0  012   [8]  E8 03 10 00 00 00 00 00
 (1652892569.676566)  can0  1E5   [8]  1C 02 F5 10 00 00 01 5F
 (1652892569.676844)  can0  014   [5]  00 00 00 10 27
 (1652892569.685933)  can0  012   [8]  E8 03 10 00 00 00 00 00
 (1652892569.686574)  can0  1E5   [8]  1C 02 F5 30 00 00 01 7F
 (1652892569.686843)  can0  014   [5]  00 00 00 10 27
 (1652892569.695774)  can0  012   [8]  E8 03 10 00 00 00 00 00
 (1652892569.696540)  can0  1E5   [8]  1C 02 F5 50 00 00 01 9F
 (1652892569.696892)  can0  014   [5]  00 00 00 10 27
 (1652892569.705403)  can0  010   [4]  28 76 01 01
 (1652892569.705777)  can0  012   [8]  E8 03 10 00 00 00 00 00
 (1652892569.706567)  can0  1E5   [8]  1C 02 F5 70 00 00 01 BF
 (1652892569.706835)  can0  014   [5]  00 00 00 13 27
 (1652892569.715824)  can0  012   [8]  E8 03 10 00 00 00 00 00
