 (1652892597.795734)  can0  012   [8]  E8 03 10 00 00 00 00 00
 (1652892597.795810)  can0  1E5   [8]  1C 02 DD 10 00 00 01 47
 (1652892597.796740)  can0  014   [5]  00 00 00 10 27
 (1652892597.805433)  can0  010   [4]  26 73 00 00
 (1652892597.805637)  can0  012   [8]  E8 03 10 00 00 00 00 00
 (1652892597.805851)  can0  1E5   [8]  1C 02 DD 30 00 00 01 67
 (1652892597.806796)  can0  014   [5]  00 00 00 13 27
 (1652892597.815857)  can0  012   [8]  E8 03 10 00 00 00 00 00
 (1652892597.815866)  can0  1E5   [8]  1C 02 DD 50 00 00 01 87
 (1652892597.816793)  can0  014   [5]  00 00 00 0D 27
 (1652892597.825805)  can0  012   [8]  E8 03 10 00 00 00 00 00
 (1652892597.825812)  can0  1E5   [8]  1C 02 DD 70 00 00 01 A7
 (1652892597.826801)  can0  014   [5]  00 00 00 10 27
 (1652892597.835582)  can0  012   [8]  E8 03 10 00 00 00 00 00
 (1652892597.835858)  can0  1E5   [8]  1C 02 DD 10 00 00 01 47
 (1652892597.836788)  can0  014   [5]  00 00 00 10 27
 (1652892597.845805)  can0  012   [8]  E8 03 10 00 00 00 00 00
 (1652892597.845813)  can0  1E5   [8]  1C 02 DD 30 00 00 01 67
 (1652892597.846785)  can0  014   [5]  00 00 00 10 27
 (1652892597.855816)  can0  012   [8]  E8 03 10 00 00 00 00 00
 (1652892597.855824)  can0  1E5   [8]  1C 02 DD 50 00 00 01 87
 (1652892597.856798)  can0  014   [5]  00 00 00 10 27
 (1652892597.865616)  can0  012   [8]  E8 03 10 00 00 00 00 00
 (1652892597.865796)  can0  1E5   [8]  1C 02 DD 70 00 00 01 A7
 (1652892597.866751)  can0  014   [5]  00 00 00 10 27
 (1652892597.875799)  can0  012   [8]  E8 03 10 00 00 00 00 00
 (1652892597.875814)  can0  1E5   [8]  1C 02 DD 10 00 00 01 47
 (1652892597.876791)  can0  014   [5]  00 00 00 10 27
 (1652892597.885798)  can0  012   [8]  E8 03 10 00 00 00 00 00
 (1652892597.885806)  can0  1E5   [8]  1C 02 DD 30 00 00 01 67
 (1652892597.886790)  can0  014   [5]  00 00 00 10 27
 (1652892597.895808)  can0  012   [8]  E8 03 10 00 00 00 00 00
 (1652892597.895816)  can0  1E5   [8]  1C 02 DD 50 00 00 01 87
 (1652892597.896797)  can0  014   [5]  00 00 00 10 27
 (1652892597.905464)  can0  010   [4]  26 73 00 00
 (1652892597.905622)  can0  012   [8]  E8 03 10 00 00 00 00 00
 (1652892597.905864)  can0  1E5   [8]  1C 02 DD 70 00 00 01 A7
 (1652892597.906790)  can0  014   [5]  00 00 00 13 27
 (1652892597.915821)  can0  012   [8]  E8 03 10 00 00 00 00 00
 (1652892597.915829)  can0  1E5   [8]  1C 02 DC 10 00 00 01 46
 (1652892597.916737)  can0  014   [5]  00 00 00 0D 27
 (1652892597.925790)  can0  012   [8]  E8 03 10 00 00 00 00 00
 (1652892597.925831)  can0  1E5   [8]  1C 02 DC 30 00 00 01 66
 (1652892597.926794)  can0  014   [5]  00 00 00 10 27
 (1652892597.935788)  can0  012   [8]  E8 03 10 00 00 00 00 00
 (1652892597.935830)  can0  1E5   [8]  1C 02 DD 50 00 00 01 87
 (1652892597.936790)  can0  014   [5]  00 00 00 10 27
 (1652892597.945808)  can0  012   [8]  E8 03 10 00 00 00 00 00
 (1652892597.945816)  can0  1E5   [8]  1C 02 DD 70 00 00 01 A7
 (1652892597.946795)  can0  014   [5]  00 00 00 10 27
 (1652892597.955810)  can0  012   [8]  E8 03 10 00 00 00 00 00
 (1652892597.955819)  can0  1E5   [8]  1C 02 DC 10 00 00 01 46
 (1652892597.956796)  can0  014   [5]  00 00 00 10 27
 (1652892597.965885)  can0  012   [8]  E8 03 10 00 00 00 00 00
 (1652892597.965892)  can0  1E5   [8]  1C 02 DC 30 00 00 01 66
 (1652892597.966788)  can0  014   [5]  00 00 00 10 27
 (1652892597.975810)  can0  012   [8]  E8 03 10 00 00 00 00 00
 (1652892597.975818)  can0  1E5   [8]  1C 02 DD 50 00 00 01 87
 (1652892597.976802)  can0  014   [5]  00 00 00 10 27
 (1652892597.985788)  can0  012   [8]  E8 03 10 00 00 00 00 00
 (1652892597.985805)  can0  1E5   [8]  1C 02 DC 70 00 00 01 A6
 (1652892597.986748)  can0  014   [5]  00 00 00 10 27
 (1652892597.995816)  can0  012   [8]  E8 03 10 00 00 00 00 00
 (1652892597.995824)  can0  1E5   [8]  1C 02 DD 10 00 00 01 47
 (1652892597.996794)  can0  014   [5]  00 00 00 10 27
 (1652892598.005480)  can0  010   [4]  26 73 00 00
 (1652892598.005489)  can0  0E2   [2]  90 03
 (1652892598.005678)  can0  012   [8]  E8 03 10 00 00 00 00 00
 (1652892598.005776)  can0  0E3   [2]  90 03
 (1652892598.006052)  can0  1E5   [8]  1C 02 DC 30 00 00 01 66
 (1652892598.006803)  can0  014   [5]  00 00 00 19 27
 (1652892598.006893)  can0  0E4   [2]  90 03
 (1652892598.015834)  can0  012   [8]  E8 03 10 00 00 00 00 00
 (1652892598.015842)  can0  1E5   [8]  1C 02 DD 50 00 00 01 87
 (1652892598.016793)  can0  014   [5]  00 00 00 07 27
 (1652892598.025807)  can0  012   [8]  E8 03 10 00 00 00 00 00
 (1652892598.025816)  can0  1E5   [8]  1C 02 DD 70 00 00 01 A7
 (1652892598.026801)  can0  014   [5]  00 00 00 10 27
 (1652892598.035781)  can0  012   [8]  E8 03 10 00 00 00 00 00
 (1652892598.035822)  can0  1E5   [8]  1C 02 DC 10 00 00 01 46
 (1652892598.036789)  can0  014   [5]  00 00 00 10 27
 (1652892598.045808)  can0  012   [8]  E8 03 10 00 00 00 00 00
 (1652892598.045816)  can0  1E5   [8]  1C 02 DD 30 00 00 01 67
 (1652892598.046788)  can0  014   [5]  00 00 00 10 27
 (1652892598.055790)  can0  012   [8]  E8 03 10 00 00 00 00 00
 (1652892598.055832)  can0  1E5   [8]  1C 02 DD 50 00 00 01 87
 (1652892598.056796)  can0  014   [5]  00 00 00 10 27
 (1652892598.065821)  can0  012   [8]  E8 03 10 00 00 00 00 00
 (1652892598.065828)  can0  1E5   [8]  1C 02 DC 70 00 00 01 A6
 (1652892598.066791)  can0  014   [5]  00 00 00 10 27
 (1652892598.075808)  can0  012   [8]  E8 03 10 00 00 00 00 00
 (1652892598.075816)  can0  1E5   [8]  1C 02 DC 10 00 00 01 46
 (1652892598.076779)  can0  014   [5]  00 00 00 10 27
 (1652892598.085794)  can0  012   [8]  E8 03 10 00 00 00 00 00
 (1652892598.085836)  can0  1E5   [8]  1C 02 DD 30 00 00 01 67
 (1652892598.086788)  can0  014   [5]  00 00 00 10 27
 (1652892598.095810)  can0  012   [8]  E8 03 10 00 00 00 00 00
 (1652892598.095818)  can0  1E5   [8]  1C 02 DC 50 00 00 01 86
 (1652892598.096792)  can0  014   [5]  00 00 00 10 27
 (1652892598.105477)  can0  010   [4]  26 73 00 00
 (1652892598.105582)  can0  012   [8]  E8 03 10 00 00 00 00 00
 (1652892598.105859)  can0  1E5   [8]  1C 02 DD 70 00 00 01 A7
 (1652892598.106801)  can0  014   [5]  00 00 00 13 27
 (1652892598.115816)  can0  012   [8]  E8 03 10 00 00 00 00 00
 (1652892598.115824)  can0  1E5   [8]  1C 02 DD 10 00 00 01 47
 (1652892598.116791)  can0  014   [5]  00 00 00 0D 27
 (1652892598.125829)  can0  012   [8]  E8 03 10 00 00 00 00 00
 (1652892598.125838)  can0  1E5   [8]  1C 02 DD 30 00 00 01 67
 (1652892598.126763)  can0  014   [5]  00 00 00 10 27
 (1652892598.135806)  can0  012   [8]  E8 03 10 00 00 00 00 00
 (1652892598.135814)  can0  1E5   [8]  1C 02 DD 50 00 00 01 87
 (1652892598.136783)  can0  014   [5]  00 00 00 10 27
 (1652892598.145800)  can0  012   [8]  E8 03 10 00 00 00 00 00
 (1652892598.145809)  can0  1E5   [8]  1C 02 DD 70 00 00 01 A7
 (1652892598.146784)  can0  014   [5]  00 00 00 10 27
 (1652892598.155814)  can0  012   [8]  E8 03 10 00 00 00 00 00
 (1652892598.155822)  can0  1E5   [8]  1C 02 DD 10 00 00 01 47
 (1652892598.156791)  can0  014   [5]  00 00 00 10 27
 (1652892598.165832)  can0  012   [8]  E8 03 10 00 00 00 00 00
 (1652892598.165841)  can0  1E5   [8]  1C 02 DD 30 00 00 01 67
 (1652892598.166790)  can0  014   [5]  00 00 00 10 27
 (1652892598.175809)  can0  012   [8]  E8 03 10 00 00 00 00 00
 (1652892598.175817)  can0  1E5   [8]  1C 02 DD 50 00 00 01 87
 (1652892598.176796)  can0  014   [5]  00 00 00 10 27
 (1652892598.185797)  can0  012   [8]  E8 03 10 00 00 00 00 00
 (1652892598.185811)  can0  1E5   [8]  1C 02 DD 70 00 00 01 A7
 (1652892598.186791)  can0  014   [5]  00 00 00 10 27
 (1652892598.195838)  can0  012   [8]  E8 03 10 00 00 00 00 00
 (1652892598.195846)  can0  1E5   [8]  1C 02 DD 10 00 00 01 47
 (1652892598.196795)  can0  014   [5]  00 00 00 10 27
 (1652892598.205464)  can0  010   [4]  26 73 00 00
 (1652892598.205616)  can0  012   [8]  E8 03 10 00 00 00 00 00
 (1652892598.205858)  can0  1E5   [8]  1C 02 DD 30 00 00 01 67
 (1652892598.206801)  can0  014   [5]  00 00 00 13 27
 (1652892598.215908)  can0  012   [8]  E8 03 10 00 00 00 00 00
 (1652892598.215917)  can0  1E5   [8]  1C 02 DD 50 00 00 01 87
 (1652892598.216792)  can0  014   [5]  00 00 00 0D 27
 (1652892598.225611)  can0  012   [8]  E8 03 10 00 00 00 00 00
 (1652892598.225813)  can0  1E5   [8]  1C 02 DD 70 00 00 01 A7
 (1652892598.226736)  can0  014   [5]  00 00 00 10 27
 (1652892598.235920)  can0  012   [8]  E8 03 10 00 00 00 00 00
 (1652892598.235928)  can0  1E5   [8]  1C 02 DD 10 00 00 01 47
 (1652892598.236794)  can0  014   [5]  00 00 00 10 27
 (1652892598.245796)  can0  012   [8]  E8 03 10 00 00 00 00 00
 (1652892598.245812)  can0  1E5   [8]  1C 02 DD 30 00 00 01 67
 (1652892598.246794)  can0  014   [5]  00 00 00 10 27
 (1652892598.255618)  can0  012   [8]  E8 03 10 00 00 00 00 00
 (1652892598.255857)  can0  1E5   [8]  1C 02 DD 50 00 00 01 87
 (1652892598.256776)  can0  014   [5]  00 00 00 10 27
 (1652892598.265812)  can0  012   [8]  E8 03 10 00 00 00 00 00
 (1652892598.265820)  can0  1E5   [8]  1C 02 DD 70 00 00 01 A7
 (1652892598.266774)  can0  014   [5]  00 00 00 10 27
 (1652892598.275799)  can0  012   [8]  E8 03 10 00 00 00 00 00
 (1652892598.275808)  can0  1E5   [8]  1C 02 DD 10 00 00 01 47
 (1652892598.276789)  can0  014   [5]  00 00 00 10 27
 (1652892598.285630)  can0  012   [8]  E8 03 10 00 00 00 00 00
 (1652892598.285799)  can0  1E5   [8]  1C 02 DD 30 00 00 01 67
 (1652892598.286738)  can0  014   [5]  00 00 00 10 27
 (1652892598.295807)  can0  012   [8]  E8 03 10 00 00 00 00 00
 (1652892598.295822)  can0  1E5   [8]  1C 02 DD 50 00 00 01 87
 (1652892598.296761)  can0  014   [5]  00 00 00 10 27
 (1652892598.305465)  can0  010   [4]  26 73 00 00
 (1652892598.305579)  can0  012   [8]  E8 03 10 00 00 00 00 00
 (1652892598.305803)  can0  1E5   [8]  1C 02 DD 70 00 00 01 A7
 (1652892598.306790)  can0  014   [5]  00 00 00 13 27
 (1652892598.315826)  can0  012   [8]  E8 03 10 00 00 00 00 00
 (1652892598.315835)  can0  1E5   [8]  1C 02 DD 10 00 00 01 47
 (1652892598.316790)  can0  014   [5]  00 00 00 0D 27
 (1652892598.325803)  can0  012   [8]  E8 03 10 00 00 00 00 00
 (1652892598.325811)  can0  1E5   [8]  1C 02 DD 30 00 00 01 67
 (1652892598.326795)  can0  014   [5]  00 00 00 10 27
 (1652892598.335789)  can0  012   [8]  E8 03 10 00 00 00 00 00
 (1652892598.335831)  can0  1E5   [8]  1C 02 DD 50 00 00 01 87
 (1652892598.336790)  can0  014   [5]  00 00 00 10 27
 (1652892598.345802)  can0  012   [8]  E8 03 10 00 00 00 00 00
 (1652892598.345811)  can0  1E5   [8]  1C 02 DD 70 00 00 01 A7
 (1652892598.346788)  can0  014   [5]  00 00 00 10 27
 (1652892598.355773)  can0  012   [8]  E8 03 10 00 00 00 00 00
 (1652892598.355817)  can0  1E5   [8]  1C 02 DD 10 00 00 01 47
 (1652892598.356792)  can0  014   [5]  00 00 00 10 27
 (1652892598.365809)  can0  012   [8]  E8 03 10 00 00 00 00 00
 (1652892598.365817)  can0  1E5   [8]  1C 02 DD 30 00 00 01 67
 (1652892598.366786)  can0  014   [5]  00 00 00 10 27
 (1652892598.375807)  can0  012   [8]  E8 03 10 00 00 00 00 00
 (1652892598.375815)  can0  1E5   [8]  1C 02 DD 50 00 00 01 87
 (1652892598.376796)  can0  014   [5]  00 00 00 10 27
 (1652892598.385797)  can0  012   [8]  E8 03 10 00 00 00 00 00
 (1652892598.385813)  can0  1E5   [8]  1C 02 DD 70 00 00 01 A7
 (1652892598.386813)  can0  014   [5]  00 00 00 10 27
 (1652892598.395808)  can0  012   [8]  E8 03 10 00 00 00 00 00
 (1652892598.395816)  can0  1E5   [8]  1C 02 DD 10 00 00 01 47
 (1652892598.396786)  can0  014   [5]  00 00 00 10 27
 (1652892598.405458)  can0  010   [4]  26 73 00 00
 (1652892598.405615)  can0  012   [8]  E8 03 10 00 00 00 00 00
 (1652892598.405858)  can0  1E5   [8]  1C 02 DD 30 00 00 01 67
 (1652892598.406795)  can0  014   [5]  00 00 00 13 27
 (1652892598.415825)  can0  012   [8]  E8 03 10 00 00 00 00 00
 (1652892598.415832)  can0  1E5   [8]  1C 02 DC 50 00 00 01 86
 (1652892598.416788)  can0  014   [5]  00 00 00 0D 27
 (1652892598.425782)  can0  012   [8]  E8 03 10 00 00 00 00 00
 (1652892598.425826)  can0  1E5   [8]  1C 02 DC 70 00 00 01 A6
 (1652892598.426779)  can0  014   [5]  00 00 00 10 27
 (1652892598.435646)  can0  012   [8]  E8 03 10 00 00 00 00 00
 (1652892598.435910)  can0  1E5   [8]  1C 02 DC 10 00 00 01 46
 (1652892598.436795)  can0  014   [5]  00 00 00 10 27
 (1652892598.445796)  can0  012   [8]  E8 03 10 00 00 00 00 00
 (1652892598.445810)  can0  1E5   [8]  1C 02 DC 30 00 00 01 66
 (1652892598.446793)  can0  014   [5]  00 00 00 10 27
 (1652892598.455792)  can0  012   [8]  E8 03 10 00 00 00 00 00
 (1652892598.455834)  can0  1E5   [8]  1C 02 DC 50 00 00 01 86
 (1652892598.456781)  can0  014   [5]  00 00 00 10 27
 (1652892598.465624)  can0  012   [8]  E8 03 10 00 00 00 00 00
 (1652892598.465846)  can0  1E5   [8]  1C 02 DC 70 00 00 01 A6
 (1652892598.466794)  can0  014   [5]  00 00 00 10 27
 (1652892598.475791)  can0  012   [8]  E8 03 10 00 00 00 00 00
 (1652892598.475833)  can0  1E5   [8]  1C 02 DD 10 00 00 01 47
 (1652892598.476788)  can0  014   [5]  00 00 00 10 27
 (1652892598.485789)  can0  012   [8]  E8 03 10 00 00 00 00 00
 (1652892598.485805)  can0  1E5   [8]  1C 02 DC 30 00 00 01 66
 (1652892598.486795)  can0  014   [5]  00 00 00 10 27
 (1652892598.495785)  can0  012   [8]  E8 03 10 00 00 00 00 00
 (1652892598.495827)  can0  1E5   [8]  1C 02 DD 50 00 00 01 87
 (1652892598.496806)  can0  014   [5]  00 00 00 10 27
 (1652892598.505466)  can0  010   [4]  26 73 00 00
 (1652892598.505621)  can0  012   [8]  E8 03 10 00 00 00 00 00
 (1652892598.505846)  can0  1E5   [8]  1C 02 DD 70 00 00 01 A7
 (1652892598.506789)  can0  014   [5]  00 00 00 13 27
 (1652892598.515807)  can0  012   [8]  E8 03 10 00 00 00 00 00
 (1652892598.515815)  can0  1E5   [8]  1C 02 DD 10 00 00 01 47
 (1652892598.516746)  can0  014   [5]  00 00 00 0D 27
 (1652892598.525811)  can0  012   [8]  E8 03 10 00 00 00 00 00
 (1652892598.525819)  can0  1E5   [8]  1C 02 DD 30 00 00 01 67
 (1652892598.526794)  can0  014   [5]  00 00 00 10 27
 (1652892598.535789)  can0  012   [8]  E8 03 10 00 00 00 00 00
 (1652892598.535832)  can0  1E5   [8]  1C 02 DD 50 00 00 01 87
 (1652892598.536788)  can0  014   [5]  00 00 00 10 27
 (1652892598.545807)  can0  012   [8]  E8 03 10 00 00 00 00 00
 (1652892598.545816)  can0  1E5   [8]  1C 02 DD 70 00 00 01 A7
 (1652892598.546788)  can0  014   [5]  00 00 00 10 27
 (1652892598.555787)  can0  012   [8]  E8 03 10 00 00 00 00 00
 (1652892598.555829)  can0  1E5   [8]  1C 02 DD 10 00 00 01 47
 (1652892598.556796)  can0  014   [5]  00 00 00 10 27
 (1652892598.565822)  can0  012   [8]  E8 03 10 00 00 00 00 00
 (1652892598.565831)  can0  1E5   [8]  1C 02 DD 30 00 00 01 67
 (1652892598.566795)  can0  014   [5]  00 00 00 10 27
 (1652892598.575792)  can0  012   [8]  E8 03 10 00 00 00 00 00
 (1652892598.575806)  can0  1E5   [8]  1C 02 DD 50 00 00 01 87
 (1652892598.576790)  can0  014   [5]  00 00 00 10 27
 (1652892598.585789)  can0  012   [8]  E8 03 10 00 00 00 00 00
 (1652892598.585805)  can0  1E5   [8]  1C 02 DD 70 00 00 01 A7
 (1652892598.586795)  can0  014   [5]  00 00 00 10 27
 (1652892598.595780)  can0  012   [8]  E8 03 10 00 00 00 00 00
 (1652892598.595820)  can0  1E5   [8]  1C 02 DD 10 00 00 01 47
 (1652892598.596788)  can0  014   [5]  00 00 00 10 27
 (1652892598.605469)  can0  010   [4]  26 73 00 00
 (1652892598.605622)  can0  012   [8]  E8 03 10 00 00 00 00 00
 (1652892598.605858)  can0  1E5   [8]  1C 02 DD 30 00 00 01 67
 (1652892598.606776)  can0  014   [5]  00 00 00 13 27
 (1652892598.615821)  can0  012   [8]  E8 03 10 00 00 00 00 00
 (1652892598.615829)  can0  1E5   [8]  1C 02 DD 50 00 00 01 87
 (1652892598.616778)  can0  014   [5]  00 00 00 0D 27
 (1652892598.625789)  can0  012   [8]  E8 03 10 00 00 00 00 00
 (1652892598.625830)  can0  1E5   [8]  1C 02 DD 70 00 00 01 A7
 (1652892598.626786)  can0  014   [5]  00 00 00 10 27
 (1652892598.635783)  can0  012   [8]  E8 03 10 00 00 00 00 00
 (1652892598.635825)  can0  1E5   [8]  1C 02 DD 10 00 00 01 47
 (1652892598.636805)  can0  014   [5]  00 00 00 10 27
 (1652892598.645788)  can0  012   [8]  E8 03 10 00 00 00 00 00
 (1652892598.645804)  can0  1E5   [8]  1C 02 DD 30 00 00 01 67
 (1652892598.646780)  can0  014   [5]  00 00 00 10 27
 (1652892598.655800)  can0  012   [8]  E8 03 10 00 00 00 00 00
 (1652892598.655808)  can0  1E5   [8]  1C 02 DD 50 00 00 01 87
 (1652892598.656791)  can0  014   [5]  00 00 00 10 27
 (1652892598.665805)  can0  012   [8]  E8 03 10 00 00 00 00 00
 (1652892598.665813)  can0  1E5   [8]  1C 02 DD 70 00 00 01 A7
 (1652892598.666786)  can0  014   [5]  00 00 00 10 27
 (1652892598.675803)  can0  012   [8]  E8 03 10 00 00 00 00 00
 (1652892598.675811)  can0  1E5   [8]  1C 02 DD 10 00 00 01 47
 (1652892598.676795)  can0  014   [5]  00 00 00 10 27
 (1652892598.685795)  can0  012   [8]  E8 03 10 00 00 00 00 00
 (1652892598.685838)  can0  1E5   [8]  1C 02 DD 30 00 00 01 67
 (1652892598.686789)  can0  014   [5]  00 00 00 10 27
 (1652892598.695855)  can0  012   [8]  E8 03 10 00 00 00 00 00
 (1652892598.695864)  can0  1E5   [8]  1C 02 DD 50 00 00 01 87
 (1652892598.696788)  can0  014   [5]  00 00 00 10 27
 (1652892598.705465)  can0  010   [4]  26 73 00 00
 (1652892598.705562)  can0  012   [8]  E8 03 10 00 00 00 00 00
 (1652892598.705853)  can0  1E5   [8]  1C 02 DD 70 00 00 01 A7
 (1652892598.706789)  can0  014   [5]  00 00 00 13 27
 (1652892598.715863)  can0  012   [8]  E8 03 10 00 00 00 00 00
 (1652892598.715872)  can0  1E5   [8]  1C 02 DD 10 00 00 01 47
 (1652892598.716777)  can0  014   [5]  00 00 00 0D 27
 (1652892598.725861)  can0  012   [8]  E8 03 10 00 00 00 00 00
 (1652892598.725870)  can0  1E5   [8]  1C 02 DD 30 00 00 01 67
 (1652892598.726747)  can0  014   [5]  00 00 00 10 27
 (1652892598.735889)  can0  012   [8]  E8 03 10 00 00 00 00 00
 (1652892598.735897)  can0  1E5   [8]  1C 02 DF 50 01 00 01 8A
 (1652892598.736781)  can0  014   [5]  00 00 00 10 27
 (1652892598.745935)  can0  012   [8]  E8 03 10 00 00 00 00 00
 (1652892598.745943)  can0  1E5   [8]  1C 02 DD 70 00 00 01 A7
 (1652892598.746782)  can0  014   [5]  00 00 00 10 27
 (1652892598.755918)  can0  012   [8]  E8 03 10 00 00 00 00 00
 (1652892598.755927)  can0  1E5   [8]  1C 02 DD 10 00 00 01 47
 (1652892598.756790)  can0  014   [5]  00 00 00 10 27
 (1652892598.765818)  can0  012   [8]  E8 03 10 00 00 00 00 00
 (1652892598.765827)  can0  1E5   [8]  1C 02 DD 30 00 00 01 67
 (1652892598.767013)  can0  014   [5]  00 00 00 10 27
 (1652892598.775824)  can0  012   [8]  E8 03 10 00 00 00 00 00
 (1652892598.775832)  can0  1E5   [8]  1C 02 DD 50 00 00 01 87
 (1652892598.776796)  can0  014   [5]  00 00 00 10 27
 (1652892598.785794)  can0  012   [8]  E8 03 10 00 00 00 00 00
 (1652892598.785809)  can0  1E5   [8]  1C 02 DD 70 00 00 01 A7
 (1652892598.786784)  can0  014   [5]  00 00 00 10 27
 (1652892598.795800)  can0  012   [8]  E8 03 10 00 00 00 00 00
 (1652892598.795809)  can0  1E5   [8]  1C 02 DD 10 00 00 01 47
 (1652892598.796788)  can0  014   [5]  00 00 00 10 27
 (1652892598.805449)  can0  010   [4]  26 73 00 00
 (1652892598.805606)  can0  012   [8]  E8 03 10 00 00 00 00 00
 (1652892598.805852)  can0  1E5   [8]  1C 02 DD 30 00 00 01 67
 (1652892598.806798)  can0  014   [5]  00 00 00 13 27
 (1652892598.815823)  can0  012   [8]  E8 03 10 00 00 00 00 00
 (1652892598.815832)  can0  1E5   [8]  1C 02 DF 50 00 00 01 89
 (1652892598.816793)  can0  014   [5]  00 00 00 0D 27
 (1652892598.825775)  can0  012   [8]  E8 03 10 00 00 00 00 00
 (1652892598.825830)  can0  1E5   [8]  1C 02 DF 70 00 00 01 A9
 (1652892598.826802)  can0  014   [5]  00 00 00 10 27
 (1652892598.835801)  can0  012   [8]  E8 03 10 00 00 00 00 00
 (1652892598.835816)  can0  1E5   [8]  1C 02 DD 10 00 00 01 47
 (1652892598.836789)  can0  014   [5]  00 00 00 10 27
 (1652892598.845776)  can0  012   [8]  E8 03 10 00 00 00 00 00
 (1652892598.845831)  can0  1E5   [8]  1C 02 DD 30 00 00 01 67
 (1652892598.846746)  can0  014   [5]  00 00 00 10 27
 (1652892598.855788)  can0  012   [8]  E8 03 10 00 00 00 00 00
 (1652892598.855841)  can0  1E5   [8]  1C 02 DF 50 00 00 01 89
 (1652892598.856798)  can0  014   [5]  00 00 00 10 27
 (1652892598.865828)  can0  012   [8]  E8 03 10 00 00 00 00 00
 (1652892598.865837)  can0  1E5   [8]  1C 02 DD 70 00 00 01 A7
 (1652892598.866794)  can0  014   [5]  00 00 00 10 27
 (1652892598.875803)  can0  012   [8]  E8 03 10 00 00 00 00 00
 (1652892598.875811)  can0  1E5   [8]  1C 02 DD 10 00 00 01 47
 (1652892598.876786)  can0  014   [5]  00 00 00 10 27
 (1652892598.885798)  can0  012   [8]  E8 03 10 00 00 00 00 00
 (1652892598.885807)  can0  1E5   [8]  1C 02 DD 30 00 00 01 67
 (1652892598.886791)  can0  014   [5]  00 00 00 10 27
 (1652892598.895789)  can0  012   [8]  E8 03 10 00 00 00 00 00
 (1652892598.895804)  can0  1E5   [8]  1C 02 DD 50 00 00 01 87
 (1652892598.896795)  can0  014   [5]  00 00 00 10 27
 (1652892598.905455)  can0  010   [4]  26 73 00 00
 (1652892598.905577)  can0  012   [8]  E8 03 10 00 00 00 00 00
 (1652892598.905849)  can0  1E5   [8]  1C 02 DD 70 00 00 01 A7
 (1652892598.906787)  can0  014   [5]  00 00 00 13 27
 (1652892598.915810)  can0  012   [8]  E8 03 10 00 00 00 00 00
 (1652892598.915818)  can0  1E5   [8]  1C 02 DD 10 00 00 01 47
 (1652892598.916787)  can0  014   [5]  00 00 00 0D 27
 (1652892598.925782)  can0  012   [8]  E8 03 10 00 00 00 00 00
 (1652892598.925798)  can0  1E5   [8]  1C 02 DD 30 00 00 01 67
 (1652892598.926791)  can0  014   [5]  00 00 00 10 27
 (1652892598.935789)  can0  012   [8]  E8 03 10 00 00 00 00 00
 (1652892598.935804)  can0  1E5   [8]  1C 02 DD 50 00 00 01 87
 (1652892598.936786)  can0  014   [5]  00 00 00 10 27
 (1652892598.945801)  can0  012   [8]  E8 03 10 00 00 00 00 00
 (1652892598.945810)  can0  1E5   [8]  1C 02 DD 70 00 00 01 A7
 (1652892598.946775)  can0  014   [5]  00 00 00 10 27
 (1652892598.955783)  can0  012   [8]  E8 03 10 00 00 00 00 00
 (1652892598.955799)  can0  1E5   [8]  1C 02 DF 10 00 00 01 49
 (1652892598.956789)  can0  014   [5]  00 00 00 10 27
 (1652892598.965816)  can0  012   [8]  E8 03 10 00 00 00 00 00
 (1652892598.965824)  can0  1E5   [8]  1C 02 DD 30 00 00 01 67
 (1652892598.966793)  can0  014   [5]  00 00 00 10 27
 (1652892598.975790)  can0  012   [8]  E8 03 10 00 00 00 00 00
 (1652892598.975805)  can0  1E5   [8]  1C 02 DD 50 00 00 01 87
 (1652892598.976800)  can0  014   [5]  00 00 00 10 27
 (1652892598.985794)  can0  012   [8]  E8 03 10 00 00 00 00 00
 (1652892598.985849)  can0  1E5   [8]  1C 02 DD 70 00 00 01 A7
 (1652892598.986811)  can0  014   [5]  00 00 00 10 27
 (1652892598.995799)  can0  012   [8]  E8 03 10 00 00 00 00 00
 (1652892598.995808)  can0  1E5   [8]  1C 02 DD 10 00 00 01 47
 (1652892598.996789)  can0  014   [5]  00 00 00 10 27
 (1652892599.005291)  can0  010   [4]  26 73 00 00
 (1652892599.005394)  can0  0E2   [2]  B8 03
 (1652892599.005673)  can0  012   [8]  E8 03 10 00 00 00 00 00
 (1652892599.005771)  can0  0E3   [2]  B8 03
 (1652892599.006030)  can0  1E5   [8]  1C 02 DD 30 00 00 01 67
 (1652892599.006804)  can0  014   [5]  00 00 00 19 27
 (1652892599.006904)  can0  0E4   [2]  B8 03
 (1652892599.015828)  can0  012   [8]  E8 03 10 00 00 00 00 00
 (1652892599.015836)  can0  1E5   [8]  1C 02 DD 50 00 00 01 87
 (1652892599.016804)  can0  014   [5]  00 00 00 07 27
 (1652892599.025788)  can0  012   [8]  E8 03 10 00 00 00 00 00
 (1652892599.025803)  can0  1E5   [8]  1C 02 DD 70 00 00 01 A7
 (1652892599.026790)  can0  014   [5]  00 00 00 10 27
 (1652892599.035755)  can0  012   [8]  E8 03 10 00 00 00 00 00
 (1652892599.035813)  can0  1E5   [8]  1C 02 DD 10 00 00 01 47
 (1652892599.036783)  can0  014   [5]  00 00 00 10 27
 (1652892599.045785)  can0  012   [8]  E8 03 10 00 00 00 00 00
 (1652892599.045799)  can0  1E5   [8]  1C 02 DF 30 00 00 01 69
 (1652892599.046783)  can0  014   [5]  00 00 00 10 27
 (1652892599.055819)  can0  012   [8]  E8 03 10 00 00 00 00 00
 (1652892599.055828)  can0  1E5   [8]  1C 02 DD 50 00 00 01 87
 (1652892599.056793)  can0  014   [5]  00 00 00 10 27
 (1652892599.065608)  can0  012   [8]  E8 03 10 00 00 00 00 00
 (1652892599.065843)  can0  1E5   [8]  1C 02 DF 70 00 00 01 A9
 (1652892599.066790)  can0  014   [5]  00 00 00 10 27
 (1652892599.075663)  can0  012   [8]  E8 03 10 00 00 00 00 00
 (1652892599.075833)  can0  1E5   [8]  1C 02 DD 10 00 00 01 47
 (1652892599.076791)  can0  014   [5]  00 00 00 10 27
 (1652892599.085775)  can0  012   [8]  E8 03 10 00 00 00 00 00
 (1652892599.085830)  can0  1E5   [8]  1C 02 DD 30 00 00 01 67
 (1652892599.086785)  can0  014   [5]  00 00 00 10 27
 (1652892599.095787)  can0  012   [8]  E8 03 10 00 00 00 00 00
 (1652892599.095842)  can0  1E5   [8]  1C 02 DD 50 00 00 01 87
 (1652892599.096784)  can0  014   [5]  00 00 00 10 27
 (1652892599.105588)  can0  010   [4]  26 73 00 00
 (1652892599.105596)  can0  012   [8]  E8 03 10 00 00 00 00 00
 (1652892599.105839)  can0  1E5   [8]  1C 02 DF 70 00 00 01 A9
 (1652892599.106792)  can0  014   [5]  00 00 00 13 27
 (1652892599.115817)  can0  012   [8]  E8 03 10 00 00 00 00 00
 (1652892599.115826)  can0  1E5   [8]  1C 02 DD 10 00 00 01 47
 (1652892599.116791)  can0  014   [5]  00 00 00 0D 27
 (1652892599.125787)  can0  012   [8]  E8 03 10 00 00 00 00 00
