 (1652892699.972754)  can0  1E5   [8]  1C 01 2D 50 00 00 00 D6
 (1652892699.975180)  can0  012   [8]  E8 03 10 00 00 00 00 00
 (1652892699.976424)  can0  014   [5]  00 00 00 10 27
 (1652892699.982802)  can0  1E5   [8]  1C 01 2D 70 00 00 00 F6
 (1652892699.985171)  can0  012   [8]  E8 03 10 00 00 00 00 00
 (1652892699.986430)  can0  014   [5]  00 00 00 10 27
 (1652892699.992612)  can0  1E5   [8]  1C 01 2D 10 00 00 00 96
 (1652892699.995180)  can0  012   [8]  E8 03 10 00 00 00 00 00
 (1652892699.996421)  can0  014   [5]  00 00 00 10 27
 (1652892700.002630)  can0  1E5   [8]  1C 01 2D 30 00 00 00 B6
 (1652892700.004978)  can0  010   [4]  26 73 00 00
 (1652892700.005031)  can0  012   [8]  E8 03 10 00 00 00 00 00
 (1652892700.005178)  can0  0E2   [2]  80 03
 (1652892700.005320)  can0  0E3   [2]  80 03
 (1652892700.006429)  can0  014   [5]  00 00 00 19 27
 (1652892700.006567)  can0  0E4   [2]  80 03
 (1652892700.012582)  can0  1E5   [8]  1C 01 2D 50 00 00 00 D6
 (1652892700.015182)  can0  012   [8]  E8 03 10 00 00 00 00 00
 (1652892700.016400)  can0  014   [5]  00 F0 FF 07 27
 (1652892700.022609)  can0  1E5   [8]  1C 01 2D 70 00 00 00 F6
 (1652892700.025187)  can0  012   [8]  E8 03 10 00 00 00 00 00
 (1652892700.026413)  can0  014   [5]  00 00 00 10 27
 (1652892700.032607)  can0  1E5   [8]  1C 01 2D 10 00 00 00 96
 (1652892700.035065)  can0  012   [8]  E8 03 10 00 00 00 00 00
 (1652892700.036410)  can0  014   [5]  00 00 00 10 27
 (1652892700.042610)  can0  1E5   [8]  1C 01 2D 30 00 00 00 B6
 (1652892700.045182)  can0  012   [8]  E8 03 10 00 00 00 00 00
 (1652892700.046402)  can0  014   [5]  00 00 00 10 27
 (1652892700.052608)  can0  1E5   [8]  1C 01 2D 50 00 00 00 D6
 (1652892700.055184)  can0  012   [8]  E8 03 10 00 00 00 00 00
 (1652892700.056405)  can0  014   [5]  00 00 00 10 27
 (1652892700.062609)  can0  1E5   [8]  1C 01 2D 70 00 00 00 F6
 (1652892700.065185)  can0  012   [8]  E8 03 10 00 00 00 00 00
 (1652892700.066413)  can0  014   [5]  00 00 00 10 27
 (1652892700.072608)  can0  1E5   [8]  1C 01 2D 10 00 00 00 96
 (1652892700.075189)  can0  012   [8]  E8 03 10 00 00 00 00 00
 (1652892700.076401)  can0  014   [5]  00 00 00 10 27
 (1652892700.082633)  can0  1E5   [8]  1C 01 2D 30 00 00 00 B6
 (1652892700.085172)  can0  012   [8]  E8 03 10 00 00 00 00 00
 (1652892700.086405)  can0  014   [5]  00 00 00 10 27
 (1652892700.092586)  can0  1E5   [8]  1C 01 2D 50 00 00 00 D6
 (1652892700.095201)  can0  012   [8]  E8 03 10 00 00 00 00 00
 (1652892700.096422)  can0  014   [5]  00 00 00 10 27
 (1652892700.102597)  can0  1E5   [8]  1C 01 2D 70 00 00 00 F6
 (1652892700.105015)  can0  010   [4]  26 73 00 00
 (1652892700.105023)  can0  012   [8]  E8 03 10 00 00 00 00 00
 (1652892700.106410)  can0  014   [5]  00 00 00 13 27
 (1652892700.112605)  can0  1E5   [8]  1C 01 2D 10 00 00 00 96
 (1652892700.114978)  can0  012   [8]  E8 03 10 00 00 00 00 00
 (1652892700.116428)  can0  014   [5]  00 00 00 0D 27
 (1652892700.122580)  can0  1E5   [8]  1C 01 2D 30 00 00 00 B6
 (1652892700.124999)  can0  012   [8]  E8 03 10 00 00 00 00 00
 (1652892700.126436)  can0  014   [5]  00 00 00 10 27
 (1652892700.132585)  can0  1E5   [8]  1C 01 2D 50 00 00 00 D6
 (1652892700.135189)  can0  012   [8]  E8 03 10 00 00 00 00 00
 (1652892700.136415)  can0  014   [5]  00 00 00 10 27
 (1652892700.142620)  can0  1E5   [8]  1C 01 2D 70 00 00 00 F6
 (1652892700.145185)  can0  012   [8]  E8 03 10 00 00 00 00 00
 (1652892700.146432)  can0  014   [5]  00 00 00 10 27
 (1652892700.152619)  can0  1E5   [8]  1C 01 2D 10 00 00 00 96
 (1652892700.155184)  can0  012   [8]  E8 03 10 00 00 00 00 00
 (1652892700.156426)  can0  014   [5]  00 00 00 10 27
 (1652892700.162620)  can0  1E5   [8]  1C 01 2D 30 00 00 00 B6
 (1652892700.165182)  can0  012   [8]  E8 03 10 00 00 00 00 00
 (1652892700.166420)  can0  014   [5]  00 00 00 10 27
 (1652892700.172620)  can0  1E5   [8]  1C 01 2D 50 00 00 00 D6
 (1652892700.174991)  can0  012   [8]  E8 03 10 00 00 00 00 00
 (1652892700.176402)  can0  014   [5]  00 00 00 10 27
 (1652892700.182584)  can0  1E5   [8]  1C 01 2D 70 00 00 00 F6
 (1652892700.185000)  can0  012   [8]  E8 03 10 00 00 00 00 00
 (1652892700.186591)  can0  014   [5]  00 00 00 10 27
 (1652892700.192818)  can0  1E5   [8]  1C 01 2D 10 00 00 00 96
 (1652892700.195188)  can0  012   [8]  E8 03 10 00 00 00 00 00
 (1652892700.196403)  can0  014   [5]  00 00 00 10 27
 (1652892700.202585)  can0  1E5   [8]  1C 01 2D 30 00 00 00 B6
 (1652892700.204976)  can0  010   [4]  26 73 00 00
 (1652892700.205047)  can0  012   [8]  E8 03 10 00 00 00 00 00
 (1652892700.206396)  can0  014   [5]  00 00 00 13 27
 (1652892700.212615)  can0  1E5   [8]  1C 01 2D 50 00 00 00 D6
 (1652892700.215225)  can0  012   [8]  E8 03 10 00 00 00 00 00
 (1652892700.216383)  can0  014   [5]  00 00 00 0D 27
 (1652892700.222586)  can0  1E5   [8]  1C 01 2D 70 00 00 00 F6
 (1652892700.225297)  can0  012   [8]  E8 03 10 00 00 00 00 00
 (1652892700.226394)  can0  014   [5]  00 00 00 10 27
 (1652892700.232618)  can0  1E5   [8]  1C 01 2D 10 00 00 00 96
 (1652892700.235267)  can0  012   [8]  E8 03 10 00 00 00 00 00
 (1652892700.236399)  can0  014   [5]  00 00 00 10 27
 (1652892700.242586)  can0  1E5   [8]  1C 01 2D 30 00 00 00 B6
 (1652892700.245295)  can0  012   [8]  E8 03 10 00 00 00 00 00
 (1652892700.246392)  can0  014   [5]  00 00 00 10 27
 (1652892700.252616)  can0  1E5   [8]  1C 01 2D 50 00 00 00 D6
 (1652892700.255307)  can0  012   [8]  E8 03 10 00 00 00 00 00
 (1652892700.256392)  can0  014   [5]  00 00 00 10 27
 (1652892700.262591)  can0  1E5   [8]  1C 01 2D 70 00 00 00 F6
 (1652892700.265179)  can0  012   [8]  E8 03 10 00 00 00 00 00
 (1652892700.266424)  can0  014   [5]  00 00 00 10 27
 (1652892700.272604)  can0  1E5   [8]  1C 01 2D 10 00 00 00 96
 (1652892700.275201)  can0  012   [8]  E8 03 10 00 00 00 00 00
 (1652892700.276398)  can0  014   [5]  00 00 00 10 27
 (1652892700.282581)  can0  1E5   [8]  1C 01 2D 30 00 00 00 B6
 (1652892700.285190)  can0  012   [8]  E8 03 10 00 00 00 00 00
 (1652892700.286392)  can0  014   [5]  00 00 00 10 27
 (1652892700.292585)  can0  1E5   [8]  1C 01 2D 50 00 00 00 D6
 (1652892700.295288)  can0  012   [8]  E8 03 10 00 00 00 00 00
 (1652892700.296403)  can0  014   [5]  00 00 00 10 27
 (1652892700.302602)  can0  1E5   [8]  1C 01 2D 70 00 00 00 F6
 (1652892700.304994)  can0  010   [4]  26 73 00 00
 (1652892700.305048)  can0  012   [8]  E8 03 10 00 00 00 00 00
 (1652892700.306407)  can0  014   [5]  00 00 00 13 27
 (1652892700.312612)  can0  1E5   [8]  1C 01 2D 10 00 00 00 96
 (1652892700.315209)  can0  012   [8]  E8 03 10 00 00 00 00 00
 (1652892700.316398)  can0  014   [5]  00 00 00 0D 27
 (1652892700.322601)  can0  1E5   [8]  1C 01 2D 30 00 00 00 B6
 (1652892700.325192)  can0  012   [8]  E8 03 10 00 00 00 00 00
 (1652892700.326408)  can0  014   [5]  00 00 00 10 27
 (1652892700.332589)  can0  1E5   [8]  1C 01 2D 50 00 00 00 D6
 (1652892700.335188)  can0  012   [8]  E8 03 10 00 00 00 00 00
 (1652892700.336410)  can0  014   [5]  00 00 00 10 27
 (1652892700.342592)  can0  1E5   [8]  1C 01 2D 70 00 00 00 F6
 (1652892700.345195)  can0  012   [8]  E8 03 10 00 00 00 00 00
 (1652892700.346404)  can0  014   [5]  00 00 00 10 27
 (1652892700.352611)  can0  1E5   [8]  1C 01 2D 10 00 00 00 96
 (1652892700.355187)  can0  012   [8]  E8 03 10 00 00 00 00 00
 (1652892700.356414)  can0  014   [5]  00 00 00 10 27
 (1652892700.362610)  can0  1E5   [8]  1C 01 2D 30 00 00 00 B6
 (1652892700.365187)  can0  012   [8]  E8 03 10 00 00 00 00 00
 (1652892700.366405)  can0  014   [5]  00 00 00 10 27
 (1652892700.372586)  can0  1E5   [8]  1C 01 2D 50 00 00 00 D6
 (1652892700.375183)  can0  012   [8]  E8 03 10 00 00 00 00 00
 (1652892700.376384)  can0  014   [5]  00 00 00 10 27
 (1652892700.382608)  can0  1E5   [8]  1C 01 2D 70 00 00 00 F6
 (1652892700.385198)  can0  012   [8]  E8 03 10 00 00 00 00 00
 (1652892700.386417)  can0  014   [5]  00 00 00 10 27
 (1652892700.392610)  can0  1E5   [8]  1C 01 2D 10 00 00 00 96
 (1652892700.395194)  can0  012   [8]  E8 03 10 00 00 00 00 00
 (1652892700.396406)  can0  014   [5]  00 00 00 10 27
 (1652892700.402609)  can0  1E5   [8]  1C 01 2D 30 00 00 00 B6
 (1652892700.404995)  can0  010   [4]  26 73 00 00
 (1652892700.405010)  can0  012   [8]  E8 03 10 00 00 00 00 00
 (1652892700.406410)  can0  014   [5]  00 00 00 13 27
 (1652892700.412611)  can0  1E5   [8]  1C 01 2D 50 00 00 00 D6
 (1652892700.415179)  can0  012   [8]  E8 03 10 00 00 00 00 00
 (1652892700.416424)  can0  014   [5]  00 00 00 0D 27
 (1652892700.422619)  can0  1E5   [8]  1C 01 2D 70 00 00 00 F6
 (1652892700.425172)  can0  012   [8]  E8 03 10 00 00 00 00 00
 (1652892700.426410)  can0  014   [5]  00 00 00 10 27
 (1652892700.432619)  can0  1E5   [8]  1C 01 2D 10 00 00 00 96
 (1652892700.435178)  can0  012   [8]  E8 03 10 00 00 00 00 00
 (1652892700.436414)  can0  014   [5]  00 00 00 10 27
 (1652892700.442620)  can0  1E5   [8]  1C 01 2D 30 00 00 00 B6
 (1652892700.445182)  can0  012   [8]  E8 03 10 00 00 00 00 00
 (1652892700.446422)  can0  014   [5]  00 00 00 10 27
 (1652892700.452619)  can0  1E5   [8]  1C 01 2D 50 00 00 00 D6
 (1652892700.455176)  can0  012   [8]  E8 03 10 00 00 00 00 00
 (1652892700.456421)  can0  014   [5]  00 00 00 10 27
 (1652892700.462607)  can0  1E5   [8]  1C 01 2D 70 00 00 00 F6
 (1652892700.465024)  can0  012   [8]  E8 03 10 00 00 00 00 00
 (1652892700.466424)  can0  014   [5]  FF 0F 00 10 27
 (1652892700.472580)  can0  1E5   [8]  1C 01 2D 10 00 00 00 96
 (1652892700.475009)  can0  012   [8]  E8 03 10 00 00 00 00 00
 (1652892700.476389)  can0  014   [5]  00 00 00 10 27
 (1652892700.482577)  can0  1E5   [8]  1C 01 2D 30 00 00 00 B6
 (1652892700.485180)  can0  012   [8]  E8 03 10 00 00 00 00 00
 (1652892700.486420)  can0  014   [5]  00 00 00 10 27
 (1652892700.492588)  can0  1E5   [8]  1C 01 2D 50 00 00 00 D6
 (1652892700.495196)  can0  012   [8]  E8 03 10 00 00 00 00 00
 (1652892700.496418)  can0  014   [5]  00 00 00 10 27
 (1652892700.502588)  can0  1E5   [8]  1C 01 2D 70 00 00 00 F6
 (1652892700.504980)  can0  010   [4]  26 73 00 00
 (1652892700.505034)  can0  012   [8]  E8 03 10 00 00 00 00 00
 (1652892700.506415)  can0  014   [5]  00 00 00 13 27
 (1652892700.512630)  can0  1E5   [8]  1C 01 2D 10 00 00 00 96
 (1652892700.515188)  can0  012   [8]  E8 03 10 00 00 00 00 00
 (1652892700.516427)  can0  014   [5]  00 00 00 0D 27
 (1652892700.522620)  can0  1E5   [8]  1C 01 2D 30 00 00 00 B6
 (1652892700.525188)  can0  012   [8]  E8 03 10 00 00 00 00 00
 (1652892700.526427)  can0  014   [5]  00 00 00 10 27
 (1652892700.532620)  can0  1E5   [8]  1C 01 2D 50 00 00 00 D6
 (1652892700.535178)  can0  012   [8]  E8 03 10 00 00 00 00 00
 (1652892700.536413)  can0  014   [5]  00 00 00 10 27
 (1652892700.542620)  can0  1E5   [8]  1C 01 2D 70 00 00 00 F6
 (1652892700.545193)  can0  012   [8]  E8 03 10 00 00 00 00 00
 (1652892700.546407)  can0  014   [5]  00 00 00 10 27
 (1652892700.552630)  can0  1E5   [8]  1C 01 2D 10 00 00 00 96
 (1652892700.555188)  can0  012   [8]  E8 03 10 00 00 00 00 00
 (1652892700.556420)  can0  014   [5]  00 00 00 10 27
 (1652892700.562588)  can0  1E5   [8]  1C 01 2D 30 00 00 00 B6
 (1652892700.565170)  can0  012   [8]  E8 03 10 00 00 00 00 00
 (1652892700.566415)  can0  014   [5]  00 00 00 10 27
 (1652892700.572587)  can0  1E5   [8]  1C 01 2D 50 00 00 00 D6
 (1652892700.574991)  can0  012   [8]  E8 03 10 00 00 00 00 00
 (1652892700.576412)  can0  014   [5]  00 00 00 10 27
 (1652892700.582586)  can0  1E5   [8]  1C 01 2D 70 00 00 00 F6
 (1652892700.585191)  can0  012   [8]  E8 03 10 00 00 00 00 00
 (1652892700.586381)  can0  014   [5]  00 00 00 10 27
 (1652892700.592588)  can0  1E5   [8]  1C 01 2D 10 00 00 00 96
 (1652892700.595188)  can0  012   [8]  E8 03 10 00 00 00 00 00
 (1652892700.596415)  can0  014   [5]  00 00 00 10 27
 (1652892700.602622)  can0  1E5   [8]  1C 01 2D 30 00 00 00 B6
 (1652892700.605003)  can0  010   [4]  26 73 00 00
 (1652892700.605012)  can0  012   [8]  E8 03 10 00 00 00 00 00
 (1652892700.606414)  can0  014   [5]  00 00 00 13 27
 (1652892700.612869)  can0  1E5   [8]  1C 01 2D 50 00 00 00 D6
 (1652892700.615187)  can0  012   [8]  E8 03 10 00 00 00 00 00
 (1652892700.616380)  can0  014   [5]  00 00 00 0D 27
 (1652892700.622852)  can0  1E5   [8]  1C 01 2D 70 00 00 00 F6
 (1652892700.625169)  can0  012   [8]  E8 03 10 00 00 00 00 00
 (1652892700.626427)  can0  014   [5]  00 00 00 10 27
 (1652892700.632588)  can0  1E5   [8]  1C 01 2D 10 00 00 00 96
 (1652892700.635171)  can0  012   [8]  E8 03 10 00 00 00 00 00
 (1652892700.636404)  can0  014   [5]  00 00 00 10 27
 (1652892700.642619)  can0  1E5   [8]  1C 01 2D 30 00 00 00 B6
 (1652892700.645178)  can0  012   [8]  E8 03 10 00 00 00 00 00
 (1652892700.646426)  can0  014   [5]  00 00 00 10 27
 (1652892700.652589)  can0  1E5   [8]  1C 01 2D 50 00 00 00 D6
 (1652892700.655181)  can0  012   [8]  E8 03 10 00 00 00 00 00
 (1652892700.656420)  can0  014   [5]  00 00 00 10 27
 (1652892700.662588)  can0  1E5   [8]  1C 01 2D 70 00 00 00 F6
 (1652892700.665283)  can0  012   [8]  E8 03 10 00 00 00 00 00
 (1652892700.666406)  can0  014   [5]  00 00 00 10 27
 (1652892700.672587)  can0  1E5   [8]  1C 01 2D 10 00 00 00 96
 (1652892700.675182)  can0  012   [8]  E8 03 10 00 00 00 00 00
 (1652892700.676417)  can0  014   [5]  00 00 00 10 27
 (1652892700.682587)  can0  1E5   [8]  1C 01 2D 30 00 00 00 B6
 (1652892700.685184)  can0  012   [8]  E8 03 10 00 00 00 00 00
 (1652892700.686416)  can0  014   [5]  00 00 00 10 27
 (1652892700.692620)  can0  1E5   [8]  1C 01 2D 50 00 00 00 D6
 (1652892700.695189)  can0  012   [8]  E8 03 10 00 00 00 00 00
 (1652892700.696410)  can0  014   [5]  00 00 00 10 27
 (1652892700.702630)  can0  1E5   [8]  1C 01 2D 70 00 00 00 F6
 (1652892700.704985)  can0  010   [4]  26 73 00 00
 (1652892700.705000)  can0  012   [8]  E8 03 10 00 00 00 00 00
 (1652892700.706426)  can0  014   [5]  00 00 00 13 27
 (1652892700.712630)  can0  1E5   [8]  1C 01 2D 10 00 00 00 96
 (1652892700.715185)  can0  012   [8]  E8 03 10 00 00 00 00 00
 (1652892700.716410)  can0  014   [5]  00 00 00 0D 27
 (1652892700.722618)  can0  1E5   [8]  1C 01 2D 30 00 00 00 B6
 (1652892700.725201)  can0  012   [8]  E8 03 10 00 00 00 00 00
 (1652892700.726421)  can0  014   [5]  00 00 00 10 27
 (1652892700.732617)  can0  1E5   [8]  1C 01 2D 50 00 00 00 D6
 (1652892700.735221)  can0  012   [8]  E8 03 10 00 00 00 00 00
 (1652892700.736421)  can0  014   [5]  00 00 00 10 27
 (1652892700.742588)  can0  1E5   [8]  1C 01 2D 70 00 00 00 F6
 (1652892700.745243)  can0  012   [8]  E8 03 10 00 00 00 00 00
 (1652892700.746414)  can0  014   [5]  00 00 00 10 27
 (1652892700.752601)  can0  1E5   [8]  1C 01 2D 10 00 00 00 96
 (1652892700.755261)  can0  012   [8]  E8 03 10 00 00 00 00 00
 (1652892700.756405)  can0  014   [5]  00 00 00 10 27
 (1652892700.762618)  can0  1E5   [8]  1C 01 2D 30 00 00 00 B6
 (1652892700.764985)  can0  012   [8]  E8 03 10 00 00 00 00 00
 (1652892700.766423)  can0  014   [5]  00 00 00 10 27
 (1652892700.772619)  can0  1E5   [8]  1C 01 2D 50 00 00 00 D6
 (1652892700.775298)  can0  012   [8]  E8 03 10 00 00 00 00 00
 (1652892700.776411)  can0  014   [5]  00 00 00 10 27
 (1652892700.782588)  can0  1E5   [8]  1C 01 2D 70 00 00 00 F6
 (1652892700.785321)  can0  012   [8]  E8 03 10 00 00 00 00 00
 (1652892700.786411)  can0  014   [5]  00 00 00 10 27
 (1652892700.792803)  can0  1E5   [8]  1C 01 2F 10 00 00 00 98
 (1652892700.795342)  can0  012   [8]  E8 03 10 00 00 00 00 00
 (1652892700.796407)  can0  014   [5]  00 00 00 10 27
 (1652892700.802620)  can0  1E5   [8]  1C 01 2F 30 00 00 00 B8
 (1652892700.804982)  can0  010   [4]  26 73 00 00
 (1652892700.805036)  can0  012   [8]  E8 03 10 00 00 00 00 00
 (1652892700.806428)  can0  014   [5]  00 00 00 13 27
 (1652892700.812795)  can0  1E5   [8]  1C 01 2F 50 00 00 00 D8
 (1652892700.815198)  can0  012   [8]  E8 03 10 00 00 00 00 00
 (1652892700.816380)  can0  014   [5]  00 00 00 0D 27
 (1652892700.822806)  can0  1E5   [8]  1C 01 2F 70 00 00 00 F8
 (1652892700.825196)  can0  012   [8]  E8 03 10 00 00 00 00 00
 (1652892700.826394)  can0  014   [5]  00 00 00 10 27
 (1652892700.832832)  can0  1E5   [8]  1C 01 2F 10 00 00 00 98
 (1652892700.835199)  can0  012   [8]  E8 03 10 00 00 00 00 00
 (1652892700.836421)  can0  014   [5]  00 00 00 10 27
 (1652892700.842620)  can0  1E5   [8]  1C 01 2F 30 00 00 00 B8
 (1652892700.845200)  can0  012   [8]  E8 03 10 00 00 00 00 00
 (1652892700.846415)  can0  014   [5]  00 00 00 10 27
 (1652892700.852625)  can0  1E5   [8]  1C 01 2F 50 00 00 00 D8
 (1652892700.855185)  can0  012   [8]  E8 03 10 00 00 00 00 00
 (1652892700.856408)  can0  014   [5]  00 00 00 10 27
 (1652892700.862629)  can0  1E5   [8]  1C 01 2F 70 00 00 00 F8
 (1652892700.865181)  can0  012   [8]  E8 03 10 00 00 00 00 00
 (1652892700.866399)  can0  014   [5]  00 00 00 10 27
 (1652892700.872794)  can0  1E5   [8]  1C 01 2D 10 00 00 00 96
 (1652892700.875181)  can0  012   [8]  E8 03 10 00 00 00 00 00
 (1652892700.876410)  can0  014   [5]  00 00 00 10 27
 (1652892700.882629)  can0  1E5   [8]  1C 01 2D 30 00 00 00 B6
 (1652892700.885182)  can0  012   [8]  E8 03 10 00 00 00 00 00
 (1652892700.886380)  can0  014   [5]  00 00 00 10 27
 (1652892700.892773)  can0  1E5   [8]  1C 01 2D 50 00 00 00 D6
 (1652892700.895039)  can0  012   [8]  E8 03 10 00 00 00 00 00
 (1652892700.896424)  can0  014   [5]  00 00 00 10 27
 (1652892700.902606)  can0  1E5   [8]  1C 01 2D 70 00 00 00 F6
 (1652892700.904978)  can0  010   [4]  26 73 00 00
 (1652892700.905046)  can0  012   [8]  E8 03 10 00 00 00 00 00
 (1652892700.906384)  can0  014   [5]  00 00 00 13 27
 (1652892700.912622)  can0  1E5   [8]  1C 01 2F 10 00 00 00 98
 (1652892700.915182)  can0  012   [8]  E8 03 10 00 00 00 00 00
 (1652892700.916399)  can0  014   [5]  00 00 00 0D 27
 (1652892700.922586)  can0  1E5   [8]  1C 01 2D 30 00 00 00 B6
 (1652892700.925178)  can0  012   [8]  E8 03 10 00 00 00 00 00
 (1652892700.926398)  can0  014   [5]  00 00 00 10 27
 (1652892700.932585)  can0  1E5   [8]  1C 01 2D 50 00 00 00 D6
 (1652892700.935200)  can0  012   [8]  E8 03 10 00 00 00 00 00
 (1652892700.936398)  can0  014   [5]  00 00 00 10 27
 (1652892700.942581)  can0  1E5   [8]  1C 01 2D 70 00 00 00 F6
 (1652892700.945165)  can0  012   [8]  E8 03 10 00 00 00 00 00
 (1652892700.946392)  can0  014   [5]  00 00 00 10 27
 (1652892700.952519)  can0  1E5   [8]  1C 01 2D 10 00 00 00 96
 (1652892700.955174)  can0  012   [8]  E8 03 10 00 00 00 00 00
 (1652892700.956431)  can0  014   [5]  00 00 00 10 27
 (1652892700.962587)  can0  1E5   [8]  1C 01 2D 30 00 00 00 B6
 (1652892700.965171)  can0  012   [8]  E8 03 10 00 00 00 00 00
 (1652892700.966384)  can0  014   [5]  00 00 00 10 27
 (1652892700.972582)  can0  1E5   [8]  1C 01 2D 50 00 00 00 D6
 (1652892700.975170)  can0  012   [8]  E8 03 10 00 00 00 00 00
 (1652892700.976392)  can0  014   [5]  00 00 00 10 27
 (1652892700.982526)  can0  1E5   [8]  1C 01 2D 70 00 00 00 F6
 (1652892700.985176)  can0  012   [8]  E8 03 10 00 00 00 00 00
 (1652892700.986398)  can0  014   [5]  00 00 00 10 27
 (1652892700.992586)  can0  1E5   [8]  1C 01 2D 10 00 00 00 96
 (1652892700.995182)  can0  012   [8]  E8 03 10 00 00 00 00 00
 (1652892700.996418)  can0  014   [5]  00 00 00 10 27
 (1652892701.002596)  can0  1E5   [8]  1C 01 2D 30 00 00 00 B6
 (1652892701.004974)  can0  010   [4]  26 73 00 00
 (1652892701.005044)  can0  012   [8]  E8 03 10 00 00 00 00 00
 (1652892701.005134)  can0  0E2   [2]  A8 03
 (1652892701.005259)  can0  0E3   [2]  A8 03
 (1652892701.006400)  can0  014   [5]  00 00 00 19 27
 (1652892701.006572)  can0  0E4   [2]  A8 03
 (1652892701.012584)  can0  1E5   [8]  1C 01 2D 50 00 00 00 D6
 (1652892701.015180)  can0  012   [8]  E8 03 10 00 00 00 00 00
 (1652892701.016429)  can0  014   [5]  00 00 00 07 27
 (1652892701.022585)  can0  1E5   [8]  1C 01 2F 70 00 00 00 F8
 (1652892701.025050)  can0  012   [8]  E8 03 10 00 00 00 00 00
 (1652892701.026395)  can0  014   [5]  00 00 00 10 27
 (1652892701.032589)  can0  1E5   [8]  1C 01 2D 10 00 00 00 96
 (1652892701.035180)  can0  012   [8]  E8 03 10 00 00 00 00 00
 (1652892701.036406)  can0  014   [5]  00 00 00 10 27
 (1652892701.042609)  can0  1E5   [8]  1C 01 2F 30 00 00 00 B8
 (1652892701.045170)  can0  012   [8]  E8 03 10 00 00 00 00 00
 (1652892701.046401)  can0  014   [5]  00 00 00 10 27
 (1652892701.052519)  can0  1E5   [8]  1C 01 2F 50 00 00 00 D8
 (1652892701.055174)  can0  012   [8]  E8 03 10 00 00 00 00 00
 (1652892701.056404)  can0  014   [5]  00 00 00 10 27
 (1652892701.062609)  can0  1E5   [8]  1C 01 2F 70 00 00 00 F8
 (1652892701.065174)  can0  012   [8]  E8 03 10 00 00 00 00 00
 (1652892701.066414)  can0  014   [5]  00 00 00 10 27
 (1652892701.072548)  can0  1E5   [8]  1C 01 2F 10 00 00 00 98
 (1652892701.075179)  can0  012   [8]  E8 03 10 00 00 00 00 00
 (1652892701.076412)  can0  014   [5]  00 00 00 10 27
 (1652892701.082613)  can0  1E5   [8]  1C 01 2F 30 00 00 00 B8
 (1652892701.085178)  can0  012   [8]  E8 03 10 00 00 00 00 00
 (1652892701.086402)  can0  014   [5]  00 00 00 10 27
 (1652892701.092525)  can0  1E5   [8]  1C 01 2F 50 00 00 00 D8
 (1652892701.095184)  can0  012   [8]  E8 03 10 00 00 00 00 00
 (1652892701.096400)  can0  014   [5]  00 00 00 10 27
 (1652892701.102610)  can0  1E5   [8]  1C 01 2F 70 00 00 00 F8
 (1652892701.104988)  can0  010   [4]  26 73 00 00
 (1652892701.105002)  can0  012   [8]  E8 03 10 00 00 00 00 00
 (1652892701.106404)  can0  014   [5]  00 00 00 13 27
 (1652892701.112632)  can0  1E5   [8]  1C 01 2D 10 00 00 00 96
 (1652892701.115175)  can0  012   [8]  E8 03 10 00 00 00 00 00
 (1652892701.116414)  can0  014   [5]  00 00 00 0D 27
 (1652892701.122582)  can0  1E5   [8]  1C 01 2F 30 00 00 00 B8
 (1652892701.125190)  can0  012   [8]  E8 03 10 00 00 00 00 00
 (1652892701.126418)  can0  014   [5]  00 00 00 10 27
 (1652892701.132612)  can0  1E5   [8]  1C 01 2F 50 00 00 00 D8
 (1652892701.135181)  can0  012   [8]  E8 03 10 00 00 00 00 00
 (1652892701.136407)  can0  014   [5]  00 00 00 10 27
 (1652892701.142608)  can0  1E5   [8]  1C 01 2F 70 00 00 00 F8
 (1652892701.145173)  can0  012   [8]  E8 03 10 00 00 00 00 00
 (1652892701.146402)  can0  014   [5]  00 F0 FF 10 27
 (1652892701.152609)  can0  1E5   [8]  1C 01 2F 10 00 00 00 98
 (1652892701.155023)  can0  012   [8]  E8 03 10 00 00 00 00 00
 (1652892701.156405)  can0  014   [5]  00 00 00 10 27
 (1652892701.162610)  can0  1E5   [8]  1C 01 2F 30 00 00 00 B8
 (1652892701.165176)  can0  012   [8]  E8 03 10 00 00 00 00 00
 (1652892701.166407)  can0  014   [5]  00 00 00 10 27
 (1652892701.172515)  can0  1E5   [8]  1C 01 2F 50 00 00 00 D8
 (1652892701.175182)  can0  012   [8]  E8 03 10 00 00 00 00 00
 (1652892701.176409)  can0  014   [5]  00 00 00 10 27
 (1652892701.182548)  can0  1E5   [8]  1C 01 2F 70 00 00 00 F8
 (1652892701.185177)  can0  012   [8]  E8 03 10 00 00 00 00 00
 (1652892701.186377)  can0  014   [5]  00 00 00 10 27
 (1652892701.192607)  can0  1E5   [8]  1C 01 2F 10 00 00 00 98
 (1652892701.195176)  can0  012   [8]  E8 03 10 00 00 00 00 00
 (1652892701.196371)  can0  014   [5]  00 00 00 10 27
 (1652892701.202610)  can0  1E5   [8]  1C 01 2F 30 00 00 00 B8
 (1652892701.204985)  can0  010   [4]  26 73 00 00
 (1652892701.205000)  can0  012   [8]  E8 03 10 00 00 00 00 00
 (1652892701.206414)  can0  014   [5]  00 00 00 13 27
 (1652892701.212595)  can0  1E5   [8]  1C 01 2F 50 00 00 00 D8
 (1652892701.215174)  can0  012   [8]  E8 03 10 00 00 00 00 00
 (1652892701.216422)  can0  014   [5]  00 00 00 0D 27
 (1652892701.222588)  can0  1E5   [8]  1C 01 2F 70 00 00 00 F8
 (1652892701.225187)  can0  012   [8]  E8 03 10 00 00 00 00 00
 (1652892701.226423)  can0  014   [5]  00 00 00 10 27
 (1652892701.232620)  can0  1E5   [8]  1C 01 2F 10 00 00 00 98
 (1652892701.235190)  can0  012   [8]  E8 03 10 00 00 00 00 00
 (1652892701.236421)  can0  014   [5]  00 00 00 10 27
 (1652892701.242618)  can0  1E5   [8]  1C 01 2F 30 00 00 00 B8
 (1652892701.245197)  can0  012   [8]  E8 03 10 00 00 00 00 00
 (1652892701.246415)  can0  014   [5]  00 00 00 10 27
 (1652892701.252546)  can0  1E5   [8]  1C 01 2F 50 00 00 00 D8
 (1652892701.255223)  can0  012   [8]  E8 03 10 00 00 00 00 00
 (1652892701.256404)  can0  014   [5]  00 00 00 10 27
 (1652892701.262773)  can0  1E5   [8]  1C 01 2F 70 00 00 00 F8
 (1652892701.265231)  can0  012   [8]  E8 03 10 00 00 00 00 00
 (1652892701.266413)  can0  014   [5]  00 00 00 10 27
 (1652892701.272552)  can0  1E5   [8]  1C 01 2F 10 00 00 00 98
 (1652892701.275258)  can0  012   [8]  E8 03 10 00 00 00 00 00
 (1652892701.276408)  can0  014   [5]  00 00 00 10 27
 (1652892701.282548)  can0  1E5   [8]  1C 01 2F 30 00 00 00 B8
 (1652892701.285275)  can0  012   [8]  E8 03 10 00 00 00 00 00
 (1652892701.286394)  can0  014   [5]  00 00 00 10 27
 (1652892701.292520)  can0  1E5   [8]  1C 01 2F 50 00 00 00 D8
 (1652892701.295298)  can0  012   [8]  E8 03 10 00 00 00 00 00
 (1652892701.296374)  can0  014   [5]  00 00 00 10 27
 (1652892701.302711)  can0  1E5   [8]  1C 01 2F 70 00 00 00 F8
 (1652892701.304980)  can0  010   [4]  26 73 00 00
 (1652892701.305035)  can0  012   [8]  E8 03 10 00 00 00 00 00
 (1652892701.306418)  can0  014   [5]  00 00 00 13 27
 (1652892701.312559)  can0  1E5   [8]  1C 01 2F 10 00 00 00 98
 (1652892701.315179)  can0  012   [8]  E8 03 10 00 00 00 00 00
 (1652892701.316415)  can0  014   [5]  00 00 00 0D 27
 (1652892701.322553)  can0  1E5   [8]  1C 01 2F 30 00 00 00 B8
 (1652892701.325197)  can0  012   [8]  E8 03 10 00 00 00 00 00
 (1652892701.326420)  can0  014   [5]  00 00 00 10 27
 (1652892701.332548)  can0  1E5   [8]  1C 01 2F 50 00 00 00 D8
 (1652892701.335172)  can0  012   [8]  E8 03 10 00 00 00 00 00
 (1652892701.336406)  can0  014   [5]  00 00 00 10 27
 (1652892701.342558)  can0  1E5   [8]  1C 01 2F 70 00 00 00 F8
 (1652892701.345194)  can0  012   [8]  E8 03 10 00 00 00 00 00
 (1652892701.346368)  can0  014   [5]  00 00 00 10 27
 (1652892701.352546)  can0  1E5   [8]  1C 01 2F 10 00 00 00 98
 (1652892701.355188)  can0  012   [8]  E8 03 10 00 00 00 00 00
 (1652892701.356409)  can0  014   [5]  00 00 00 10 27
 (1652892701.362553)  can0  1E5   [8]  1C 01 2F 30 00 00 00 B8
 (1652892701.365171)  can0  012   [8]  E8 03 10 00 00 00 00 00
 (1652892701.366409)  can0  014   [5]  FF 0F 00 10 27
 (1652892701.372554)  can0  1E5   [8]  1C 01 2F 50 00 00 00 D8
 (1652892701.375219)  can0  012   [8]  E8 03 10 00 00 00 00 00
 (1652892701.376415)  can0  014   [5]  00 00 00 10 27
 (1652892701.382559)  can0  1E5   [8]  1C 01 2F 70 00 00 00 F8
 (1652892701.385182)  can0  012   [8]  E8 03 10 00 00 00 00 00
 (1652892701.386379)  can0  014   [5]  00 00 00 10 27
 (1652892701.392553)  can0  1E5   [8]  1C 01 2F 10 00 00 00 98
 (1652892701.395176)  can0  012   [8]  E8 03 10 00 00 00 00 00
 (1652892701.396416)  can0  014   [5]  00 00 00 10 27
 (1652892701.402539)  can0  1E5   [8]  1C 01 2F 30 00 00 00 B8
 (1652892701.404968)  can0  010   [4]  26 73 00 00
 (1652892701.405021)  can0  012   [8]  E8 03 10 00 00 00 00 00
 (1652892701.406420)  can0  014   [5]  00 00 00 13 27
 (1652892701.412558)  can0  1E5   [8]  1C 01 2F 50 00 00 00 D8
 (1652892701.415177)  can0  012   [8]  E8 03 10 00 00 00 00 00
 (1652892701.416416)  can0  014   [5]  00 00 00 0D 27
 (1652892701.422628)  can0  1E5   [8]  1C 01 2F 70 00 00 00 F8
 (1652892701.425187)  can0  012   [8]  E8 03 10 00 00 00 00 00
 (1652892701.426414)  can0  014   [5]  00 00 00 10 27
 (1652892701.432545)  can0  1E5   [8]  1C 01 2F 10 00 00 00 98
 (1652892701.435189)  can0  012   [8]  E8 03 10 00 00 00 00 00
 (1652892701.436421)  can0  014   [5]  00 00 00 10 27
 (1652892701.442549)  can0  1E5   [8]  1C 01 2F 30 00 00 00 B8
 (1652892701.445173)  can0  012   [8]  E8 03 10 00 00 00 00 00
 (1652892701.446421)  can0  014   [5]  00 00 00 10 27
 (1652892701.452541)  can0  1E5   [8]  1C 01 2F 50 00 00 00 D8
 (1652892701.455179)  can0  012   [8]  E8 03 10 00 00 00 00 00
 (1652892701.456409)  can0  014   [5]  00 00 00 10 27
 (1652892701.462555)  can0  1E5   [8]  1C 01 2F 70 00 00 00 F8
 (1652892701.465171)  can0  012   [8]  E8 03 10 00 00 00 00 00
 (1652892701.466416)  can0  014   [5]  00 00 00 10 27
 (1652892701.472532)  can0  1E5   [8]  1C 01 2F 10 00 00 00 98
 (1652892701.475184)  can0  012   [8]  E8 03 10 00 00 00 00 00
 (1652892701.476423)  can0  014   [5]  00 00 00 10 27
 (1652892701.482540)  can0  1E5   [8]  1C 01 2F 30 00 00 00 B8
 (1652892701.485165)  can0  012   [8]  E8 03 10 00 00 00 00 00
 (1652892701.486372)  can0  014   [5]  00 00 00 10 27
 (1652892701.492501)  can0  1E5   [8]  1C 01 2F 50 00 00 00 D8
 (1652892701.495182)  can0  012   [8]  E8 03 10 00 00 00 00 00
 (1652892701.496411)  can0  014   [5]  00 00 00 10 27
 (1652892701.502544)  can0  1E5   [8]  1C 01 2F 70 00 00 00 F8
 (1652892701.504969)  can0  010   [4]  26 73 00 00
 (1652892701.505023)  can0  012   [8]  E8 03 10 00 00 00 00 00
 (1652892701.506419)  can0  014   [5]  00 00 00 13 27
 (1652892701.512548)  can0  1E5   [8]  1C 01 2F 10 00 00 00 98
 (1652892701.515176)  can0  012   [8]  E8 03 10 00 00 00 00 00
 (1652892701.516420)  can0  014   [5]  00 00 00 0D 27
 (1652892701.522555)  can0  1E5   [8]  1C 01 2F 30 00 00 00 B8
 (1652892701.525182)  can0  012   [8]  E8 03 10 00 00 00 00 00
 (1652892701.526409)  can0  014   [5]  00 00 00 10 27
 (1652892701.532537)  can0  1E5   [8]  1C 01 2F 50 00 00 00 D8
 (1652892701.535196)  can0  012   [8]  E8 03 10 00 00 00 00 00
 (1652892701.536415)  can0  014   [5]  00 00 00 10 27
 (1652892701.542541)  can0  1E5   [8]  1C 01 2F 70 00 00 00 F8
 (1652892701.545047)  can0  012   [8]  E8 03 10 00 00 00 00 00
 (1652892701.546423)  can0  014   [5]  00 00 00 10 27
 (1652892701.552515)  can0  1E5   [8]  1C 01 2F 10 00 00 00 98
 (1652892701.555171)  can0  012   [8]  E8 03 10 00 00 00 00 00
 (1652892701.556401)  can0  014   [5]  00 00 00 10 27
 (1652892701.562520)  can0  1E5   [8]  1C 01 2F 30 00 00 00 B8
 (1652892701.565174)  can0  012   [8]  E8 03 10 00 00 00 00 00
 (1652892701.566409)  can0  014   [5]  00 00 00 10 27
 (1652892701.572526)  can0  1E5   [8]  1C 01 2F 50 00 00 00 D8
 (1652892701.575181)  can0  012   [8]  E8 03 10 00 00 00 00 00
 (1652892701.576414)  can0  014   [5]  00 00 00 10 27
 (1652892701.582630)  can0  1E5   [8]  1C 01 2F 70 00 00 00 F8
 (1652892701.585172)  can0  012   [8]  E8 03 10 00 00 00 00 00
 (1652892701.586373)  can0  014   [5]  00 00 00 10 27
 (1652892701.592544)  can0  1E5   [8]  1C 01 2F 10 00 00 00 98
 (1652892701.595171)  can0  012   [8]  E8 03 10 00 00 00 00 00
 (1652892701.596415)  can0  014   [5]  00 00 00 10 27
 (1652892701.602546)  can0  1E5   [8]  1C 01 2D 30 00 00 00 B6
 (1652892701.604966)  can0  010   [4]  26 73 00 00
 (1652892701.605019)  can0  012   [8]  E8 03 10 00 00 00 00 00
 (1652892701.606419)  can0  014   [5]  00 00 00 13 27
 (1652892701.612539)  can0  1E5   [8]  1C 01 2F 50 00 00 00 D8
 (1652892701.615176)  can0  012   [8]  E8 03 10 00 00 00 00 00
 (1652892701.616415)  can0  014   [5]  00 00 00 0D 27
 (1652892701.622540)  can0  1E5   [8]  1C 01 2F 70 00 00 00 F8
 (1652892701.625035)  can0  012   [8]  E8 03 10 00 00 00 00 00
 (1652892701.626426)  can0  014   [5]  00 00 00 10 27
 (1652892701.632522)  can0  1E5   [8]  1C 01 2F 10 00 00 00 98
 (1652892701.635162)  can0  012   [8]  E8 03 10 00 00 00 00 00
 (1652892701.636409)  can0  014   [5]  00 00 00 10 27
 (1652892701.642507)  can0  1E5   [8]  1C 01 2F 30 00 00 00 B8
 (1652892701.645177)  can0  012   [8]  E8 03 10 00 00 00 00 00
 (1652892701.646383)  can0  014   [5]  00 00 00 10 27
 (1652892701.652552)  can0  1E5   [8]  1C 01 2F 50 00 00 00 D8
 (1652892701.655181)  can0  012   [8]  E8 03 10 00 00 00 00 00
 (1652892701.656419)  can0  014   [5]  00 00 00 10 27
 (1652892701.662545)  can0  1E5   [8]  1C 01 2F 70 00 00 00 F8
 (1652892701.665181)  can0  012   [8]  E8 03 10 00 00 00 00 00
 (1652892701.666416)  can0  014   [5]  00 00 00 10 27
 (1652892701.672552)  can0  1E5   [8]  1C 01 2F 10 00 00 00 98
 (1652892701.675242)  can0  012   [8]  E8 03 10 00 00 00 00 00
 (1652892701.676379)  can0  014   [5]  00 00 00 10 27
 (1652892701.682540)  can0  1E5   [8]  1C 01 2F 30 00 00 00 B8
 (1652892701.684981)  can0  012   [8]  E8 03 10 00 00 00 00 00
 (1652892701.686408)  can0  014   [5]  00 00 00 10 27
 (1652892701.692526)  can0  1E5   [8]  1C 01 2F 50 00 00 00 D8
 (1652892701.695176)  can0  012   [8]  E8 03 10 00 00 00 00 00
 (1652892701.696408)  can0  014   [5]  00 00 00 10 27
 (1652892701.702546)  can0  1E5   [8]  1C 01 2F 70 00 00 00 F8
 (1652892701.705081)  can0  010   [4]  26 73 00 00
 (1652892701.705089)  can0  012   [8]  E8 03 10 00 00 00 00 00
 (1652892701.706404)  can0  014   [5]  00 00 00 13 27
 (1652892701.712546)  can0  1E5   [8]  1C 01 2F 10 00 00 00 98
 (1652892701.715164)  can0  012   [8]  E8 03 10 00 00 00 00 00
 (1652892701.716409)  can0  014   [5]  00 00 00 0D 27
 (1652892701.722537)  can0  1E5   [8]  1C 01 2F 30 00 00 00 B8
 (1652892701.725173)  can0  012   [8]  E8 03 10 00 00 00 00 00
 (1652892701.726417)  can0  014   [5]  00 00 00 10 27
 (1652892701.732542)  can0  1E5   [8]  1C 01 2F 50 00 00 00 D8
 (1652892701.735183)  can0  012   [8]  E8 03 10 00 00 00 00 00
 (1652892701.736421)  can0  014   [5]  00 00 00 10 27
 (1652892701.742551)  can0  1E5   [8]  1C 01 2F 70 00 00 00 F8
 (1652892701.745180)  can0  012   [8]  E8 03 10 00 00 00 00 00
 (1652892701.746417)  can0  014   [5]  00 00 00 10 27
 (1652892701.752523)  can0  1E5   [8]  1C 01 2F 10 00 00 00 98
 (1652892701.755164)  can0  012   [8]  E8 03 10 00 00 00 00 00
 (1652892701.756418)  can0  014   [5]  00 00 00 10 27
 (1652892701.762527)  can0  1E5   [8]  1C 01 31 30 01 00 00 BB
 (1652892701.765181)  can0  012   [8]  E8 03 10 00 00 00 00 00
 (1652892701.766410)  can0  014   [5]  00 00 00 10 27
 (1652892701.772514)  can0  1E5   [8]  1C 01 31 50 01 00 00 DB
 (1652892701.775023)  can0  012   [8]  E8 03 10 00 00 00 00 00
 (1652892701.776406)  can0  014   [5]  00 00 00 10 27
 (1652892701.782760)  can0  1E5   [8]  1C 01 31 70 01 00 00 FB
 (1652892701.785232)  can0  012   [8]  E8 03 10 00 00 00 00 00
 (1652892701.786380)  can0  014   [5]  00 00 00 10 27
 (1652892701.792541)  can0  1E5   [8]  1C 01 31 10 01 00 00 9B
 (1652892701.795294)  can0  012   [8]  E8 03 10 00 00 00 00 00
 (1652892701.796416)  can0  014   [5]  00 00 00 10 27
 (1652892701.802538)  can0  1E5   [8]  1C 01 31 30 01 00 00 BB
 (1652892701.804975)  can0  010   [4]  26 73 00 00
 (1652892701.805029)  can0  012   [8]  E8 03 10 00 00 00 00 00
 (1652892701.806419)  can0  014   [5]  00 00 00 13 27
 (1652892701.812542)  can0  1E5   [8]  1C 01 32 50 02 00 00 DD
 (1652892701.815293)  can0  012   [8]  E8 03 10 00 00 00 00 00
 (1652892701.816412)  can0  014   [5]  00 00 00 0D 27
 (1652892701.822755)  can0  1E5   [8]  1C 01 32 70 02 00 00 FD
 (1652892701.825308)  can0  012   [8]  E8 03 10 00 00 00 00 00
 (1652892701.826403)  can0  014   [5]  00 00 00 10 27
 (1652892701.832527)  can0  1E5   [8]  1C 01 32 10 02 00 00 9D
 (1652892701.835184)  can0  012   [8]  E8 03 10 00 00 00 00 00
 (1652892701.836415)  can0  014   [5]  00 00 00 10 27
 (1652892701.842538)  can0  1E5   [8]  1C 01 32 30 02 00 00 BD
 (1652892701.845188)  can0  012   [8]  E8 03 10 00 00 00 00 00
 (1652892701.846409)  can0  014   [5]  00 00 00 10 27
 (1652892701.852544)  can0  1E5   [8]  1C 01 34 50 03 00 00 E0
 (1652892701.855178)  can0  012   [8]  E8 03 10 00 00 00 00 00
 (1652892701.856409)  can0  014   [5]  00 00 00 10 27
 (1652892701.862547)  can0  1E5   [8]  1C 01 34 70 02 00 00 FF
 (1652892701.865166)  can0  012   [8]  E8 03 10 00 00 00 00 00
 (1652892701.866420)  can0  014   [5]  00 00 00 10 27
 (1652892701.872525)  can0  1E5   [8]  1C 01 34 10 02 00 00 9F
 (1652892701.875181)  can0  012   [8]  E8 03 10 00 00 00 00 00
 (1652892701.876394)  can0  014   [5]  00 00 00 10 27
 (1652892701.882725)  can0  1E5   [8]  1C 01 35 30 03 00 00 C1
 (1652892701.885192)  can0  012   [8]  E8 03 10 00 00 00 00 00
 (1652892701.886374)  can0  014   [5]  00 00 00 10 27
 (1652892701.892556)  can0  1E5   [8]  1C 01 35 50 03 00 00 E1
 (1652892701.895172)  can0  012   [8]  E8 03 10 00 00 00 00 00
 (1652892701.896409)  can0  014   [5]  00 00 00 10 27
 (1652892701.902540)  can0  1E5   [8]  1C 01 35 70 03 00 01 01
 (1652892701.904983)  can0  010   [4]  26 73 00 00
 (1652892701.905039)  can0  012   [8]  E8 03 10 00 00 00 00 00
 (1652892701.906410)  can0  014   [5]  00 00 00 13 27
 (1652892701.912564)  can0  1E5   [8]  1C 01 35 10 02 00 00 A0
 (1652892701.915181)  can0  012   [8]  E8 03 10 00 00 00 00 00
 (1652892701.916404)  can0  014   [5]  00 00 00 0D 27
 (1652892701.922539)  can0  1E5   [8]  1C 01 35 30 02 00 00 C0
 (1652892701.925184)  can0  012   [8]  E8 03 10 00 00 00 00 00
 (1652892701.926409)  can0  014   [5]  00 00 00 10 27
 (1652892701.932546)  can0  1E5   [8]  1C 01 34 50 00 00 00 DD
 (1652892701.935189)  can0  012   [8]  E8 03 10 00 00 00 00 00
 (1652892701.936415)  can0  014   [5]  00 00 00 10 27
 (1652892701.942523)  can0  1E5   [8]  1C 01 34 70 00 00 00 FD
 (1652892701.945171)  can0  012   [8]  E8 03 10 00 00 00 00 00
 (1652892701.946410)  can0  014   [5]  00 00 00 10 27
 (1652892701.952514)  can0  1E5   [8]  1C 01 34 10 00 00 00 9D
 (1652892701.955176)  can0  012   [8]  E8 03 10 00 00 00 00 00
 (1652892701.956415)  can0  014   [5]  00 00 00 10 27
 (1652892701.962532)  can0  1E5   [8]  1C 01 34 30 00 00 00 BD
 (1652892701.964978)  can0  012   [8]  E8 03 10 00 00 00 00 00
 (1652892701.966405)  can0  014   [5]  00 00 00 10 27
 (1652892701.972692)  can0  1E5   [8]  1C 01 34 50 00 00 00 DD
 (1652892701.975011)  can0  012   [8]  E8 03 10 00 00 00 00 00
 (1652892701.976422)  can0  014   [5]  00 00 00 10 27
 (1652892701.982566)  can0  1E5   [8]  1C 01 34 70 00 00 00 FD
 (1652892701.985000)  can0  012   [8]  E8 03 10 00 00 00 00 00
 (1652892701.986413)  can0  014   [5]  00 00 00 10 27
 (1652892701.992528)  can0  1E5   [8]  1C 01 34 10 00 00 00 9D
 (1652892701.995006)  can0  012   [8]  E8 03 10 00 00 00 00 00
 (1652892701.996422)  can0  014   [5]  00 00 00 10 27
 (1652892702.002747)  can0  1E5   [8]  1C 01 34 30 00 00 00 BD
 (1652892702.004800)  can0  010   [4]  26 73 00 00
 (1652892702.005036)  can0  012   [8]  E8 03 10 00 00 00 00 00
 (1652892702.005144)  can0  0E2   [2]  D0 03
 (1652892702.005311)  can0  0E3   [2]  D0 03
 (1652892702.006420)  can0  014   [5]  00 00 00 19 27
 (1652892702.006566)  can0  0E4   [2]  D0 03
 (1652892702.012482)  can0  1E5   [8]  1C 01 34 50 00 00 00 DD
 (1652892702.015008)  can0  012   [8]  E8 03 10 00 00 00 00 00
 (1652892702.016421)  can0  014   [5]  00 00 00 07 27
 (1652892702.022549)  can0  1E5   [8]  1C 01 34 70 00 00 00 FD
 (1652892702.025001)  can0  012   [8]  E8 03 10 00 00 00 00 00
 (1652892702.026426)  can0  014   [5]  00 00 00 10 27
 (1652892702.032793)  can0  1E5   [8]  1C 01 34 10 00 00 00 9D
 (1652892702.035006)  can0  012   [8]  E8 03 10 00 00 00 00 00
 (1652892702.036427)  can0  014   [5]  00 00 00 10 27
 (1652892702.042586)  can0  1E5   [8]  1C 01 34 30 00 00 00 BD
 (1652892702.045014)  can0  012   [8]  E8 03 10 00 00 00 00 00
 (1652892702.046420)  can0  014   [5]  00 00 00 10 27
 (1652892702.052487)  can0  1E5   [8]  1C 01 34 50 00 00 00 DD
 (1652892702.055010)  can0  012   [8]  E8 03 10 00 00 00 00 00
 (1652892702.056411)  can0  014   [5]  00 00 00 10 27
 (1652892702.062527)  can0  1E5   [8]  1C 01 34 70 00 00 00 FD
 (1652892702.065013)  can0  012   [8]  E8 03 10 00 00 00 00 00
 (1652892702.066421)  can0  014   [5]  00 00 00 10 27
 (1652892702.072582)  can0  1E5   [8]  1C 01 34 10 00 00 00 9D
 (1652892702.075000)  can0  012   [8]  E8 03 10 00 00 00 00 00
 (1652892702.076426)  can0  014   [5]  00 00 00 10 27
 (1652892702.082530)  can0  1E5   [8]  1C 01 34 30 00 00 00 BD
 (1652892702.085005)  can0  012   [8]  E8 03 10 00 00 00 00 00
 (1652892702.086414)  can0  014   [5]  00 00 00 10 27
 (1652892702.092529)  can0  1E5   [8]  1C 01 34 50 00 00 00 DD
 (1652892702.094999)  can0  012   [8]  E8 03 10 00 00 00 00 00
 (1652892702.096414)  can0  014   [5]  00 F0 FF 10 27
 (1652892702.102525)  can0  1E5   [8]  1C 01 35 70 00 00 00 FE
 (1652892702.104811)  can0  010   [4]  26 73 00 00
 (1652892702.105060)  can0  012   [8]  E8 03 10 00 00 00 00 00
 (1652892702.106415)  can0  014   [5]  00 00 00 13 27
 (1652892702.112530)  can0  1E5   [8]  1C 01 35 10 00 00 00 9E
 (1652892702.115006)  can0  012   [8]  E8 03 10 00 00 00 00 00
 (1652892702.116408)  can0  014   [5]  00 00 00 0D 27
 (1652892702.122558)  can0  1E5   [8]  1C 01 34 30 00 00 00 BD
 (1652892702.125010)  can0  012   [8]  E8 03 10 00 00 00 00 00
 (1652892702.126420)  can0  014   [5]  00 00 00 10 27
 (1652892702.132559)  can0  1E5   [8]  1C 01 35 50 00 00 00 DE
 (1652892702.134998)  can0  012   [8]  E8 03 10 00 00 00 00 00
 (1652892702.136421)  can0  014   [5]  00 00 00 10 27
 (1652892702.142555)  can0  1E5   [8]  1C 01 35 70 00 00 00 FE
 (1652892702.145004)  can0  012   [8]  E8 03 10 00 00 00 00 00
 (1652892702.146421)  can0  014   [5]  00 00 00 10 27
 (1652892702.152538)  can0  1E5   [8]  1C 01 35 10 00 00 00 9E
 (1652892702.155005)  can0  012   [8]  E8 03 10 00 00 00 00 00
 (1652892702.156415)  can0  014   [5]  00 00 00 10 27
 (1652892702.162586)  can0  1E5   [8]  1C 01 35 30 00 00 00 BE
 (1652892702.165006)  can0  012   [8]  E8 03 10 00 00 00 00 00
 (1652892702.166409)  can0  014   [5]  00 00 00 10 27
 (1652892702.172564)  can0  1E5   [8]  1C 01 35 50 00 00 00 DE
 (1652892702.175011)  can0  012   [8]  E8 03 10 00 00 00 00 00
 (1652892702.176429)  can0  014   [5]  00 00 00 10 27
 (1652892702.182540)  can0  1E5   [8]  1C 01 34 70 00 00 00 FD
 (1652892702.185001)  can0  012   [8]  E8 03 10 00 00 00 00 00
 (1652892702.186409)  can0  014   [5]  00 00 00 10 27
 (1652892702.192517)  can0  1E5   [8]  1C 01 34 10 00 00 00 9D
 (1652892702.195005)  can0  012   [8]  E8 03 10 00 00 00 00 00
 (1652892702.196419)  can0  014   [5]  00 00 00 10 27
 (1652892702.202485)  can0  1E5   [8]  1C 01 34 30 00 00 00 BD
 (1652892702.204806)  can0  010   [4]  26 73 00 00
 (1652892702.205047)  can0  012   [8]  E8 03 10 00 00 00 00 00
 (1652892702.206418)  can0  014   [5]  00 00 00 13 27
 (1652892702.212703)  can0  1E5   [8]  1C 01 34 50 00 00 00 DD
 (1652892702.215011)  can0  012   [8]  E8 03 10 00 00 00 00 00
 (1652892702.216408)  can0  014   [5]  00 00 00 0D 27
 (1652892702.222496)  can0  1E5   [8]  1C 01 34 70 00 00 00 FD
 (1652892702.225000)  can0  012   [8]  E8 03 10 00 00 00 00 00
 (1652892702.226415)  can0  014   [5]  00 00 00 10 27
 (1652892702.232527)  can0  1E5   [8]  1C 01 34 10 00 00 00 9D
 (1652892702.235014)  can0  012   [8]  E8 03 10 00 00 00 00 00
 (1652892702.236415)  can0  014   [5]  00 00 00 10 27
 (1652892702.242490)  can0  1E5   [8]  1C 01 34 30 00 00 00 BD
 (1652892702.244999)  can0  012   [8]  E8 03 10 00 00 00 00 00
 (1652892702.246407)  can0  014   [5]  00 00 00 10 27
 (1652892702.252487)  can0  1E5   [8]  1C 01 34 50 00 00 00 DD
 (1652892702.255000)  can0  012   [8]  E8 03 10 00 00 00 00 00
 (1652892702.256408)  can0  014   [5]  00 00 00 10 27
 (1652892702.262493)  can0  1E5   [8]  1C 01 34 70 00 00 00 FD
 (1652892702.265005)  can0  012   [8]  E8 03 10 00 00 00 00 00
 (1652892702.266420)  can0  014   [5]  00 00 00 10 27
 (1652892702.272482)  can0  1E5   [8]  1C 01 35 10 00 00 00 9E
 (1652892702.275013)  can0  012   [8]  E8 03 10 00 00 00 00 00
 (1652892702.276396)  can0  014   [5]  00 00 00 10 27
 (1652892702.282489)  can0  1E5   [8]  1C 01 34 30 00 00 00 BD
 (1652892702.284994)  can0  012   [8]  E8 03 10 00 00 00 00 00
 (1652892702.286412)  can0  014   [5]  00 00 00 10 27
 (1652892702.292499)  can0  1E5   [8]  1C 01 35 50 00 00 00 DE
 (1652892702.295006)  can0  012   [8]  E8 03 10 00 00 00 00 00
 (1652892702.296415)  can0  014   [5]  00 00 00 10 27
 (1652892702.302484)  can0  1E5   [8]  1C 01 35 70 00 00 00 FE
 (1652892702.304798)  can0  010   [4]  26 73 00 00
 (1652892702.305047)  can0  012   [8]  E8 03 10 00 00 00 00 00
 (1652892702.306427)  can0  014   [5]  00 00 00 13 27
 (1652892702.311349)  can0  0F0   [1]  01
 (1652892702.312473)  can0  011   [2]  05 01
 (1652892702.312561)  can0  1E5   [8]  1C 01 34 10 00 00 00 9D
 (1652892702.314982)  can0  012   [8]  E8 03 10 00 00 00 00 00
 (1652892702.316405)  can0  014   [5]  00 00 00 13 27
 (1652892702.322589)  can0  1E5   [8]  1C 01 34 30 00 00 00 BD
 (1652892702.325320)  can0  012   [8]  E8 03 10 00 00 00 00 00
 (1652892702.326383)  can0  014   [5]  00 00 00 0A 27
 (1652892702.332484)  can0  1E5   [8]  1C 01 34 50 00 00 00 DD
 (1652892702.335351)  can0  012   [8]  E8 03 10 00 00 00 00 00
 (1652892702.336367)  can0  014   [5]  00 00 00 10 27
 (1652892702.342491)  can0  1E5   [8]  1C 01 34 70 00 00 00 FD
 (1652892702.344993)  can0  012   [8]  E8 03 10 00 00 00 00 00
 (1652892702.346396)  can0  014   [5]  00 00 00 10 27
 (1652892702.352480)  can0  1E5   [8]  1C 01 35 10 00 00 00 9E
 (1652892702.355001)  can0  012   [8]  E8 03 10 00 00 00 00 00
 (1652892702.356380)  can0  014   [5]  00 00 00 10 27
 (1652892702.362525)  can0  1E5   [8]  1C 01 35 30 00 00 00 BE
 (1652892702.364970)  can0  012   [8]  E8 03 10 00 00 00 00 00
 (1652892702.366379)  can0  014   [5]  00 00 00 10 27
 (1652892702.372518)  can0  1E5   [8]  1C 01 34 50 00 00 00 DD
 (1652892702.374972)  can0  012   [8]  E8 03 10 00 00 00 00 00
 (1652892702.376413)  can0  014   [5]  00 00 00 10 27
 (1652892702.382498)  can0  1E5   [8]  1C 01 34 70 00 00 00 FD
 (1652892702.385011)  can0  012   [8]  E8 03 10 00 00 00 00 00
 (1652892702.386600)  can0  014   [5]  00 00 00 10 27
 (1652892702.392509)  can0  1E5   [8]  1C 01 34 10 00 00 00 9D
 (1652892702.395021)  can0  012   [8]  E8 03 10 00 00 00 00 00
 (1652892702.396416)  can0  014   [5]  00 00 00 10 27
 (1652892702.402483)  can0  1E5   [8]  1C 01 34 30 00 00 00 BD
 (1652892702.404960)  can0  010   [4]  2E 7F 04 00
 (1652892702.405015)  can0  012   [8]  E8 03 10 00 00 00 00 00
 (1652892702.406403)  can0  014   [5]  00 00 00 13 27
 (1652892702.412511)  can0  1E5   [8]  1C 01 34 50 00 00 00 DD
 (1652892702.414988)  can0  012   [8]  E8 03 10 00 00 00 00 00
 (1652892702.416403)  can0  014   [5]  00 00 00 0D 27
 (1652892702.422501)  can0  1E5   [8]  1C 01 34 70 00 00 00 FD
 (1652892702.425174)  can0  012   [8]  E8 03 10 00 00 00 00 00
 (1652892702.426380)  can0  014   [5]  00 00 00 10 27
 (1652892702.432523)  can0  1E5   [8]  1C 01 34 10 00 00 00 9D
 (1652892702.435153)  can0  012   [8]  E8 03 10 00 00 00 00 00
 (1652892702.436379)  can0  014   [5]  00 00 00 10 27
 (1652892702.442519)  can0  1E5   [8]  1C 01 35 30 00 00 00 BE
 (1652892702.444994)  can0  012   [8]  E8 03 10 00 00 00 00 00
 (1652892702.446372)  can0  014   [5]  00 00 00 10 27
 (1652892702.452488)  can0  1E5   [8]  1C 01 35 50 00 00 00 DE
 (1652892702.455154)  can0  012   [8]  E8 03 10 00 00 00 00 00
 (1652892702.456383)  can0  014   [5]  00 00 00 10 27
 (1652892702.462557)  can0  1E5   [8]  1C 01 34 70 00 00 00 FD
 (1652892702.465006)  can0  012   [8]  E8 03 10 00 00 00 00 00
 (1652892702.466401)  can0  014   [5]  00 00 00 10 27
 (1652892702.472488)  can0  1E5   [8]  1C 01 34 10 00 00 00 9D
 (1652892702.474984)  can0  012   [8]  E8 03 10 00 00 00 00 00
 (1652892702.476415)  can0  014   [5]  00 00 00 10 27
 (1652892702.482495)  can0  1E5   [8]  1C 01 34 30 00 00 00 BD
 (1652892702.484955)  can0  012   [8]  E8 03 10 00 00 00 00 00
 (1652892702.486566)  can0  014   [5]  00 00 00 10 27
 (1652892702.492517)  can0  1E5   [8]  1C 01 34 50 00 00 00 DD
 (1652892702.494997)  can0  012   [8]  E8 03 10 00 00 00 00 00
 (1652892702.496381)  can0  014   [5]  00 00 00 10 27
 (1652892702.502511)  can0  1E5   [8]  1C 01 34 70 00 00 00 FD
 (1652892702.504942)  can0  010   [4]  2E 7F 04 00
 (1652892702.505019)  can0  012   [8]  E8 03 10 00 00 00 00 00
 (1652892702.506827)  can0  014   [5]  00 00 00 13 27
 (1652892702.512531)  can0  1E5   [8]  1C 01 34 10 00 00 00 9D
 (1652892702.514989)  can0  012   [8]  E8 03 10 00 00 00 00 00
 (1652892702.516368)  can0  014   [5]  00 00 00 0D 27
 (1652892702.522532)  can0  1E5   [8]  1C 01 34 30 00 00 00 BD
 (1652892702.525206)  can0  012   [8]  E8 03 10 00 00 00 00 00
 (1652892702.526374)  can0  014   [5]  00 00 00 10 27
 (1652892702.532514)  can0  1E5   [8]  1C 01 35 50 00 00 00 DE
 (1652892702.535142)  can0  012   [8]  E8 03 10 00 00 00 00 00
 (1652892702.536366)  can0  014   [5]  00 00 00 10 27
 (1652892702.542558)  can0  1E5   [8]  1C 01 34 70 00 00 00 FD
 (1652892702.545031)  can0  012   [8]  E8 03 10 00 00 00 00 00
 (1652892702.546431)  can0  014   [5]  00 00 00 10 27
 (1652892702.552508)  can0  1E5   [8]  1C 01 35 10 00 00 00 9E
 (1652892702.555159)  can0  012   [8]  E8 03 10 00 00 00 00 00
 (1652892702.556383)  can0  014   [5]  00 00 00 10 27
 (1652892702.562538)  can0  1E5   [8]  1C 01 34 30 00 00 00 BD
 (1652892702.565006)  can0  012   [8]  E8 03 10 00 00 00 00 00
 (1652892702.566569)  can0  014   [5]  00 00 00 10 27
 (1652892702.572482)  can0  1E5   [8]  1C 01 35 50 00 00 00 DE
 (1652892702.575165)  can0  012   [8]  E8 03 10 00 00 00 00 00
 (1652892702.576398)  can0  014   [5]  00 00 00 10 27
 (1652892702.582481)  can0  1E5   [8]  1C 01 34 70 00 00 00 FD
 (1652892702.585153)  can0  012   [8]  E8 03 10 00 00 00 00 00
 (1652892702.586395)  can0  014   [5]  00 00 00 10 27
 (1652892702.592513)  can0  1E5   [8]  1C 01 34 10 00 00 00 9D
 (1652892702.595002)  can0  012   [8]  E8 03 10 00 00 00 00 00
 (1652892702.596357)  can0  014   [5]  00 00 00 10 27
 (1652892702.602692)  can0  1E5   [8]  1C 01 35 30 00 00 00 BE
 (1652892702.604790)  can0  010   [4]  2E 7F 04 00
 (1652892702.605007)  can0  012   [8]  E8 03 10 00 00 00 00 00
 (1652892702.606387)  can0  014   [5]  00 00 00 13 27
 (1652892702.612500)  can0  1E5   [8]  1C 01 34 50 00 00 00 DD
 (1652892702.614997)  can0  012   [8]  E8 03 10 00 00 00 00 00
 (1652892702.616405)  can0  014   [5]  00 00 00 0D 27
 (1652892702.622480)  can0  1E5   [8]  1C 01 34 70 00 00 00 FD
 (1652892702.625009)  can0  012   [8]  E8 03 10 00 00 00 00 00
 (1652892702.626398)  can0  014   [5]  00 00 00 10 27
 (1652892702.632488)  can0  1E5   [8]  1C 01 35 10 00 00 00 9E
 (1652892702.635144)  can0  012   [8]  E8 03 10 00 00 00 00 00
 (1652892702.636416)  can0  014   [5]  00 00 00 10 27
 (1652892702.642483)  can0  1E5   [8]  1C 01 34 30 00 00 00 BD
