 (1652892852.464060)  can0  012   [8]  E8 03 10 00 00 00 00 00
 (1652892852.465824)  can0  014   [5]  00 00 00 10 27
 (1652892852.467927)  can0  1E5   [8]  1C 00 C7 10 04 00 01 33
 (1652892852.474088)  can0  012   [8]  E8 03 10 00 00 00 00 00
 (1652892852.476057)  can0  014   [5]  00 00 00 10 27
 (1652892852.478132)  can0  1E5   [8]  1C 00 C5 30 00 00 01 4D
 (1652892852.484023)  can0  012   [8]  E8 03 10 00 00 00 00 00
 (1652892852.486090)  can0  014   [5]  00 00 00 10 27
 (1652892852.488122)  can0  1E5   [8]  1C 00 C5 50 00 00 01 6D
 (1652892852.494054)  can0  012   [8]  E8 03 10 00 00 00 00 00
 (1652892852.496044)  can0  014   [5]  00 00 00 10 27
 (1652892852.498117)  can0  1E5   [8]  1C 00 C7 70 00 00 01 8F
 (1652892852.504057)  can0  012   [8]  E8 03 10 00 00 00 00 00
 (1652892852.504217)  can0  010   [4]  26 73 00 00
 (1652892852.505870)  can0  014   [5]  00 00 00 13 27
 (1652892852.508120)  can0  1E5   [8]  1C 00 C5 10 00 00 01 2D
 (1652892852.514055)  can0  012   [8]  E8 03 10 00 00 00 00 00
 (1652892852.516159)  can0  014   [5]  00 00 00 0D 27
 (1652892852.517962)  can0  1E5   [8]  1C 00 C5 30 00 00 01 4D
 (1652892852.524036)  can0  012   [8]  E8 03 10 00 00 00 00 00
 (1652892852.525836)  can0  014   [5]  00 00 00 10 27
 (1652892852.528124)  can0  1E5   [8]  1C 00 C4 5F FF 00 02 7A
 (1652892852.534050)  can0  012   [8]  E8 03 10 00 00 00 00 00
 (1652892852.536104)  can0  014   [5]  00 00 00 10 27
 (1652892852.538133)  can0  1E5   [8]  1C 00 C4 7F FF 00 02 9A
 (1652892852.544068)  can0  012   [8]  E8 03 10 00 00 00 00 00
 (1652892852.546064)  can0  014   [5]  00 00 00 10 27
 (1652892852.548113)  can0  1E5   [8]  1C 00 C4 1F FF 00 02 3A
 (1652892852.554065)  can0  012   [8]  E8 03 10 00 00 00 00 00
 (1652892852.556089)  can0  014   [5]  00 00 00 10 27
 (1652892852.558122)  can0  1E5   [8]  1C 00 C4 3F FF 00 02 5A
 (1652892852.564073)  can0  012   [8]  E8 03 10 00 00 00 00 00
 (1652892852.566076)  can0  014   [5]  00 00 00 10 27
 (1652892852.568116)  can0  1E5   [8]  1C 00 C4 5F FF 00 02 7A
 (1652892852.574062)  can0  012   [8]  E8 03 10 00 00 00 00 00
 (1652892852.576058)  can0  014   [5]  00 F0 FF 10 27
 (1652892852.578161)  can0  1E5   [8]  1C 00 C4 7F FF 00 02 9A
 (1652892852.584068)  can0  012   [8]  E8 03 10 00 00 00 00 00
 (1652892852.586077)  can0  014   [5]  00 00 00 10 27
 (1652892852.588118)  can0  1E5   [8]  1C 00 C4 1F FF 00 02 3A
 (1652892852.594073)  can0  012   [8]  E8 03 10 00 00 00 00 00
 (1652892852.596076)  can0  014   [5]  00 00 00 10 27
 (1652892852.598117)  can0  1E5   [8]  1C 00 C4 3F FF 00 02 5A
 (1652892852.604072)  can0  012   [8]  E8 03 10 00 00 00 00 00
 (1652892852.604186)  can0  010   [4]  26 73 00 00
 (1652892852.606036)  can0  014   [5]  00 00 00 13 27
 (1652892852.608234)  can0  1E5   [8]  1C 00 C4 5F FF 00 02 7A
 (1652892852.614072)  can0  012   [8]  E8 03 10 00 00 00 00 00
 (1652892852.616089)  can0  014   [5]  00 00 00 0D 27
 (1652892852.618128)  can0  1E5   [8]  1C 00 C4 7F FF 00 02 9A
 (1652892852.624051)  can0  012   [8]  E8 03 10 00 00 00 00 00
 (1652892852.626105)  can0  014   [5]  00 00 00 10 27
 (1652892852.628156)  can0  1E5   [8]  1C 00 C5 10 00 00 01 2D
 (1652892852.634061)  can0  012   [8]  E8 03 10 00 00 00 00 00
 (1652892852.636133)  can0  014   [5]  00 00 00 10 27
 (1652892852.638146)  can0  1E5   [8]  1C 00 C5 30 00 00 01 4D
 (1652892852.644058)  can0  012   [8]  E8 03 10 00 00 00 00 00
 (1652892852.646153)  can0  014   [5]  00 00 00 10 27
 (1652892852.648178)  can0  1E5   [8]  1C 00 C5 50 00 00 01 6D
 (1652892852.654061)  can0  012   [8]  E8 03 10 00 00 00 00 00
 (1652892852.656164)  can0  014   [5]  00 00 00 10 27
 (1652892852.658191)  can0  1E5   [8]  1C 00 C5 70 00 00 01 8D
 (1652892852.664072)  can0  012   [8]  E8 03 10 00 00 00 00 00
 (1652892852.666021)  can0  014   [5]  00 00 00 10 27
 (1652892852.668185)  can0  1E5   [8]  1C 00 C5 10 00 00 01 2D
 (1652892852.674073)  can0  012   [8]  E8 03 10 00 00 00 00 00
 (1652892852.676027)  can0  014   [5]  00 00 00 10 27
 (1652892852.678229)  can0  1E5   [8]  1C 00 C5 30 00 00 01 4D
 (1652892852.684100)  can0  012   [8]  E8 03 10 00 00 00 00 00
 (1652892852.686033)  can0  014   [5]  00 00 00 10 27
 (1652892852.688227)  can0  1E5   [8]  1C 00 C5 50 00 00 01 6D
 (1652892852.694051)  can0  012   [8]  E8 03 10 00 00 00 00 00
 (1652892852.695909)  can0  014   [5]  00 00 00 10 27
 (1652892852.698259)  can0  1E5   [8]  1C 00 C5 70 00 00 01 8D
 (1652892852.704014)  can0  012   [8]  E8 03 10 00 00 00 00 00
 (1652892852.704168)  can0  010   [4]  26 73 00 00
 (1652892852.705868)  can0  014   [5]  00 00 00 13 27
 (1652892852.707945)  can0  1E5   [8]  1C 00 C5 10 00 00 01 2D
 (1652892852.714211)  can0  012   [8]  E8 03 10 00 00 00 00 00
 (1652892852.716016)  can0  014   [5]  FF 0F 00 0D 27
 (1652892852.718112)  can0  1E5   [8]  1C 00 C5 30 00 00 01 4D
 (1652892852.724057)  can0  012   [8]  E8 03 10 00 00 00 00 00
 (1652892852.726020)  can0  014   [5]  00 00 00 10 27
 (1652892852.728145)  can0  1E5   [8]  1C 00 C5 50 00 00 01 6D
 (1652892852.734073)  can0  012   [8]  E8 03 10 00 00 00 00 00
 (1652892852.736026)  can0  014   [5]  00 00 00 10 27
 (1652892852.738110)  can0  1E5   [8]  1C 00 C5 70 00 00 01 8D
 (1652892852.744033)  can0  012   [8]  E8 03 10 00 00 00 00 00
 (1652892852.746011)  can0  014   [5]  00 00 00 10 27
 (1652892852.747940)  can0  1E5   [8]  1C 00 C5 10 00 00 01 2D
 (1652892852.754227)  can0  012   [8]  E8 03 10 00 00 00 00 00
 (1652892852.755869)  can0  014   [5]  00 00 00 10 27
 (1652892852.758106)  can0  1E5   [8]  1C 00 C4 30 00 00 01 4C
 (1652892852.764066)  can0  012   [8]  E8 03 10 00 00 00 00 00
 (1652892852.766030)  can0  014   [5]  00 00 00 10 27
 (1652892852.768103)  can0  1E5   [8]  1C 00 C5 50 00 00 01 6D
 (1652892852.774063)  can0  012   [8]  E8 03 10 00 00 00 00 00
 (1652892852.776025)  can0  014   [5]  00 00 00 10 27
 (1652892852.778126)  can0  1E5   [8]  1C 00 C5 70 00 00 01 8D
 (1652892852.784101)  can0  012   [8]  E8 03 10 00 00 00 00 00
 (1652892852.786015)  can0  014   [5]  00 00 00 10 27
 (1652892852.788098)  can0  1E5   [8]  1C 00 C5 10 00 00 01 2D
 (1652892852.794053)  can0  012   [8]  E8 03 10 00 00 00 00 00
 (1652892852.796013)  can0  014   [5]  00 00 00 10 27
 (1652892852.798099)  can0  1E5   [8]  1C 00 C5 30 00 00 01 4D
 (1652892852.804067)  can0  012   [8]  E8 03 10 00 00 00 00 00
 (1652892852.804182)  can0  010   [4]  26 73 00 00
 (1652892852.806031)  can0  014   [5]  00 00 00 13 27
 (1652892852.808113)  can0  1E5   [8]  1C 00 C5 50 00 00 01 6D
 (1652892852.814062)  can0  012   [8]  E8 03 10 00 00 00 00 00
 (1652892852.816022)  can0  014   [5]  00 00 00 0D 27
 (1652892852.818089)  can0  1E5   [8]  1C 00 C5 70 00 00 01 8D
 (1652892852.824064)  can0  012   [8]  E8 03 10 00 00 00 00 00
 (1652892852.825856)  can0  014   [5]  00 00 00 10 27
 (1652892852.828128)  can0  1E5   [8]  1C 00 C5 10 00 00 01 2D
 (1652892852.834046)  can0  012   [8]  E8 03 10 00 00 00 00 00
 (1652892852.836016)  can0  014   [5]  00 00 00 10 27
 (1652892852.838114)  can0  1E5   [8]  1C 00 C4 30 00 00 01 4C
 (1652892852.844044)  can0  012   [8]  E8 03 10 00 00 00 00 00
 (1652892852.846028)  can0  014   [5]  00 00 00 10 27
 (1652892852.848091)  can0  1E5   [8]  1C 00 C5 50 00 00 01 6D
 (1652892852.854278)  can0  012   [8]  E8 03 10 00 00 00 00 00
 (1652892852.856021)  can0  014   [5]  00 00 00 10 27
 (1652892852.858102)  can0  1E5   [8]  1C 00 C5 70 00 00 01 8D
 (1652892852.864227)  can0  012   [8]  E8 03 10 00 00 00 00 00
 (1652892852.866029)  can0  014   [5]  00 00 00 10 27
 (1652892852.868103)  can0  1E5   [8]  1C 00 C5 10 00 00 01 2D
 (1652892852.874065)  can0  012   [8]  E8 03 10 00 00 00 00 00
 (1652892852.876016)  can0  014   [5]  00 00 00 10 27
 (1652892852.878112)  can0  1E5   [8]  1C 00 C5 30 00 00 01 4D
 (1652892852.884072)  can0  012   [8]  E8 03 10 00 00 00 00 00
 (1652892852.886026)  can0  014   [5]  00 00 00 10 27
 (1652892852.888145)  can0  1E5   [8]  1C 00 C4 50 00 00 01 6C
 (1652892852.894061)  can0  012   [8]  E8 03 10 00 00 00 00 00
 (1652892852.896026)  can0  014   [5]  00 00 00 10 27
 (1652892852.898107)  can0  1E5   [8]  1C 00 C5 70 00 00 01 8D
 (1652892852.904071)  can0  012   [8]  E8 03 10 00 00 00 00 00
 (1652892852.904158)  can0  010   [4]  26 73 00 00
 (1652892852.906061)  can0  014   [5]  00 00 00 13 27
 (1652892852.908106)  can0  1E5   [8]  1C 00 C5 10 00 00 01 2D
 (1652892852.914051)  can0  012   [8]  E8 03 10 00 00 00 00 00
 (1652892852.916046)  can0  014   [5]  00 00 00 0D 27
 (1652892852.918097)  can0  1E5   [8]  1C 00 C5 30 00 00 01 4D
 (1652892852.924061)  can0  012   [8]  E8 03 10 00 00 00 00 00
 (1652892852.926033)  can0  014   [5]  00 00 00 10 27
 (1652892852.928135)  can0  1E5   [8]  1C 00 C4 50 00 00 01 6C
 (1652892852.934072)  can0  012   [8]  E8 03 10 00 00 00 00 00
 (1652892852.935868)  can0  014   [5]  00 00 00 10 27
 (1652892852.937940)  can0  1E5   [8]  1C 00 C4 70 00 00 01 8C
 (1652892852.944253)  can0  012   [8]  E8 03 10 00 00 00 00 00
 (1652892852.946024)  can0  014   [5]  00 00 00 10 27
 (1652892852.948108)  can0  1E5   [8]  1C 00 C4 10 00 00 01 2C
 (1652892852.954051)  can0  012   [8]  E8 03 10 00 00 00 00 00
 (1652892852.956027)  can0  014   [5]  00 00 00 10 27
 (1652892852.958098)  can0  1E5   [8]  1C 00 C4 30 00 00 01 4C
 (1652892852.964067)  can0  012   [8]  E8 03 10 00 00 00 00 00
 (1652892852.966034)  can0  014   [5]  00 00 00 10 27
 (1652892852.967938)  can0  1E5   [8]  1C 00 C5 50 00 00 01 6D
 (1652892852.974047)  can0  012   [8]  E8 03 10 00 00 00 00 00
 (1652892852.975853)  can0  014   [5]  00 00 00 10 27
 (1652892852.977931)  can0  1E5   [8]  1C 00 C5 70 00 00 01 8D
 (1652892852.984054)  can0  012   [8]  E8 03 10 00 00 00 00 00
 (1652892852.985864)  can0  014   [5]  00 00 00 10 27
 (1652892852.987943)  can0  1E5   [8]  1C 00 C5 10 00 00 01 2D
 (1652892852.994255)  can0  012   [8]  E8 03 10 00 00 00 00 00
 (1652892852.995862)  can0  014   [5]  00 00 00 10 27
 (1652892852.997913)  can0  1E5   [8]  1C 00 C5 30 00 00 01 4D
 (1652892853.004060)  can0  012   [8]  E8 03 10 00 00 00 00 00
 (1652892853.004174)  can0  010   [4]  26 73 00 00
 (1652892853.004347)  can0  0E2   [2]  68 03
 (1652892853.004442)  can0  0E3   [2]  68 03
 (1652892853.005882)  can0  014   [5]  00 00 00 19 27
 (1652892853.005957)  can0  0E4   [2]  68 03
 (1652892853.008087)  can0  1E5   [8]  1C 00 C5 50 00 00 01 6D
 (1652892853.014059)  can0  012   [8]  E8 03 10 00 00 00 00 00
 (1652892853.016034)  can0  014   [5]  00 00 00 07 27
 (1652892853.018102)  can0  1E5   [8]  1C 00 C5 70 00 00 01 8D
 (1652892853.024053)  can0  012   [8]  E8 03 10 00 00 00 00 00
 (1652892853.025866)  can0  014   [5]  00 00 00 10 27
 (1652892853.028127)  can0  1E5   [8]  1C 00 C4 10 00 00 01 2C
 (1652892853.034052)  can0  012   [8]  E8 03 10 00 00 00 00 00
 (1652892853.035858)  can0  014   [5]  00 00 00 10 27
 (1652892853.038108)  can0  1E5   [8]  1C 00 C4 30 00 00 01 4C
 (1652892853.044051)  can0  012   [8]  E8 03 10 00 00 00 00 00
 (1652892853.046054)  can0  014   [5]  00 00 00 10 27
 (1652892853.048096)  can0  1E5   [8]  1C 00 C4 50 00 00 01 6C
 (1652892853.054061)  can0  012   [8]  E8 03 10 00 00 00 00 00
 (1652892853.056085)  can0  014   [5]  00 00 00 10 27
 (1652892853.058118)  can0  1E5   [8]  1C 00 C5 70 00 00 01 8D
 (1652892853.064056)  can0  012   [8]  E8 03 10 00 00 00 00 00
 (1652892853.066060)  can0  014   [5]  00 00 00 10 27
 (1652892853.068093)  can0  1E5   [8]  1C 00 C4 10 00 00 01 2C
 (1652892853.074069)  can0  012   [8]  E8 03 10 00 00 00 00 00
 (1652892853.076053)  can0  014   [5]  00 00 00 10 27
 (1652892853.078112)  can0  1E5   [8]  1C 00 C4 30 00 00 01 4C
 (1652892853.084055)  can0  012   [8]  E8 03 10 00 00 00 00 00
 (1652892853.086056)  can0  014   [5]  00 00 00 10 27
 (1652892853.088107)  can0  1E5   [8]  1C 00 C4 50 00 00 01 6C
 (1652892853.094082)  can0  012   [8]  E8 03 10 00 00 00 00 00
 (1652892853.096075)  can0  014   [5]  00 00 00 10 27
 (1652892853.098088)  can0  1E5   [8]  1C 00 C4 70 00 00 01 8C
 (1652892853.104072)  can0  012   [8]  E8 03 10 00 00 00 00 00
 (1652892853.104175)  can0  010   [4]  26 73 00 00
 (1652892853.106026)  can0  014   [5]  00 00 00 13 27
 (1652892853.108122)  can0  1E5   [8]  1C 00 C4 10 00 00 01 2C
 (1652892853.114063)  can0  012   [8]  E8 03 10 00 00 00 00 00
 (1652892853.115856)  can0  014   [5]  00 00 00 0D 27
 (1652892853.118089)  can0  1E5   [8]  1C 00 C4 30 00 00 01 4C
 (1652892853.124049)  can0  012   [8]  E8 03 10 00 00 00 00 00
 (1652892853.125830)  can0  014   [5]  00 00 00 10 27
 (1652892853.127899)  can0  1E5   [8]  1C 00 C4 50 00 00 01 6C
 (1652892853.134440)  can0  012   [8]  E8 03 10 00 00 00 00 00
 (1652892853.135861)  can0  014   [5]  00 00 00 10 27
 (1652892853.138189)  can0  1E5   [8]  1C 00 C4 70 00 00 01 8C
 (1652892853.144055)  can0  012   [8]  E8 03 10 00 00 00 00 00
 (1652892853.145835)  can0  014   [5]  00 00 00 10 27
 (1652892853.147921)  can0  1E5   [8]  1C 00 C4 10 00 00 01 2C
 (1652892853.154388)  can0  012   [8]  E8 03 10 00 00 00 00 00
 (1652892853.156048)  can0  014   [5]  00 00 00 10 27
 (1652892853.158129)  can0  1E5   [8]  1C 00 C4 30 00 00 01 4C
 (1652892853.164022)  can0  012   [8]  E8 03 10 00 00 00 00 00
 (1652892853.166141)  can0  014   [5]  00 00 00 10 27
 (1652892853.168178)  can0  1E5   [8]  1C 00 C4 50 00 00 01 6C
 (1652892853.174051)  can0  012   [8]  E8 03 10 00 00 00 00 00
 (1652892853.176159)  can0  014   [5]  00 00 00 10 27
 (1652892853.178226)  can0  1E5   [8]  1C 00 C4 70 00 00 01 8C
 (1652892853.184053)  can0  012   [8]  E8 03 10 00 00 00 00 00
 (1652892853.186034)  can0  014   [5]  00 00 00 10 27
 (1652892853.188190)  can0  1E5   [8]  1C 00 C4 10 00 00 01 2C
 (1652892853.194068)  can0  012   [8]  E8 03 10 00 00 00 00 00
 (1652892853.196026)  can0  014   [5]  00 00 00 10 27
 (1652892853.198247)  can0  1E5   [8]  1C 00 C4 30 00 00 01 4C
 (1652892853.204067)  can0  012   [8]  E8 03 10 00 00 00 00 00
 (1652892853.204179)  can0  010   [4]  26 73 00 00
 (1652892853.206025)  can0  014   [5]  00 00 00 13 27
 (1652892853.208229)  can0  1E5   [8]  1C 00 C4 50 00 00 01 6C
 (1652892853.214472)  can0  012   [8]  E8 03 10 00 00 00 00 00
 (1652892853.215878)  can0  014   [5]  00 00 00 0D 27
 (1652892853.217946)  can0  1E5   [8]  1C 00 C4 70 00 00 01 8C
 (1652892853.224048)  can0  012   [8]  E8 03 10 00 00 00 00 00
 (1652892853.226033)  can0  014   [5]  00 00 00 10 27
 (1652892853.227948)  can0  1E5   [8]  1C 00 C4 10 00 00 01 2C
 (1652892853.234259)  can0  012   [8]  E8 03 10 00 00 00 00 00
 (1652892853.236024)  can0  014   [5]  00 00 00 10 27
 (1652892853.238106)  can0  1E5   [8]  1C 00 C4 30 00 00 01 4C
 (1652892853.244057)  can0  012   [8]  E8 03 10 00 00 00 00 00
 (1652892853.246021)  can0  014   [5]  00 00 00 10 27
 (1652892853.248104)  can0  1E5   [8]  1C 00 C4 50 00 00 01 6C
 (1652892853.254067)  can0  012   [8]  E8 03 10 00 00 00 00 00
 (1652892853.256019)  can0  014   [5]  00 00 00 10 27
 (1652892853.258101)  can0  1E5   [8]  1C 00 C4 70 00 00 01 8C
 (1652892853.264067)  can0  012   [8]  E8 03 10 00 00 00 00 00
 (1652892853.266015)  can0  014   [5]  00 00 00 10 27
 (1652892853.268105)  can0  1E5   [8]  1C 00 C4 10 00 00 01 2C
 (1652892853.274045)  can0  012   [8]  E8 03 10 00 00 00 00 00
 (1652892853.276026)  can0  014   [5]  00 00 00 10 27
 (1652892853.277921)  can0  1E5   [8]  1C 00 C4 30 00 00 01 4C
 (1652892853.284267)  can0  012   [8]  E8 03 10 00 00 00 00 00
 (1652892853.286019)  can0  014   [5]  00 00 00 10 27
 (1652892853.288098)  can0  1E5   [8]  1C 00 C4 50 00 00 01 6C
 (1652892853.294061)  can0  012   [8]  E8 03 10 00 00 00 00 00
 (1652892853.296013)  can0  014   [5]  00 00 00 10 27
 (1652892853.298094)  can0  1E5   [8]  1C 00 C4 70 00 00 01 8C
 (1652892853.304088)  can0  012   [8]  E8 03 10 00 00 00 00 00
 (1652892853.304215)  can0  010   [4]  26 73 00 00
 (1652892853.306045)  can0  014   [5]  00 00 00 13 27
 (1652892853.308093)  can0  1E5   [8]  1C 00 C4 10 00 00 01 2C
 (1652892853.314057)  can0  012   [8]  E8 03 10 00 00 00 00 00
 (1652892853.316015)  can0  014   [5]  00 00 00 0D 27
 (1652892853.318088)  can0  1E5   [8]  1C 00 C4 30 00 00 01 4C
 (1652892853.324044)  can0  012   [8]  E8 03 10 00 00 00 00 00
 (1652892853.326012)  can0  014   [5]  00 00 00 10 27
 (1652892853.328099)  can0  1E5   [8]  1C 00 C4 50 00 00 01 6C
 (1652892853.334050)  can0  012   [8]  E8 03 10 00 00 00 00 00
 (1652892853.336029)  can0  014   [5]  00 00 00 10 27
 (1652892853.338100)  can0  1E5   [8]  1C 00 C4 70 00 00 01 8C
 (1652892853.344056)  can0  012   [8]  E8 03 10 00 00 00 00 00
 (1652892853.346036)  can0  014   [5]  00 00 00 10 27
 (1652892853.348092)  can0  1E5   [8]  1C 00 C4 10 00 00 01 2C
 (1652892853.354046)  can0  012   [8]  E8 03 10 00 00 00 00 00
 (1652892853.356022)  can0  014   [5]  00 00 00 10 27
 (1652892853.358084)  can0  1E5   [8]  1C 00 C4 30 00 00 01 4C
 (1652892853.364061)  can0  012   [8]  E8 03 10 00 00 00 00 00
 (1652892853.365875)  can0  014   [5]  00 00 00 10 27
 (1652892853.368098)  can0  1E5   [8]  1C 00 C4 50 00 00 01 6C
 (1652892853.374058)  can0  012   [8]  E8 03 10 00 00 00 00 00
 (1652892853.376015)  can0  014   [5]  00 00 00 10 27
 (1652892853.378117)  can0  1E5   [8]  1C 00 C4 70 00 00 01 8C
 (1652892853.384066)  can0  012   [8]  E8 03 10 00 00 00 00 00
 (1652892853.386022)  can0  014   [5]  00 00 00 10 27
 (1652892853.388082)  can0  1E5   [8]  1C 00 C4 10 00 00 01 2C
 (1652892853.394067)  can0  012   [8]  E8 03 10 00 00 00 00 00
 (1652892853.396018)  can0  014   [5]  00 00 00 10 27
 (1652892853.398082)  can0  1E5   [8]  1C 00 C4 30 00 00 01 4C
 (1652892853.404055)  can0  012   [8]  E8 03 10 00 00 00 00 00
 (1652892853.404167)  can0  010   [4]  26 73 00 00
 (1652892853.406023)  can0  014   [5]  00 00 00 13 27
 (1652892853.408131)  can0  1E5   [8]  1C 00 C4 50 00 00 01 6C
 (1652892853.414073)  can0  012   [8]  E8 03 10 00 00 00 00 00
 (1652892853.416016)  can0  014   [5]  00 00 00 0D 27
 (1652892853.418071)  can0  1E5   [8]  1C 00 C4 70 00 00 01 8C
 (1652892853.424046)  can0  012   [8]  E8 03 10 00 00 00 00 00
 (1652892853.426014)  can0  014   [5]  00 00 00 10 27
 (1652892853.428097)  can0  1E5   [8]  1C 00 C4 10 00 00 01 2C
 (1652892853.434051)  can0  012   [8]  E8 03 10 00 00 00 00 00
 (1652892853.436014)  can0  014   [5]  00 00 00 10 27
 (1652892853.438093)  can0  1E5   [8]  1C 00 C4 30 00 00 01 4C
 (1652892853.444050)  can0  012   [8]  E8 03 10 00 00 00 00 00
 (1652892853.446018)  can0  014   [5]  00 00 00 10 27
 (1652892853.448085)  can0  1E5   [8]  1C 00 C4 50 00 00 01 6C
 (1652892853.454207)  can0  012   [8]  E8 03 10 00 00 00 00 00
 (1652892853.456060)  can0  014   [5]  00 00 00 10 27
 (1652892853.458085)  can0  1E5   [8]  1C 00 C4 70 00 00 01 8C
 (1652892853.464282)  can0  012   [8]  E8 03 10 00 00 00 00 00
 (1652892853.466022)  can0  014   [5]  00 00 00 10 27
 (1652892853.468093)  can0  1E5   [8]  1C 00 C4 10 00 00 01 2C
 (1652892853.474067)  can0  012   [8]  E8 03 10 00 00 00 00 00
 (1652892853.476021)  can0  014   [5]  00 00 00 10 27
 (1652892853.478102)  can0  1E5   [8]  1C 00 C4 30 00 00 01 4C
 (1652892853.484056)  can0  012   [8]  E8 03 10 00 00 00 00 00
 (1652892853.486024)  can0  014   [5]  00 F0 FF 10 27
 (1652892853.488092)  can0  1E5   [8]  1C 00 C4 50 00 00 01 6C
 (1652892853.494045)  can0  012   [8]  E8 03 10 00 00 00 00 00
 (1652892853.496034)  can0  014   [5]  00 00 00 10 27
 (1652892853.498098)  can0  1E5   [8]  1C 00 C4 70 00 00 01 8C
 (1652892853.504061)  can0  012   [8]  E8 03 10 00 00 00 00 00
 (1652892853.504157)  can0  010   [4]  26 73 00 00
 (1652892853.506033)  can0  014   [5]  00 00 00 13 27
 (1652892853.508082)  can0  1E5   [8]  1C 00 C4 10 00 00 01 2C
 (1652892853.514088)  can0  012   [8]  E8 03 10 00 00 00 00 00
 (1652892853.515870)  can0  014   [5]  00 00 00 0D 27
 (1652892853.518088)  can0  1E5   [8]  1C 00 C4 30 00 00 01 4C
 (1652892853.524044)  can0  012   [8]  E8 03 10 00 00 00 00 00
 (1652892853.526100)  can0  014   [5]  00 00 00 10 27
 (1652892853.528135)  can0  1E5   [8]  1C 00 C4 50 00 00 01 6C
 (1652892853.534057)  can0  012   [8]  E8 03 10 00 00 00 00 00
 (1652892853.536124)  can0  014   [5]  00 00 00 10 27
 (1652892853.538129)  can0  1E5   [8]  1C 00 C4 70 00 00 01 8C
 (1652892853.544058)  can0  012   [8]  E8 03 10 00 00 00 00 00
 (1652892853.546027)  can0  014   [5]  00 00 00 10 27
 (1652892853.548085)  can0  1E5   [8]  1C 00 C4 10 00 00 01 2C
 (1652892853.554066)  can0  012   [8]  E8 03 10 00 00 00 00 00
 (1652892853.556085)  can0  014   [5]  00 00 00 10 27
 (1652892853.558175)  can0  1E5   [8]  1C 00 C4 30 00 00 01 4C
 (1652892853.564044)  can0  012   [8]  E8 03 10 00 00 00 00 00
 (1652892853.566073)  can0  014   [5]  00 00 00 10 27
 (1652892853.568104)  can0  1E5   [8]  1C 00 C4 50 00 00 01 6C
 (1652892853.574061)  can0  012   [8]  E8 03 10 00 00 00 00 00
 (1652892853.576072)  can0  014   [5]  00 00 00 10 27
 (1652892853.578102)  can0  1E5   [8]  1C 00 C4 70 00 00 01 8C
 (1652892853.584050)  can0  012   [8]  E8 03 10 00 00 00 00 00
 (1652892853.586220)  can0  014   [5]  00 00 00 10 27
 (1652892853.588216)  can0  1E5   [8]  1C 00 C4 10 00 00 01 2C
 (1652892853.594073)  can0  012   [8]  E8 03 10 00 00 00 00 00
 (1652892853.596076)  can0  014   [5]  00 00 00 10 27
 (1652892853.598105)  can0  1E5   [8]  1C 00 C4 30 00 00 01 4C
 (1652892853.604067)  can0  012   [8]  E8 03 10 00 00 00 00 00
 (1652892853.604170)  can0  010   [4]  26 73 00 00
 (1652892853.606030)  can0  014   [5]  00 00 00 13 27
 (1652892853.608098)  can0  1E5   [8]  1C 00 C4 50 00 00 01 6C
 (1652892853.614097)  can0  012   [8]  E8 03 10 00 00 00 00 00
 (1652892853.616120)  can0  014   [5]  00 00 00 0D 27
 (1652892853.618099)  can0  1E5   [8]  1C 00 C4 70 00 00 01 8C
 (1652892853.624067)  can0  012   [8]  E8 03 10 00 00 00 00 00
 (1652892853.626092)  can0  014   [5]  00 00 00 10 27
 (1652892853.628160)  can0  1E5   [8]  1C 00 C4 10 00 00 01 2C
 (1652892853.634014)  can0  012   [8]  E8 03 10 00 00 00 00 00
 (1652892853.636039)  can0  014   [5]  00 00 00 10 27
 (1652892853.638096)  can0  1E5   [8]  1C 00 C4 30 00 00 01 4C
 (1652892853.644050)  can0  012   [8]  E8 03 10 00 00 00 00 00
 (1652892853.646072)  can0  014   [5]  00 00 00 10 27
 (1652892853.648087)  can0  1E5   [8]  1C 00 C4 50 00 00 01 6C
 (1652892853.654056)  can0  012   [8]  E8 03 10 00 00 00 00 00
 (1652892853.656088)  can0  014   [5]  00 00 00 10 27
 (1652892853.658113)  can0  1E5   [8]  1C 00 C4 70 00 00 01 8C
 (1652892853.664068)  can0  012   [8]  E8 03 10 00 00 00 00 00
 (1652892853.666119)  can0  014   [5]  00 00 00 10 27
 (1652892853.668185)  can0  1E5   [8]  1C 00 C4 10 00 00 01 2C
 (1652892853.674045)  can0  012   [8]  E8 03 10 00 00 00 00 00
 (1652892853.676126)  can0  014   [5]  00 00 00 10 27
 (1652892853.678178)  can0  1E5   [8]  1C 00 C4 30 00 00 01 4C
 (1652892853.684051)  can0  012   [8]  E8 03 10 00 00 00 00 00
 (1652892853.685864)  can0  014   [5]  00 00 00 10 27
 (1652892853.688091)  can0  1E5   [8]  1C 00 C4 50 00 00 01 6C
 (1652892853.694056)  can0  012   [8]  E8 03 10 00 00 00 00 00
 (1652892853.696172)  can0  014   [5]  00 00 00 10 27
 (1652892853.698186)  can0  1E5   [8]  1C 00 C4 70 00 00 01 8C
 (1652892853.704056)  can0  012   [8]  E8 03 10 00 00 00 00 00
 (1652892853.704161)  can0  010   [4]  26 73 00 00
 (1652892853.706014)  can0  014   [5]  00 00 00 13 27
 (1652892853.708194)  can0  1E5   [8]  1C 00 C4 10 00 00 01 2C
 (1652892853.714073)  can0  012   [8]  E8 03 10 00 00 00 00 00
 (1652892853.716027)  can0  014   [5]  00 00 00 0D 27
 (1652892853.717966)  can0  1E5   [8]  1C 00 C4 30 00 00 01 4C
 (1652892853.724232)  can0  012   [8]  E8 03 10 00 00 00 00 00
 (1652892853.726029)  can0  014   [5]  00 00 00 10 27
 (1652892853.728248)  can0  1E5   [8]  1C 00 C4 50 00 00 01 6C
 (1652892853.734047)  can0  012   [8]  E8 03 10 00 00 00 00 00
 (1652892853.736024)  can0  014   [5]  00 00 00 10 27
 (1652892853.738068)  can0  1E5   [8]  1C 00 C4 70 00 00 01 8C
 (1652892853.744052)  can0  012   [8]  E8 03 10 00 00 00 00 00
 (1652892853.746019)  can0  014   [5]  00 00 00 10 27
 (1652892853.748086)  can0  1E5   [8]  1C 00 C4 10 00 00 01 2C
 (1652892853.754056)  can0  012   [8]  E8 03 10 00 00 00 00 00
 (1652892853.756017)  can0  014   [5]  00 00 00 10 27
 (1652892853.758081)  can0  1E5   [8]  1C 00 C4 30 00 00 01 4C
 (1652892853.764246)  can0  012   [8]  E8 03 10 00 00 00 00 00
 (1652892853.766024)  can0  014   [5]  FF 0F 00 10 27
 (1652892853.768082)  can0  1E5   [8]  1C 00 C4 50 00 00 01 6C
 (1652892853.774049)  can0  012   [8]  E8 03 10 00 00 00 00 00
 (1652892853.776028)  can0  014   [5]  00 00 00 10 27
 (1652892853.778090)  can0  1E5   [8]  1C 00 C4 70 00 00 01 8C
 (1652892853.784051)  can0  012   [8]  E8 03 10 00 00 00 00 00
 (1652892853.786020)  can0  014   [5]  00 00 00 10 27
 (1652892853.788090)  can0  1E5   [8]  1C 00 C4 10 00 00 01 2C
 (1652892853.794040)  can0  012   [8]  E8 03 10 00 00 00 00 00
 (1652892853.796045)  can0  014   [5]  00 00 00 10 27
 (1652892853.798087)  can0  1E5   [8]  1C 00 C4 30 00 00 01 4C
 (1652892853.804067)  can0  012   [8]  E8 03 10 00 00 00 00 00
 (1652892853.804171)  can0  010   [4]  26 73 00 00
 (1652892853.806021)  can0  014   [5]  00 00 00 13 27
 (1652892853.808081)  can0  1E5   [8]  1C 00 C4 50 00 00 01 6C
 (1652892853.814061)  can0  012   [8]  E8 03 10 00 00 00 00 00
 (1652892853.816023)  can0  014   [5]  00 00 00 0D 27
 (1652892853.818066)  can0  1E5   [8]  1C 00 C4 70 00 00 01 8C
 (1652892853.824103)  can0  012   [8]  E8 03 10 00 00 00 00 00
 (1652892853.826031)  can0  014   [5]  00 00 00 10 27
 (1652892853.827899)  can0  1E5   [8]  1C 00 C4 10 00 00 01 2C
 (1652892853.834204)  can0  012   [8]  E8 03 10 00 00 00 00 00
 (1652892853.836028)  can0  014   [5]  00 00 00 10 27
 (1652892853.838065)  can0  1E5   [8]  1C 00 C4 30 00 00 01 4C
 (1652892853.844027)  can0  012   [8]  E8 03 10 00 00 00 00 00
 (1652892853.846023)  can0  014   [5]  00 00 00 10 27
 (1652892853.848071)  can0  1E5   [8]  1C 00 C4 50 00 00 01 6C
 (1652892853.854066)  can0  012   [8]  E8 03 10 00 00 00 00 00
 (1652892853.856016)  can0  014   [5]  00 00 00 10 27
 (1652892853.858082)  can0  1E5   [8]  1C 00 C5 70 00 00 01 8D
 (1652892853.864045)  can0  012   [8]  E8 03 10 00 00 00 00 00
 (1652892853.866022)  can0  014   [5]  00 00 00 10 27
 (1652892853.868089)  can0  1E5   [8]  1C 00 C4 10 00 00 01 2C
 (1652892853.874045)  can0  012   [8]  E8 03 10 00 00 00 00 00
 (1652892853.876028)  can0  014   [5]  00 00 00 10 27
 (1652892853.878088)  can0  1E5   [8]  1C 00 C4 30 00 00 01 4C
 (1652892853.884061)  can0  012   [8]  E8 03 10 00 00 00 00 00
 (1652892853.886022)  can0  014   [5]  00 00 00 10 27
 (1652892853.888066)  can0  1E5   [8]  1C 00 C4 50 00 00 01 6C
 (1652892853.894069)  can0  012   [8]  E8 03 10 00 00 00 00 00
 (1652892853.896017)  can0  014   [5]  00 00 00 10 27
 (1652892853.898061)  can0  1E5   [8]  1C 00 C4 70 00 00 01 8C
 (1652892853.904067)  can0  012   [8]  E8 03 10 00 00 00 00 00
 (1652892853.904170)  can0  010   [4]  26 73 00 00
 (1652892853.906027)  can0  014   [5]  00 00 00 13 27
 (1652892853.908088)  can0  1E5   [8]  1C 00 C4 10 00 00 01 2C
 (1652892853.914045)  can0  012   [8]  E8 03 10 00 00 00 00 00
 (1652892853.916022)  can0  014   [5]  00 00 00 0D 27
 (1652892853.918065)  can0  1E5   [8]  1C 00 C4 30 00 00 01 4C
 (1652892853.924100)  can0  012   [8]  E8 03 10 00 00 00 00 00
 (1652892853.926021)  can0  014   [5]  00 00 00 10 27
 (1652892853.928071)  can0  1E5   [8]  1C 00 C4 50 00 00 01 6C
 (1652892853.934057)  can0  012   [8]  E8 03 10 00 00 00 00 00
 (1652892853.936016)  can0  014   [5]  00 00 00 10 27
 (1652892853.938052)  can0  1E5   [8]  1C 00 C4 70 00 00 01 8C
 (1652892853.944034)  can0  012   [8]  E8 03 10 00 00 00 00 00
 (1652892853.946022)  can0  014   [5]  00 00 00 10 27
 (1652892853.948086)  can0  1E5   [8]  1C 00 C4 10 00 00 01 2C
 (1652892853.954068)  can0  012   [8]  E8 03 10 00 00 00 00 00
 (1652892853.956015)  can0  014   [5]  00 00 00 10 27
 (1652892853.957883)  can0  1E5   [8]  1C 00 C4 30 00 00 01 4C
 (1652892853.964252)  can0  012   [8]  E8 03 10 00 00 00 00 00
 (1652892853.966017)  can0  014   [5]  00 00 00 10 27
 (1652892853.968068)  can0  1E5   [8]  1C 00 C4 50 00 00 01 6C
 (1652892853.974066)  can0  012   [8]  E8 03 10 00 00 00 00 00
 (1652892853.976025)  can0  014   [5]  00 00 00 10 27
 (1652892853.978084)  can0  1E5   [8]  1C 00 C4 70 00 00 01 8C
 (1652892853.984051)  can0  012   [8]  E8 03 10 00 00 00 00 00
 (1652892853.986028)  can0  014   [5]  00 00 00 10 27
 (1652892853.988068)  can0  1E5   [8]  1C 00 C4 10 00 00 01 2C
 (1652892853.994067)  can0  012   [8]  E8 03 10 00 00 00 00 00
 (1652892853.996022)  can0  014   [5]  00 00 00 10 27
 (1652892853.998079)  can0  1E5   [8]  1C 00 C4 30 00 00 01 4C
 (1652892854.004067)  can0  012   [8]  E8 03 10 00 00 00 00 00
 (1652892854.004170)  can0  010   [4]  26 73 00 00
 (1652892854.004335)  can0  0E2   [2]  90 03
 (1652892854.004450)  can0  0E3   [2]  90 03
 (1652892854.005875)  can0  014   [5]  00 00 00 19 27
 (1652892854.005945)  can0  0E4   [2]  90 03
 (1652892854.008072)  can0  1E5   [8]  1C 00 C4 50 00 00 01 6C
 (1652892854.014054)  can0  012   [8]  E8 03 10 00 00 00 00 00
 (1652892854.016044)  can0  014   [5]  00 00 00 07 27
 (1652892854.018072)  can0  1E5   [8]  1C 00 C4 70 00 00 01 8C
 (1652892854.024191)  can0  012   [8]  E8 03 10 00 00 00 00 00
 (1652892854.026025)  can0  014   [5]  00 00 00 10 27
 (1652892854.028143)  can0  1E5   [8]  1C 00 C4 10 00 00 01 2C
 (1652892854.034044)  can0  012   [8]  E8 03 10 00 00 00 00 00
 (1652892854.036076)  can0  014   [5]  00 00 00 10 27
 (1652892854.037903)  can0  1E5   [8]  1C 00 C4 30 00 00 01 4C
 (1652892854.044227)  can0  012   [8]  E8 03 10 00 00 00 00 00
 (1652892854.046106)  can0  014   [5]  00 00 00 10 27
 (1652892854.048098)  can0  1E5   [8]  1C 00 C4 50 00 00 01 6C
 (1652892854.054046)  can0  012   [8]  E8 03 10 00 00 00 00 00
 (1652892854.056036)  can0  014   [5]  00 00 00 10 27
 (1652892854.058074)  can0  1E5   [8]  1C 00 C4 70 00 00 01 8C
 (1652892854.064054)  can0  012   [8]  E8 03 10 00 00 00 00 00
 (1652892854.066051)  can0  014   [5]  00 00 00 10 27
 (1652892854.068070)  can0  1E5   [8]  1C 00 C2 1F FF 00 02 38
 (1652892854.074048)  can0  012   [8]  E8 03 10 00 00 00 00 00
 (1652892854.076024)  can0  014   [5]  00 00 00 10 27
 (1652892854.078091)  can0  1E5   [8]  1C 00 C2 3F FF 00 02 58
 (1652892854.084067)  can0  012   [8]  E8 03 10 00 00 00 00 00
 (1652892854.086068)  can0  014   [5]  00 00 00 10 27
 (1652892854.088116)  can0  1E5   [8]  1C 00 C2 5F FF 00 02 78
 (1652892854.094035)  can0  012   [8]  E8 03 10 00 00 00 00 00
 (1652892854.096037)  can0  014   [5]  00 00 00 10 27
 (1652892854.098074)  can0  1E5   [8]  1C 00 C2 7F FF 00 02 98
 (1652892854.104063)  can0  012   [8]  E8 03 10 00 00 00 00 00
 (1652892854.104169)  can0  010   [4]  26 73 00 00
 (1652892854.106037)  can0  014   [5]  00 00 00 13 27
 (1652892854.108095)  can0  1E5   [8]  1C 00 C2 1F FF 00 02 38
 (1652892854.114045)  can0  012   [8]  E8 03 10 00 00 00 00 00
 (1652892854.116049)  can0  014   [5]  00 00 00 0D 27
 (1652892854.118075)  can0  1E5   [8]  1C 00 C2 3F FF 00 02 58
 (1652892854.124055)  can0  012   [8]  E8 03 10 00 00 00 00 00
 (1652892854.126101)  can0  014   [5]  00 00 00 10 27
 (1652892854.127866)  can0  1E5   [8]  1C 00 C2 5F FF 00 02 78
 (1652892854.134348)  can0  012   [8]  E8 03 10 00 00 00 00 00
 (1652892854.136035)  can0  014   [5]  00 00 00 10 27
 (1652892854.138078)  can0  1E5   [8]  1C 00 C2 7F FF 00 02 98
 (1652892854.144035)  can0  012   [8]  E8 03 10 00 00 00 00 00
 (1652892854.146052)  can0  014   [5]  00 00 00 10 27
 (1652892854.148133)  can0  1E5   [8]  1C 00 C2 1F FF 00 02 38
 (1652892854.154055)  can0  012   [8]  E8 03 10 00 00 00 00 00
 (1652892854.155883)  can0  014   [5]  00 00 00 10 27
 (1652892854.158119)  can0  1E5   [8]  1C 00 C2 3F FF 00 02 58
 (1652892854.164050)  can0  012   [8]  E8 03 10 00 00 00 00 00
 (1652892854.166067)  can0  014   [5]  00 00 00 10 27
 (1652892854.167858)  can0  1E5   [8]  1C 00 C2 50 00 00 01 6A
 (1652892854.174316)  can0  012   [8]  E8 03 10 00 00 00 00 00
 (1652892854.176036)  can0  014   [5]  00 00 00 10 27
 (1652892854.178119)  can0  1E5   [8]  1C 00 C2 70 00 00 01 8A
 (1652892854.184020)  can0  012   [8]  E8 03 10 00 00 00 00 00
 (1652892854.186103)  can0  014   [5]  00 00 00 10 27
 (1652892854.188130)  can0  1E5   [8]  1C 00 C2 10 00 00 01 2A
 (1652892854.194060)  can0  012   [8]  E8 03 10 00 00 00 00 00
 (1652892854.196122)  can0  014   [5]  00 00 00 10 27
 (1652892854.198144)  can0  1E5   [8]  1C 00 C2 30 00 00 01 4A
 (1652892854.204049)  can0  012   [8]  E8 03 10 00 00 00 00 00
 (1652892854.204147)  can0  010   [4]  26 73 00 00
 (1652892854.206048)  can0  014   [5]  00 00 00 13 27
 (1652892854.208152)  can0  1E5   [8]  1C 00 C4 50 00 00 01 6C
 (1652892854.214065)  can0  012   [8]  E8 03 10 00 00 00 00 00
 (1652892854.216158)  can0  014   [5]  00 00 00 0D 27
 (1652892854.218178)  can0  1E5   [8]  1C 00 C4 70 00 00 01 8C
 (1652892854.224418)  can0  012   [8]  E8 03 10 00 00 00 00 00
 (1652892854.226068)  can0  014   [5]  00 00 00 10 27
 (1652892854.228219)  can0  1E5   [8]  1C 00 C4 10 00 00 01 2C
 (1652892854.234249)  can0  012   [8]  E8 03 10 00 00 00 00 00
 (1652892854.236022)  can0  014   [5]  00 00 00 10 27
 (1652892854.238217)  can0  1E5   [8]  1C 00 C4 30 00 00 01 4C
 (1652892854.244236)  can0  012   [8]  E8 03 10 00 00 00 00 00
 (1652892854.246017)  can0  014   [5]  00 00 00 10 27
 (1652892854.248071)  can0  1E5   [8]  1C 00 C4 50 00 00 01 6C
 (1652892854.254060)  can0  012   [8]  E8 03 10 00 00 00 00 00
 (1652892854.256027)  can0  014   [5]  00 00 00 10 27
 (1652892854.258058)  can0  1E5   [8]  1C 00 C4 70 00 00 01 8C
 (1652892854.264038)  can0  012   [8]  E8 03 10 00 00 00 00 00
 (1652892854.266019)  can0  014   [5]  00 00 00 10 27
 (1652892854.268075)  can0  1E5   [8]  1C 00 C4 10 00 00 01 2C
 (1652892854.274036)  can0  012   [8]  E8 03 10 00 00 00 00 00
 (1652892854.276022)  can0  014   [5]  00 00 00 10 27
 (1652892854.278081)  can0  1E5   [8]  1C 00 C4 30 00 00 01 4C
 (1652892854.284044)  can0  012   [8]  E8 03 10 00 00 00 00 00
 (1652892854.286016)  can0  014   [5]  00 00 00 10 27
 (1652892854.288066)  can0  1E5   [8]  1C 00 C2 50 00 00 01 6A
 (1652892854.294056)  can0  012   [8]  E8 03 10 00 00 00 00 00
 (1652892854.296016)  can0  014   [5]  00 00 00 10 27
 (1652892854.298062)  can0  1E5   [8]  1C 00 C2 70 00 00 01 8A
 (1652892854.304060)  can0  012   [8]  E8 03 10 00 00 00 00 00
 (1652892854.304158)  can0  010   [4]  26 73 00 00
 (1652892854.306043)  can0  014   [5]  00 00 00 13 27
 (1652892854.308057)  can0  1E5   [8]  1C 00 C2 10 00 00 01 2A
 (1652892854.314066)  can0  012   [8]  E8 03 10 00 00 00 00 00
 (1652892854.316021)  can0  014   [5]  00 00 00 0D 27
 (1652892854.318064)  can0  1E5   [8]  1C 00 C2 30 00 00 01 4A
 (1652892854.324038)  can0  012   [8]  E8 03 10 00 00 00 00 00
 (1652892854.326024)  can0  014   [5]  00 00 00 10 27
 (1652892854.328076)  can0  1E5   [8]  1C 00 C2 50 00 00 01 6A
 (1652892854.334054)  can0  012   [8]  E8 03 10 00 00 00 00 00
 (1652892854.336014)  can0  014   [5]  00 00 00 10 27
 (1652892854.338099)  can0  1E5   [8]  1C 00 C2 70 00 00 01 8A
 (1652892854.344049)  can0  012   [8]  E8 03 10 00 00 00 00 00
 (1652892854.345827)  can0  014   [5]  00 00 00 10 27
 (1652892854.348054)  can0  1E5   [8]  1C 00 C2 10 00 00 01 2A
 (1652892854.354236)  can0  012   [8]  E8 03 10 00 00 00 00 00
 (1652892854.356021)  can0  014   [5]  00 00 00 10 27
 (1652892854.358054)  can0  1E5   [8]  1C 00 C2 30 00 00 01 4A
 (1652892854.364067)  can0  012   [8]  E8 03 10 00 00 00 00 00
 (1652892854.366012)  can0  014   [5]  00 00 00 10 27
 (1652892854.368064)  can0  1E5   [8]  1C 00 C2 50 00 00 01 6A
 (1652892854.374038)  can0  012   [8]  E8 03 10 00 00 00 00 00
 (1652892854.376014)  can0  014   [5]  00 00 00 10 27
 (1652892854.377858)  can0  1E5   [8]  1C 00 C2 70 00 00 01 8A
 (1652892854.384206)  can0  012   [8]  E8 03 10 00 00 00 00 00
 (1652892854.386012)  can0  014   [5]  00 00 00 10 27
 (1652892854.388056)  can0  1E5   [8]  1C 00 C2 10 00 00 01 2A
 (1652892854.394023)  can0  012   [8]  E8 03 10 00 00 00 00 00
 (1652892854.396011)  can0  014   [5]  00 00 00 10 27
 (1652892854.398051)  can0  1E5   [8]  1C 00 C2 30 00 00 01 4A
 (1652892854.404060)  can0  012   [8]  E8 03 10 00 00 00 00 00
 (1652892854.404167)  can0  010   [4]  26 73 00 00
 (1652892854.406043)  can0  014   [5]  00 F0 FF 13 27
 (1652892854.408054)  can0  1E5   [8]  1C 00 C2 50 00 00 01 6A
 (1652892854.414066)  can0  012   [8]  E8 03 10 00 00 00 00 00
 (1652892854.416015)  can0  014   [5]  00 00 00 0D 27
 (1652892854.418053)  can0  1E5   [8]  1C 00 C2 70 00 00 01 8A
 (1652892854.424038)  can0  012   [8]  E8 03 10 00 00 00 00 00
 (1652892854.426016)  can0  014   [5]  00 00 00 10 27
 (1652892854.428065)  can0  1E5   [8]  1C 00 C2 10 00 00 01 2A
 (1652892854.434055)  can0  012   [8]  E8 03 10 00 00 00 00 00
 (1652892854.436015)  can0  014   [5]  00 00 00 10 27
 (1652892854.437891)  can0  1E5   [8]  1C 00 C2 30 00 00 01 4A
 (1652892854.444250)  can0  012   [8]  E8 03 10 00 00 00 00 00
 (1652892854.446011)  can0  014   [5]  00 00 00 10 27
 (1652892854.448065)  can0  1E5   [8]  1C 00 C4 50 00 00 01 6C
 (1652892854.454220)  can0  012   [8]  E8 03 10 00 00 00 00 00
 (1652892854.456023)  can0  014   [5]  00 00 00 10 27
 (1652892854.458050)  can0  1E5   [8]  1C 00 C4 70 00 00 01 8C
 (1652892854.464015)  can0  012   [8]  E8 03 10 00 00 00 00 00
 (1652892854.465806)  can0  014   [5]  00 00 00 10 27
 (1652892854.467850)  can0  1E5   [8]  1C 00 C4 10 00 00 01 2C
 (1652892854.473999)  can0  012   [8]  E8 03 10 00 00 00 00 00
 (1652892854.475822)  can0  014   [5]  FF 0F 00 10 27
 (1652892854.477863)  can0  1E5   [8]  1C 00 C2 30 00 00 01 4A
 (1652892854.484005)  can0  012   [8]  E8 03 10 00 00 00 00 00
 (1652892854.485817)  can0  014   [5]  00 00 00 10 27
 (1652892854.487863)  can0  1E5   [8]  1C 00 C2 50 00 00 01 6A
 (1652892854.494005)  can0  012   [8]  E8 03 10 00 00 00 00 00
 (1652892854.495831)  can0  014   [5]  00 00 00 10 27
 (1652892854.497857)  can0  1E5   [8]  1C 00 C2 70 00 00 01 8A
 (1652892854.504003)  can0  012   [8]  E8 03 10 00 00 00 00 00
 (1652892854.504165)  can0  010   [4]  26 73 00 00
 (1652892854.505827)  can0  014   [5]  00 00 00 13 27
 (1652892854.507856)  can0  1E5   [8]  1C 00 C2 10 00 00 01 2A
 (1652892854.514013)  can0  012   [8]  E8 03 10 00 00 00 00 00
 (1652892854.515814)  can0  014   [5]  00 00 00 0D 27
 (1652892854.517859)  can0  1E5   [8]  1C 00 C2 30 00 00 01 4A
 (1652892854.523999)  can0  012   [8]  E8 03 10 00 00 00 00 00
 (1652892854.525823)  can0  014   [5]  00 00 00 10 27
 (1652892854.527846)  can0  1E5   [8]  1C 00 C2 50 00 00 01 6A
 (1652892854.534007)  can0  012   [8]  E8 03 10 00 00 00 00 00
 (1652892854.535817)  can0  014   [5]  00 00 00 10 27
 (1652892854.537864)  can0  1E5   [8]  1C 00 C2 70 00 00 01 8A
 (1652892854.544040)  can0  012   [8]  E8 03 10 00 00 00 00 00
 (1652892854.545817)  can0  014   [5]  00 00 00 10 27
 (1652892854.547863)  can0  1E5   [8]  1C 00 C2 10 00 00 01 2A
 (1652892854.554006)  can0  012   [8]  E8 03 10 00 00 00 00 00
 (1652892854.555837)  can0  014   [5]  00 00 00 10 27
 (1652892854.557857)  can0  1E5   [8]  1C 00 C2 30 00 00 01 4A
 (1652892854.564009)  can0  012   [8]  E8 03 10 00 00 00 00 00
 (1652892854.565818)  can0  014   [5]  00 00 00 10 27
 (1652892854.567864)  can0  1E5   [8]  1C 00 C2 50 00 00 01 6A
 (1652892854.573999)  can0  012   [8]  E8 03 10 00 00 00 00 00
 (1652892854.575823)  can0  014   [5]  00 00 00 10 27
 (1652892854.577854)  can0  1E5   [8]  1C 00 C2 70 00 00 01 8A
 (1652892854.584006)  can0  012   [8]  E8 03 10 00 00 00 00 00
 (1652892854.585822)  can0  014   [5]  00 00 00 10 27
 (1652892854.587845)  can0  1E5   [8]  1C 00 C2 10 00 00 01 2A
 (1652892854.594010)  can0  012   [8]  E8 03 10 00 00 00 00 00
 (1652892854.595813)  can0  014   [5]  00 00 00 10 27
 (1652892854.597863)  can0  1E5   [8]  1C 00 C2 30 00 00 01 4A
 (1652892854.604021)  can0  012   [8]  E8 03 10 00 00 00 00 00
 (1652892854.604152)  can0  010   [4]  26 73 00 00
 (1652892854.605829)  can0  014   [5]  00 00 00 13 27
 (1652892854.607856)  can0  1E5   [8]  1C 00 C2 50 00 00 01 6A
 (1652892854.614015)  can0  012   [8]  E8 03 10 00 00 00 00 00
 (1652892854.615818)  can0  014   [5]  00 00 00 0D 27
 (1652892854.617854)  can0  1E5   [8]  1C 00 C1 7F FF 00 02 97
 (1652892854.623998)  can0  012   [8]  E8 03 10 00 00 00 00 00
 (1652892854.625825)  can0  014   [5]  00 00 00 10 27
 (1652892854.627845)  can0  1E5   [8]  1C 00 C2 10 00 00 01 2A
 (1652892854.634004)  can0  012   [8]  E8 03 10 00 00 00 00 00
 (1652892854.635818)  can0  014   [5]  00 00 00 10 27
 (1652892854.637864)  can0  1E5   [8]  1C 00 C2 30 00 00 01 4A
 (1652892854.644009)  can0  012   [8]  E8 03 10 00 00 00 00 00
 (1652892854.645812)  can0  014   [5]  00 00 00 10 27
 (1652892854.647873)  can0  1E5   [8]  1C 00 C2 50 00 00 01 6A
 (1652892854.654012)  can0  012   [8]  E8 03 10 00 00 00 00 00
 (1652892854.655821)  can0  014   [5]  00 00 00 10 27
 (1652892854.657856)  can0  1E5   [8]  1C 00 C2 70 00 00 01 8A
 (1652892854.663996)  can0  012   [8]  E8 03 10 00 00 00 00 00
 (1652892854.665812)  can0  014   [5]  00 00 00 10 27
 (1652892854.667854)  can0  1E5   [8]  1C 00 C2 10 00 00 01 2A
 (1652892854.673999)  can0  012   [8]  E8 03 10 00 00 00 00 00
 (1652892854.675820)  can0  014   [5]  00 00 00 10 27
 (1652892854.677840)  can0  1E5   [8]  1C 00 C2 30 00 00 01 4A
 (1652892854.683998)  can0  012   [8]  E8 03 10 00 00 00 00 00
 (1652892854.685816)  can0  014   [5]  00 00 00 10 27
 (1652892854.687857)  can0  1E5   [8]  1C 00 C2 50 00 00 01 6A
 (1652892854.694004)  can0  012   [8]  E8 03 10 00 00 00 00 00
 (1652892854.695811)  can0  014   [5]  00 00 00 10 27
 (1652892854.697837)  can0  1E5   [8]  1C 00 C2 70 00 00 01 8A
 (1652892854.704003)  can0  012   [8]  E8 03 10 00 00 00 00 00
 (1652892854.704160)  can0  010   [4]  26 73 00 00
 (1652892854.705821)  can0  014   [5]  00 00 00 13 27
 (1652892854.707847)  can0  1E5   [8]  1C 00 C2 10 00 00 01 2A
 (1652892854.714005)  can0  012   [8]  E8 03 10 00 00 00 00 00
 (1652892854.715817)  can0  014   [5]  00 00 00 0D 27
 (1652892854.717856)  can0  1E5   [8]  1C 00 C2 30 00 00 01 4A
 (1652892854.724009)  can0  012   [8]  E8 03 10 00 00 00 00 00
 (1652892854.725817)  can0  014   [5]  00 00 00 10 27
 (1652892854.727846)  can0  1E5   [8]  1C 00 C2 50 00 00 01 6A
 (1652892854.734001)  can0  012   [8]  E8 03 10 00 00 00 00 00
 (1652892854.735827)  can0  014   [5]  00 00 00 10 27
 (1652892854.737838)  can0  1E5   [8]  1C 00 C2 70 00 00 01 8A
 (1652892854.744004)  can0  012   [8]  E8 03 10 00 00 00 00 00
 (1652892854.745825)  can0  014   [5]  00 00 00 10 27
 (1652892854.747857)  can0  1E5   [8]  1C 00 C2 10 00 00 01 2A
 (1652892854.754004)  can0  012   [8]  E8 03 10 00 00 00 00 00
 (1652892854.755822)  can0  014   [5]  00 00 00 10 27
 (1652892854.757847)  can0  1E5   [8]  1C 00 C2 30 00 00 01 4A
 (1652892854.764009)  can0  012   [8]  E8 03 10 00 00 00 00 00
 (1652892854.765830)  can0  014   [5]  00 00 00 10 27
 (1652892854.767849)  can0  1E5   [8]  1C 00 C2 50 00 00 01 6A
 (1652892854.773999)  can0  012   [8]  E8 03 10 00 00 00 00 00
 (1652892854.775818)  can0  014   [5]  00 00 00 10 27
 (1652892854.777841)  can0  1E5   [8]  1C 00 C2 70 00 00 01 8A
 (1652892854.783999)  can0  012   [8]  E8 03 10 00 00 00 00 00
 (1652892854.785830)  can0  014   [5]  00 00 00 10 27
 (1652892854.787837)  can0  1E5   [8]  1C 00 C2 10 00 00 01 2A
 (1652892854.790236)  can0  0F0   [1]  01
 (1652892854.791415)  can0  011   [2]  08 01
 (1652892854.794025)  can0  012   [8]  E8 03 10 00 00 00 00 00
 (1652892854.796007)  can0  014   [5]  00 00 00 16 27
 (1652892854.798024)  can0  1E5   [8]  1C 00 C2 30 00 00 01 4A
 (1652892854.804228)  can0  012   [8]  E8 03 10 00 00 00 00 00
 (1652892854.804236)  can0  010   [4]  32 86 08 00
 (1652892854.806031)  can0  014   [5]  00 00 00 0D 27
 (1652892854.807912)  can0  1E5   [8]  1C 00 C2 50 00 00 01 6A
 (1652892854.814169)  can0  012   [8]  E8 03 10 00 00 00 00 00
 (1652892854.815995)  can0  014   [5]  00 00 00 0D 27
 (1652892854.818027)  can0  1E5   [8]  1C 00 C2 70 00 00 01 8A
 (1652892854.824013)  can0  012   [8]  E8 03 10 00 00 00 00 00
 (1652892854.825878)  can0  014   [5]  00 00 00 10 27
 (1652892854.827867)  can0  1E5   [8]  1C 00 C2 10 00 00 01 2A
 (1652892854.834240)  can0  012   [8]  E8 03 10 00 00 00 00 00
 (1652892854.835864)  can0  014   [5]  00 00 00 10 27
 (1652892854.837877)  can0  1E5   [8]  1C 00 C2 30 00 00 01 4A
 (1652892854.844004)  can0  012   [8]  E8 03 10 00 00 00 00 00
 (1652892854.845854)  can0  014   [5]  00 00 00 10 27
 (1652892854.848020)  can0  1E5   [8]  1C 00 C2 50 00 00 01 6A
 (1652892854.854011)  can0  012   [8]  E8 03 10 00 00 00 00 00
 (1652892854.855823)  can0  014   [5]  00 00 00 10 27
 (1652892854.857835)  can0  1E5   [8]  1C 00 C2 70 00 00 01 8A
 (1652892854.864004)  can0  012   [8]  E8 03 10 00 00 00 00 00
 (1652892854.865808)  can0  014   [5]  00 00 00 10 27
 (1652892854.868020)  can0  1E5   [8]  1C 00 C2 10 00 00 01 2A
 (1652892854.874011)  can0  012   [8]  E8 03 10 00 00 00 00 00
 (1652892854.875824)  can0  014   [5]  00 00 00 10 27
 (1652892854.877844)  can0  1E5   [8]  1C 00 C2 30 00 00 01 4A
 (1652892854.884202)  can0  012   [8]  E8 03 10 00 00 00 00 00
 (1652892854.886006)  can0  014   [5]  00 00 00 10 27
 (1652892854.887859)  can0  1E5   [8]  1C 00 C2 50 00 00 01 6A
 (1652892854.893989)  can0  012   [8]  E8 03 10 00 00 00 00 00
 (1652892854.895823)  can0  014   [5]  00 00 00 10 27
 (1652892854.897867)  can0  1E5   [8]  1C 00 C2 70 00 00 01 8A
 (1652892854.904040)  can0  012   [8]  E8 03 10 00 00 00 00 00
 (1652892854.904141)  can0  010   [4]  32 86 08 00
 (1652892854.905843)  can0  014   [5]  00 00 00 13 27
 (1652892854.907867)  can0  1E5   [8]  1C 00 C2 10 00 00 01 2A
 (1652892854.914027)  can0  012   [8]  E8 03 10 00 00 00 00 00
 (1652892854.915849)  can0  014   [5]  00 00 00 0D 27
 (1652892854.918037)  can0  1E5   [8]  1C 00 C2 30 00 00 01 4A
 (1652892854.924008)  can0  012   [8]  E8 03 10 00 00 00 00 00
 (1652892854.925849)  can0  014   [5]  00 00 00 10 27
 (1652892854.927834)  can0  1E5   [8]  1C 00 C2 50 00 00 01 6A
 (1652892854.934179)  can0  012   [8]  E8 03 10 00 00 00 00 00
 (1652892854.935864)  can0  014   [5]  FF 0F 00 10 27
 (1652892854.938048)  can0  1E5   [8]  1C 00 C2 70 00 00 01 8A
 (1652892854.944011)  can0  012   [8]  E8 03 10 00 00 00 00 00
 (1652892854.945811)  can0  014   [5]  00 00 00 10 27
 (1652892854.948030)  can0  1E5   [8]  1C 00 C2 10 00 00 01 2A
 (1652892854.954026)  can0  012   [8]  E8 03 10 00 00 00 00 00
 (1652892854.955851)  can0  014   [5]  00 F0 FF 10 27
 (1652892854.957877)  can0  1E5   [8]  1C 00 C2 30 00 00 01 4A
 (1652892854.964023)  can0  012   [8]  E8 03 10 00 00 00 00 00
 (1652892854.965843)  can0  014   [5]  00 00 00 10 27
 (1652892854.967886)  can0  1E5   [8]  1C 00 C2 50 00 00 01 6A
 (1652892854.974032)  can0  012   [8]  E8 03 10 00 00 00 00 00
 (1652892854.975845)  can0  014   [5]  00 00 00 10 27
 (1652892854.977874)  can0  1E5   [8]  1C 00 C2 70 00 00 01 8A
 (1652892854.984237)  can0  012   [8]  E8 03 10 00 00 00 00 00
 (1652892854.985859)  can0  014   [5]  00 00 00 10 27
 (1652892854.987855)  can0  1E5   [8]  1C 00 C2 10 00 00 01 2A
 (1652892854.994017)  can0  012   [8]  E8 03 10 00 00 00 00 00
 (1652892854.995814)  can0  014   [5]  00 00 00 10 27
 (1652892854.997870)  can0  1E5   [8]  1C 00 C2 30 00 00 01 4A
 (1652892855.004049)  can0  012   [8]  E8 03 10 00 00 00 00 00
 (1652892855.004150)  can0  010   [4]  32 86 08 00
 (1652892855.004284)  can0  0E2   [2]  BA 03
 (1652892855.004409)  can0  0E3   [2]  BA 03
 (1652892855.005825)  can0  014   [5]  00 00 00 19 27
 (1652892855.005943)  can0  0E4   [2]  BA 03
 (1652892855.007861)  can0  1E5   [8]  1C 00 C2 50 00 00 01 6A
 (1652892855.014033)  can0  012   [8]  E8 03 10 00 00 00 00 00
 (1652892855.015817)  can0  014   [5]  00 00 00 07 27
 (1652892855.017867)  can0  1E5   [8]  1C 00 C2 70 00 00 01 8A
 (1652892855.024037)  can0  012   [8]  E8 03 10 00 00 00 00 00
 (1652892855.025844)  can0  014   [5]  00 00 00 10 27
 (1652892855.027857)  can0  1E5   [8]  1C 00 C2 10 00 00 01 2A
 (1652892855.034196)  can0  012   [8]  E8 03 10 00 00 00 00 00
 (1652892855.036050)  can0  014   [5]  00 00 00 10 27
 (1652892855.037842)  can0  1E5   [8]  1C 00 C2 30 00 00 01 4A
 (1652892855.044012)  can0  012   [8]  E8 03 10 00 00 00 00 00
 (1652892855.045818)  can0  014   [5]  00 00 00 10 27
 (1652892855.047855)  can0  1E5   [8]  1C 00 C2 50 00 00 01 6A
 (1652892855.053998)  can0  012   [8]  E8 03 10 00 00 00 00 00
 (1652892855.056038)  can0  014   [5]  00 00 00 10 27
 (1652892855.057834)  can0  1E5   [8]  1C 00 C2 70 00 00 01 8A
 (1652892855.064024)  can0  012   [8]  E8 03 10 00 00 00 00 00
 (1652892855.065840)  can0  014   [5]  00 00 00 10 27
 (1652892855.067888)  can0  1E5   [8]  1C 00 C2 10 00 00 01 2A
 (1652892855.074007)  can0  012   [8]  E8 03 10 00 00 00 00 00
 (1652892855.075819)  can0  014   [5]  00 00 00 10 27
 (1652892855.077884)  can0  1E5   [8]  1C 00 C1 30 00 00 01 49
 (1652892855.084055)  can0  012   [8]  E8 03 10 00 00 00 00 00
 (1652892855.085856)  can0  014   [5]  00 00 00 10 27
 (1652892855.088043)  can0  1E5   [8]  1C 00 C2 50 00 00 01 6A
 (1652892855.094093)  can0  012   [8]  E8 03 10 00 00 00 00 00
 (1652892855.095819)  can0  014   [5]  00 00 00 10 27
 (1652892855.097864)  can0  1E5   [8]  1C 00 C2 70 00 00 01 8A
 (1652892855.104048)  can0  012   [8]  E8 03 10 00 00 00 00 00
 (1652892855.104145)  can0  010   [4]  32 86 08 01
 (1652892855.105805)  can0  014   [5]  00 00 00 13 27
 (1652892855.107841)  can0  1E5   [8]  1C 00 C2 10 00 00 01 2A
 (1652892855.114028)  can0  012   [8]  E8 03 10 00 00 00 00 00
 (1652892855.116000)  can0  014   [5]  00 00 00 0D 27
 (1652892855.117855)  can0  1E5   [8]  1C 00 C2 30 00 00 01 4A
 (1652892855.124011)  can0  012   [8]  E8 03 10 00 00 00 00 00
 (1652892855.125819)  can0  014   [5]  00 00 00 10 27
 (1652892855.127823)  can0  1E5   [8]  1C 00 C2 50 00 00 01 6A
 (1652892855.134011)  can0  012   [8]  E8 03 10 00 00 00 00 00
 (1652892855.136016)  can0  014   [5]  00 00 00 10 27
 (1652892855.138071)  can0  1E5   [8]  1C 00 C2 70 00 00 01 8A
 (1652892855.144023)  can0  012   [8]  E8 03 10 00 00 00 00 00
 (1652892855.145819)  can0  014   [5]  00 00 00 10 27
 (1652892855.148037)  can0  1E5   [8]  1C 00 C2 10 00 00 01 2A
 (1652892855.154309)  can0  012   [8]  E8 03 10 00 00 00 00 00
 (1652892855.155851)  can0  014   [5]  00 00 00 10 27
 (1652892855.157845)  can0  1E5   [8]  1C 00 C2 30 00 00 01 4A
 (1652892855.163992)  can0  012   [8]  E8 03 10 00 00 00 00 00
 (1652892855.165811)  can0  014   [5]  00 00 00 10 27
 (1652892855.168056)  can0  1E5   [8]  1C 00 C2 50 00 00 01 6A
 (1652892855.174042)  can0  012   [8]  E8 03 10 00 00 00 00 00
 (1652892855.175854)  can0  014   [5]  00 00 00 10 27
 (1652892855.177829)  can0  1E5   [8]  1C 00 C2 70 00 00 01 8A
 (1652892855.184029)  can0  012   [8]  E8 03 10 00 00 00 00 00
 (1652892855.185844)  can0  014   [5]  00 00 00 10 27
 (1652892855.188057)  can0  1E5   [8]  1C 00 C2 10 00 00 01 2A
 (1652892855.194012)  can0  012   [8]  E8 03 10 00 00 00 00 00
 (1652892855.195826)  can0  014   [5]  00 00 00 10 27
 (1652892855.197878)  can0  1E5   [8]  1C 00 C2 30 00 00 01 4A
 (1652892855.204042)  can0  012   [8]  E8 03 10 00 00 00 00 00
 (1652892855.204204)  can0  010   [4]  32 86 08 01
 (1652892855.205878)  can0  014   [5]  00 00 00 13 27
 (1652892855.207843)  can0  1E5   [8]  1C 00 C1 50 00 00 01 69
 (1652892855.214033)  can0  012   [8]  E8 03 10 00 00 00 00 00
 (1652892855.215840)  can0  014   [5]  00 00 00 0D 27
 (1652892855.217869)  can0  1E5   [8]  1C 00 C2 70 00 00 01 8A
 (1652892855.224005)  can0  012   [8]  E8 03 10 00 00 00 00 00
 (1652892855.225851)  can0  014   [5]  00 10 00 10 27
 (1652892855.227836)  can0  1E5   [8]  1C 00 C2 10 00 00 01 2A
 (1652892855.234406)  can0  012   [8]  E8 03 10 00 00 00 00 00
 (1652892855.236007)  can0  014   [5]  00 00 00 10 27
 (1652892855.237831)  can0  1E5   [8]  1C 00 C2 30 00 00 01 4A
 (1652892855.244038)  can0  012   [8]  E8 03 10 00 00 00 00 00
 (1652892855.245822)  can0  014   [5]  00 00 00 10 27
 (1652892855.247875)  can0  1E5   [8]  1C 00 C1 50 00 00 01 69
 (1652892855.254009)  can0  012   [8]  E8 03 10 00 00 00 00 00
 (1652892855.255828)  can0  014   [5]  01 00 00 10 27
 (1652892855.257829)  can0  1E5   [8]  1C 00 C1 70 00 00 01 89
 (1652892855.264017)  can0  012   [8]  E8 03 10 00 00 00 00 00
 (1652892855.266013)  can0  014   [5]  00 00 00 10 27
 (1652892855.268022)  can0  1E5   [8]  1C 00 C1 10 00 00 01 29
 (1652892855.274081)  can0  012   [8]  E8 03 10 00 00 00 00 00
 (1652892855.275837)  can0  014   [5]  00 00 00 10 27
 (1652892855.277841)  can0  1E5   [8]  1C 00 C1 30 00 00 01 49
 (1652892855.284024)  can0  012   [8]  E8 03 10 00 00 00 00 00
 (1652892855.286008)  can0  014   [5]  00 10 00 10 27
 (1652892855.287868)  can0  1E5   [8]  1C 00 C2 50 00 00 01 6A
 (1652892855.294038)  can0  012   [8]  E8 03 10 00 00 00 00 00
 (1652892855.295814)  can0  014   [5]  01 00 00 10 27
 (1652892855.298008)  can0  1E5   [8]  1C 00 C2 70 00 00 01 8A
 (1652892855.304229)  can0  012   [8]  E8 03 10 00 00 00 00 00
 (1652892855.304237)  can0  010   [4]  32 86 08 01
 (1652892855.305842)  can0  014   [5]  00 10 00 13 27
 (1652892855.307857)  can0  1E5   [8]  1C 00 C1 10 00 00 01 29
 (1652892855.314028)  can0  012   [8]  E8 03 10 00 00 00 00 00
 (1652892855.315856)  can0  014   [5]  01 00 00 0D 27
 (1652892855.317842)  can0  1E5   [8]  1C 00 C1 30 00 00 01 49
 (1652892855.324036)  can0  012   [8]  E8 03 10 00 00 00 00 00
 (1652892855.325872)  can0  014   [5]  00 00 00 10 27
 (1652892855.327831)  can0  1E5   [8]  1C 00 C2 50 00 00 01 6A
 (1652892855.334185)  can0  012   [8]  E8 03 10 00 00 00 00 00
 (1652892855.336000)  can0  014   [5]  01 10 00 10 27
 (1652892855.337841)  can0  1E5   [8]  1C 00 C1 70 00 00 01 89
 (1652892855.344023)  can0  012   [8]  E8 03 10 00 00 00 00 00
 (1652892855.345828)  can0  014   [5]  00 00 00 10 27
 (1652892855.347852)  can0  1E5   [8]  1C 00 C2 10 00 00 01 2A
 (1652892855.354172)  can0  012   [8]  E8 03 10 00 00 00 00 00
 (1652892855.356013)  can0  014   [5]  01 00 00 10 27
 (1652892855.357864)  can0  1E5   [8]  1C 00 C2 30 00 00 01 4A
 (1652892855.364183)  can0  012   [8]  E8 03 10 00 00 00 00 00
 (1652892855.365815)  can0  014   [5]  00 F0 FF 10 27
 (1652892855.368015)  can0  1E5   [8]  1C 00 C1 50 00 00 01 69
 (1652892855.374005)  can0  012   [8]  E8 03 10 00 00 00 00 00
 (1652892855.375844)  can0  014   [5]  00 00 00 10 27
 (1652892855.377842)  can0  1E5   [8]  1C 00 C1 70 00 00 01 89
 (1652892855.384039)  can0  012   [8]  E8 03 10 00 00 00 00 00
 (1652892855.385997)  can0  014   [5]  00 F0 FF 10 27
 (1652892855.388502)  can0  1E5   [8]  1C 00 C1 10 00 00 01 29
 (1652892855.394008)  can0  012   [8]  E8 03 10 00 00 00 00 00
 (1652892855.395815)  can0  014   [5]  00 00 00 10 27
 (1652892855.398001)  can0  1E5   [8]  1C 00 C1 30 00 00 01 49
 (1652892855.404034)  can0  012   [8]  E8 03 10 00 00 00 00 00
 (1652892855.404186)  can0  010   [4]  32 86 08 01
 (1652892855.405838)  can0  014   [5]  02 10 00 13 27
 (1652892855.407816)  can0  1E5   [8]  1C 00 C2 50 00 00 01 6A
 (1652892855.414031)  can0  012   [8]  E8 03 10 00 00 00 00 00
 (1652892855.415841)  can0  014   [5]  03 20 00 0D 27
 (1652892855.418006)  can0  1E5   [8]  1C 00 C1 70 00 00 01 89
 (1652892855.424001)  can0  012   [8]  E8 03 10 00 00 00 00 00
 (1652892855.425852)  can0  014   [5]  01 10 00 10 27
 (1652892855.427895)  can0  1E5   [8]  1C 00 C1 10 00 00 01 29
 (1652892855.434192)  can0  012   [8]  E8 03 10 00 00 00 00 00
 (1652892855.435994)  can0  014   [5]  02 20 00 10 27
 (1652892855.437844)  can0  1E5   [8]  1C 00 C1 30 00 00 01 49
 (1652892855.444033)  can0  012   [8]  E8 03 10 00 00 00 00 00
 (1652892855.445807)  can0  014   [5]  01 10 00 10 27
 (1652892855.447846)  can0  1E5   [8]  1C 00 C1 50 00 00 01 69
 (1652892855.454733)  can0  012   [8]  E8 03 10 00 00 00 00 00
 (1652892855.455855)  can0  014   [5]  01 10 00 10 27
 (1652892855.457837)  can0  1E5   [8]  1C 00 C1 70 00 00 01 89
 (1652892855.463996)  can0  012   [8]  E8 03 10 00 00 00 00 00
 (1652892855.465814)  can0  014   [5]  00 00 00 10 27
 (1652892855.468016)  can0  1E5   [8]  1C 00 C1 10 00 00 01 29
 (1652892855.473996)  can0  012   [8]  E8 03 10 00 00 00 00 00
 (1652892855.475821)  can0  014   [5]  00 00 00 10 27
 (1652892855.477850)  can0  1E5   [8]  1C 00 C1 30 00 00 01 49
 (1652892855.484171)  can0  012   [8]  E8 03 10 00 00 00 00 00
 (1652892855.485986)  can0  014   [5]  FF 0F 00 10 27
 (1652892855.487855)  can0  1E5   [8]  1C 00 C1 50 00 00 01 69
 (1652892855.494029)  can0  012   [8]  E8 03 10 00 00 00 00 00
 (1652892855.495812)  can0  014   [5]  00 F0 FF 10 27
 (1652892855.498026)  can0  1E5   [8]  1C 00 C1 70 00 00 01 89
 (1652892855.504022)  can0  012   [8]  E8 03 10 00 00 00 00 00
 (1652892855.504145)  can0  010   [4]  32 86 08 01
 (1652892855.505833)  can0  014   [5]  00 00 00 13 27
 (1652892855.507866)  can0  1E5   [8]  1C 00 C1 10 00 00 01 29
 (1652892855.514013)  can0  012   [8]  E8 03 10 00 00 00 00 00
 (1652892855.515821)  can0  014   [5]  FF 0F 00 0D 27
 (1652892855.517842)  can0  1E5   [8]  1C 00 C1 30 00 00 01 49
 (1652892855.524015)  can0  012   [8]  E8 03 10 00 00 00 00 00
 (1652892855.525875)  can0  014   [5]  01 00 00 10 27
 (1652892855.527817)  can0  1E5   [8]  1C 00 C1 50 00 00 01 69
 (1652892855.534026)  can0  012   [8]  E8 03 10 00 00 00 00 00
 (1652892855.536004)  can0  014   [5]  00 00 00 10 27
 (1652892855.537858)  can0  1E5   [8]  1C 00 C1 70 00 00 01 89
 (1652892855.544024)  can0  012   [8]  E8 03 10 00 00 00 00 00
 (1652892855.545844)  can0  014   [5]  00 10 00 10 27
 (1652892855.547864)  can0  1E5   [8]  1C 00 C1 10 00 00 01 29
 (1652892855.554032)  can0  012   [8]  E8 03 10 00 00 00 00 00
 (1652892855.555848)  can0  014   [5]  01 10 00 10 27
 (1652892855.557939)  can0  1E5   [8]  1C 00 BF 3F FF 00 02 55
 (1652892855.564033)  can0  012   [8]  E8 03 10 00 00 00 00 00
 (1652892855.566046)  can0  014   [5]  01 10 00 10 27
 (1652892855.567862)  can0  1E5   [8]  1C 00 BF 5F FF 00 02 75
 (1652892855.574033)  can0  012   [8]  E8 03 10 00 00 00 00 00
 (1652892855.575870)  can0  014   [5]  01 10 00 10 27
 (1652892855.577863)  can0  1E5   [8]  1C 00 BF 7F FF 00 02 95
 (1652892855.584093)  can0  012   [8]  E8 03 10 00 00 00 00 00
 (1652892855.585851)  can0  014   [5]  01 10 00 10 27
 (1652892855.587896)  can0  1E5   [8]  1C 00 BF 1F FF 00 02 35
 (1652892855.594019)  can0  012   [8]  E8 03 10 00 00 00 00 00
 (1652892855.595817)  can0  014   [5]  01 10 00 10 27
 (1652892855.598010)  can0  1E5   [8]  1C 00 BD 3F FE 00 02 52
 (1652892855.604033)  can0  012   [8]  E8 03 10 00 00 00 00 00
 (1652892855.604146)  can0  010   [4]  32 86 08 01
 (1652892855.606015)  can0  014   [5]  02 10 00 13 27
 (1652892855.607848)  can0  1E5   [8]  1C 00 BD 5F FE 00 02 72
 (1652892855.614039)  can0  012   [8]  E8 03 10 00 00 00 00 00
 (1652892855.616158)  can0  014   [5]  01 10 00 0D 27
 (1652892855.618125)  can0  1E5   [8]  1C 00 BD 7F FE 00 02 92
 (1652892855.624033)  can0  012   [8]  E8 03 10 00 00 00 00 00
 (1652892855.625847)  can0  014   [5]  01 10 00 10 27
 (1652892855.627834)  can0  1E5   [8]  1C 00 BD 1F FE 00 02 32
 (1652892855.634034)  can0  012   [8]  E8 03 10 00 00 00 00 00
 (1652892855.636196)  can0  014   [5]  00 10 00 10 27
 (1652892855.637837)  can0  1E5   [8]  1C 00 BD 3F FE 00 02 52
 (1652892855.644005)  can0  012   [8]  E8 03 10 00 00 00 00 00
 (1652892855.645805)  can0  014   [5]  01 00 00 10 27
 (1652892855.647855)  can0  1E5   [8]  1C 00 BC 5F FD 00 02 70
 (1652892855.654035)  can0  012   [8]  E8 03 10 00 00 00 00 00
 (1652892855.656027)  can0  014   [5]  01 10 00 10 27
 (1652892855.657821)  can0  1E5   [8]  1C 00 BC 7F FE 00 02 91
 (1652892855.664222)  can0  012   [8]  E8 03 10 00 00 00 00 00
 (1652892855.665854)  can0  014   [5]  00 10 00 10 27
 (1652892855.668003)  can0  1E5   [8]  1C 00 BC 1F FE 00 02 31
 (1652892855.673997)  can0  012   [8]  E8 03 10 00 00 00 00 00
 (1652892855.675829)  can0  014   [5]  01 00 00 10 27
 (1652892855.677846)  can0  1E5   [8]  1C 00 BC 3F FE 00 02 51
 (1652892855.684179)  can0  012   [8]  E8 03 10 00 00 00 00 00
 (1652892855.686000)  can0  014   [5]  00 10 00 10 27
 (1652892855.688093)  can0  1E5   [8]  1C 00 BA 5F FD 00 02 6E
 (1652892855.693988)  can0  012   [8]  E8 03 10 00 00 00 00 00
 (1652892855.695817)  can0  014   [5]  01 10 00 10 27
 (1652892855.697859)  can0  1E5   [8]  1C 00 BA 7F FE 00 02 8F
 (1652892855.704333)  can0  012   [8]  E8 03 10 00 00 00 00 00
 (1652892855.704342)  can0  010   [4]  32 86 08 01
 (1652892855.705851)  can0  014   [5]  01 10 00 13 27
 (1652892855.707846)  can0  1E5   [8]  1C 00 BA 1F FE 00 02 2F
 (1652892855.714015)  can0  012   [8]  E8 03 10 00 00 00 00 00
 (1652892855.716102)  can0  014   [5]  01 10 00 0D 27
 (1652892855.717860)  can0  1E5   [8]  1C 00 BA 3F FE 00 02 4F
 (1652892855.724033)  can0  012   [8]  E8 03 10 00 00 00 00 00
 (1652892855.725867)  can0  014   [5]  01 10 00 10 27
 (1652892855.727845)  can0  1E5   [8]  1C 00 BA 5F FE 00 02 6F
 (1652892855.734034)  can0  012   [8]  E8 03 10 00 00 00 00 00
 (1652892855.735872)  can0  014   [5]  02 10 00 10 27
 (1652892855.738162)  can0  1E5   [8]  1C 00 B9 7F FD 00 02 8D
 (1652892855.744006)  can0  012   [8]  E8 03 10 00 00 00 00 00
 (1652892855.745843)  can0  014   [5]  01 20 00 10 27
 (1652892855.747859)  can0  1E5   [8]  1C 00 B9 1F FE 00 02 2E
 (1652892855.754212)  can0  012   [8]  E8 03 10 00 00 00 00 00
 (1652892855.756015)  can0  014   [5]  02 10 00 10 27
 (1652892855.757852)  can0  1E5   [8]  1C 00 B9 3F FE 00 02 4E
 (1652892855.764171)  can0  012   [8]  E8 03 10 00 00 00 00 00
 (1652892855.766192)  can0  014   [5]  01 20 00 10 27
 (1652892855.767859)  can0  1E5   [8]  1C 00 B9 5F FE 00 02 6E
 (1652892855.774030)  can0  012   [8]  E8 03 10 00 00 00 00 00
 (1652892855.775877)  can0  014   [5]  02 10 00 10 27
 (1652892855.777843)  can0  1E5   [8]  1C 00 B9 7F FE 00 02 8E
 (1652892855.784197)  can0  012   [8]  E8 03 10 00 00 00 00 00
 (1652892855.785996)  can0  014   [5]  01 10 00 10 27
 (1652892855.787853)  can0  1E5   [8]  1C 00 B9 1F FF 00 02 2F
 (1652892855.794123)  can0  012   [8]  E8 03 10 00 00 00 00 00
 (1652892855.795834)  can0  014   [5]  02 20 00 10 27
 (1652892855.797999)  can0  1E5   [8]  1C 00 B9 3F FF 00 02 4F
 (1652892855.804184)  can0  012   [8]  E8 03 10 00 00 00 00 00
 (1652892855.804192)  can0  010   [4]  32 86 08 01
 (1652892855.806116)  can0  014   [5]  01 10 00 13 27
 (1652892855.807826)  can0  1E5   [8]  1C 00 B7 5F FE 00 02 6C
 (1652892855.814198)  can0  012   [8]  E8 03 10 00 00 00 00 00
 (1652892855.816009)  can0  014   [5]  01 10 00 0D 27
 (1652892855.817993)  can0  1E5   [8]  1C 00 B7 7F FE 00 02 8C
 (1652892855.824016)  can0  012   [8]  E8 03 10 00 00 00 00 00
 (1652892855.825884)  can0  014   [5]  01 10 00 10 27
 (1652892855.827848)  can0  1E5   [8]  1C 00 B7 1F FE 00 02 2C
 (1652892855.834035)  can0  012   [8]  E8 03 10 00 00 00 00 00
 (1652892855.835865)  can0  014   [5]  02 10 00 10 27
 (1652892855.837836)  can0  1E5   [8]  1C 00 B7 3F FF 00 02 4D
 (1652892855.844022)  can0  012   [8]  E8 03 10 00 00 00 00 00
 (1652892855.845838)  can0  014   [5]  01 10 00 10 27
 (1652892855.847995)  can0  1E5   [8]  1C 00 B7 5F FF 00 02 6D
 (1652892855.854099)  can0  012   [8]  E8 03 10 00 00 00 00 00
 (1652892855.855850)  can0  014   [5]  02 20 00 10 27
 (1652892855.857843)  can0  1E5   [8]  1C 00 B7 7F FF 00 02 8D
 (1652892855.864024)  can0  012   [8]  E8 03 10 00 00 00 00 00
 (1652892855.865986)  can0  014   [5]  01 10 00 10 27
 (1652892855.868031)  can0  1E5   [8]  1C 00 B7 1F FF 00 02 2D
 (1652892855.874035)  can0  012   [8]  E8 03 10 00 00 00 00 00
 (1652892855.875887)  can0  014   [5]  02 20 00 10 27
 (1652892855.877850)  can0  1E5   [8]  1C 00 B7 3F FF 00 02 4D
 (1652892855.884192)  can0  012   [8]  E8 03 10 00 00 00 00 00
 (1652892855.886003)  can0  014   [5]  02 10 00 10 27
 (1652892855.887837)  can0  1E5   [8]  1C 00 B7 5F FF 00 02 6D
 (1652892855.894032)  can0  012   [8]  E8 03 10 00 00 00 00 00
 (1652892855.895835)  can0  014   [5]  02 20 00 10 27
 (1652892855.897902)  can0  1E5   [8]  1C 00 B5 7F FE 00 02 8A
 (1652892855.904215)  can0  012   [8]  E8 03 10 00 00 00 00 00
 (1652892855.904224)  can0  010   [4]  32 86 08 01
 (1652892855.905859)  can0  014   [5]  02 20 00 13 27
 (1652892855.907848)  can0  1E5   [8]  1C 00 B5 1F FF 00 02 2B
 (1652892855.914027)  can0  012   [8]  E8 03 10 00 00 00 00 00
 (1652892855.915978)  can0  014   [5]  01 20 00 0D 27
 (1652892855.917990)  can0  1E5   [8]  1C 00 B5 3F FF 00 02 4B
 (1652892855.924037)  can0  012   [8]  E8 03 10 00 00 00 00 00
 (1652892855.925871)  can0  014   [5]  02 20 00 10 27
 (1652892855.927848)  can0  1E5   [8]  1C 00 B5 5F FF 00 02 6B
 (1652892855.934182)  can0  012   [8]  E8 03 10 00 00 00 00 00
 (1652892855.935856)  can0  014   [5]  02 20 00 10 27
 (1652892855.938014)  can0  1E5   [8]  1C 00 B5 7F FF 00 02 8B
 (1652892855.944001)  can0  012   [8]  E8 03 10 00 00 00 00 00
 (1652892855.945856)  can0  014   [5]  02 10 00 10 27
 (1652892855.947999)  can0  1E5   [8]  1C 00 B5 1F FF 00 02 2B
 (1652892855.954043)  can0  012   [8]  E8 03 10 00 00 00 00 00
 (1652892855.955873)  can0  014   [5]  02 20 00 10 27
 (1652892855.957816)  can0  1E5   [8]  1C 00 B4 3F FE 00 02 49
 (1652892855.964027)  can0  012   [8]  E8 03 10 00 00 00 00 00
 (1652892855.965851)  can0  014   [5]  01 20 00 10 27
 (1652892855.968007)  can0  1E5   [8]  1C 00 B4 5F FE 00 02 69
 (1652892855.974001)  can0  012   [8]  E8 03 10 00 00 00 00 00
 (1652892855.975856)  can0  014   [5]  02 10 00 10 27
 (1652892855.977841)  can0  1E5   [8]  1C 00 B4 7F FE 00 02 89
 (1652892855.984183)  can0  012   [8]  E8 03 10 00 00 00 00 00
 (1652892855.985820)  can0  014   [5]  01 20 00 10 27
 (1652892855.987835)  can0  1E5   [8]  1C 00 B2 1F FD 00 02 26
 (1652892855.994000)  can0  012   [8]  E8 03 10 00 00 00 00 00
 (1652892855.995816)  can0  014   [5]  02 20 00 10 27
 (1652892855.997844)  can0  1E5   [8]  1C 00 B2 3F FE 00 02 47
 (1652892856.004054)  can0  012   [8]  E8 03 10 00 00 00 00 00
 (1652892856.004181)  can0  010   [4]  32 86 08 01
 (1652892856.004312)  can0  0E2   [2]  E2 03
 (1652892856.004415)  can0  0E3   [2]  E2 03
 (1652892856.005812)  can0  014   [5]  02 10 00 19 27
 (1652892856.005942)  can0  0E4   [2]  E2 03
 (1652892856.007820)  can0  1E5   [8]  1C 00 B2 5F FE 00 02 67
 (1652892856.014031)  can0  012   [8]  E8 03 10 00 00 00 00 00
 (1652892856.015801)  can0  014   [5]  02 20 00 07 27
 (1652892856.017976)  can0  1E5   [8]  1C 00 B1 7F FD 00 02 85
 (1652892856.023992)  can0  012   [8]  E8 03 10 00 00 00 00 00
 (1652892856.025808)  can0  014   [5]  02 20 00 10 27
 (1652892856.027812)  can0  1E5   [8]  1C 00 B1 1F FD 00 02 25
 (1652892856.034023)  can0  012   [8]  E8 03 10 00 00 00 00 00
 (1652892856.035996)  can0  014   [5]  02 20 00 10 27
 (1652892856.037851)  can0  1E5   [8]  1C 00 B1 3F FD 00 02 45
 (1652892856.043989)  can0  012   [8]  E8 03 10 00 00 00 00 00
 (1652892856.045817)  can0  014   [5]  02 20 00 10 27
 (1652892856.047994)  can0  1E5   [8]  1C 00 B1 5F FD 00 02 65
 (1652892856.054017)  can0  012   [8]  E8 03 10 00 00 00 00 00
 (1652892856.056020)  can0  014   [5]  02 20 00 10 27
 (1652892856.057817)  can0  1E5   [8]  1C 00 B1 7F FE 00 02 86
 (1652892856.064019)  can0  012   [8]  E8 03 10 00 00 00 00 00
 (1652892856.065988)  can0  014   [5]  02 20 00 10 27
 (1652892856.067982)  can0  1E5   [8]  1C 00 AF 1F FD 00 02 23
 (1652892856.074034)  can0  012   [8]  E8 03 10 00 00 00 00 00
 (1652892856.075846)  can0  014   [5]  03 20 00 10 27
 (1652892856.077850)  can0  1E5   [8]  1C 00 AF 3F FD 00 02 43
 (1652892856.084047)  can0  012   [8]  E8 03 10 00 00 00 00 00
 (1652892856.086018)  can0  014   [5]  02 30 00 10 27
 (1652892856.087829)  can0  1E5   [8]  1C 00 AF 5F FE 00 02 64
 (1652892856.094079)  can0  012   [8]  E8 03 10 00 00 00 00 00
 (1652892856.095804)  can0  014   [5]  02 20 00 10 27
 (1652892856.097835)  can0  1E5   [8]  1C 00 AF 7F FE 00 02 84
 (1652892856.104030)  can0  012   [8]  E8 03 10 00 00 00 00 00
 (1652892856.104189)  can0  010   [4]  32 86 08 01
 (1652892856.105868)  can0  014   [5]  02 20 00 13 27
 (1652892856.107811)  can0  1E5   [8]  1C 00 AD 1F FD 00 02 21
 (1652892856.114064)  can0  012   [8]  E8 03 10 00 00 00 00 00
 (1652892856.116103)  can0  014   [5]  02 20 00 0D 27
 (1652892856.117849)  can0  1E5   [8]  1C 00 AD 3F FE 00 02 42
 (1652892856.124021)  can0  012   [8]  E8 03 10 00 00 00 00 00
 (1652892856.125871)  can0  014   [5]  03 30 00 10 27
 (1652892856.127830)  can0  1E5   [8]  1C 00 AD 5F FE 00 02 62
 (1652892856.134031)  can0  012   [8]  E8 03 10 00 00 00 00 00
 (1652892856.135827)  can0  014   [5]  02 20 00 10 27
 (1652892856.137848)  can0  1E5   [8]  1C 00 AD 7F FE 00 02 82
 (1652892856.144008)  can0  012   [8]  E8 03 10 00 00 00 00 00
 (1652892856.145818)  can0  014   [5]  02 20 00 10 27
 (1652892856.147989)  can0  1E5   [8]  1C 00 AD 1F FE 00 02 22
 (1652892856.154404)  can0  012   [8]  E8 03 10 00 00 00 00 00
 (1652892856.156112)  can0  014   [5]  02 30 00 10 27
 (1652892856.157796)  can0  1E5   [8]  1C 00 AC 3F FD 00 02 40
 (1652892856.164025)  can0  012   [8]  E8 03 10 00 00 00 00 00
 (1652892856.165852)  can0  014   [5]  03 20 00 10 27
 (1652892856.168000)  can0  1E5   [8]  1C 00 AC 5F FE 00 02 61
 (1652892856.174049)  can0  012   [8]  E8 03 10 00 00 00 00 00
 (1652892856.175844)  can0  014   [5]  02 30 00 10 27
 (1652892856.177830)  can0  1E5   [8]  1C 00 AC 7F FE 00 02 81
 (1652892856.184023)  can0  012   [8]  E8 03 10 00 00 00 00 00
 (1652892856.186057)  can0  014   [5]  02 20 00 10 27
 (1652892856.188003)  can0  1E5   [8]  1C 00 AA 1F FD 00 02 1E
 (1652892856.194023)  can0  012   [8]  E8 03 10 00 00 00 00 00
 (1652892856.195845)  can0  014   [5]  03 30 00 10 27
 (1652892856.197855)  can0  1E5   [8]  1C 00 AA 3F FD 00 02 3E
 (1652892856.204331)  can0  012   [8]  E8 03 10 00 00 00 00 00
 (1652892856.204340)  can0  010   [4]  32 86 08 01
 (1652892856.205849)  can0  014   [5]  02 20 00 13 27
 (1652892856.207848)  can0  1E5   [8]  1C 00 AA 5F FE 00 02 5F
 (1652892856.214034)  can0  012   [8]  E8 03 10 00 00 00 00 00
 (1652892856.215859)  can0  014   [5]  02 30 00 0D 27
 (1652892856.217851)  can0  1E5   [8]  1C 00 A9 7F FD 00 02 7D
 (1652892856.224024)  can0  012   [8]  E8 03 10 00 00 00 00 00
 (1652892856.225833)  can0  014   [5]  03 20 00 10 27
 (1652892856.227837)  can0  1E5   [8]  1C 00 A7 1F FC 00 02 1A
 (1652892856.234301)  can0  012   [8]  E8 03 10 00 00 00 00 00
 (1652892856.236009)  can0  014   [5]  03 30 00 10 27
 (1652892856.238029)  can0  1E5   [8]  1C 00 A7 3F FC 00 02 3A
 (1652892856.244019)  can0  012   [8]  E8 03 10 00 00 00 00 00
 (1652892856.245837)  can0  014   [5]  03 30 00 10 27
 (1652892856.247846)  can0  1E5   [8]  1C 00 A5 5F FB 00 02 57
 (1652892856.254024)  can0  012   [8]  E8 03 10 00 00 00 00 00
 (1652892856.256096)  can0  014   [5]  02 30 00 10 27
 (1652892856.257815)  can0  1E5   [8]  1C 00 A5 7F FC 00 02 78
 (1652892856.264027)  can0  012   [8]  E8 03 10 00 00 00 00 00
 (1652892856.265850)  can0  014   [5]  03 30 00 10 27
 (1652892856.268182)  can0  1E5   [8]  1C 00 A4 1F FB 00 02 16
 (1652892856.274027)  can0  012   [8]  E8 03 10 00 00 00 00 00
 (1652892856.275880)  can0  014   [5]  04 30 00 10 27
 (1652892856.277840)  can0  1E5   [8]  1C 00 A2 3F FA 00 02 33
 (1652892856.284190)  can0  012   [8]  E8 03 10 00 00 00 00 00
 (1652892856.286009)  can0  014   [5]  03 20 00 10 27
 (1652892856.287838)  can0  1E5   [8]  1C 00 A1 5F FA 00 02 52
 (1652892856.294037)  can0  012   [8]  E8 03 10 00 00 00 00 00
 (1652892856.295834)  can0  014   [5]  03 30 00 10 27
 (1652892856.297987)  can0  1E5   [8]  1C 00 A1 7F FA 00 02 72
 (1652892856.304460)  can0  012   [8]  E8 03 10 00 00 00 00 00
 (1652892856.304469)  can0  010   [4]  32 86 08 01
 (1652892856.305826)  can0  014   [5]  03 40 00 13 27
 (1652892856.307835)  can0  1E5   [8]  1C 00 9D 1F F8 00 02 0C
 (1652892856.314079)  can0  012   [8]  E8 03 10 00 00 00 00 00
 (1652892856.315892)  can0  014   [5]  04 30 00 0D 27
 (1652892856.317991)  can0  1E5   [8]  1C 00 9C 3F F8 00 02 2B
 (1652892856.324032)  can0  012   [8]  E8 03 10 00 00 00 00 00
 (1652892856.325879)  can0  014   [5]  03 30 00 10 27
 (1652892856.327838)  can0  1E5   [8]  1C 00 9C 5F F9 00 02 4C
 (1652892856.334179)  can0  012   [8]  E8 03 10 00 00 00 00 00
 (1652892856.336005)  can0  014   [5]  03 30 00 10 27
 (1652892856.337821)  can0  1E5   [8]  1C 00 99 7F F7 00 02 67
 (1652892856.344014)  can0  012   [8]  E8 03 10 00 00 00 00 00
 (1652892856.345835)  can0  014   [5]  03 30 00 10 27
 (1652892856.347841)  can0  1E5   [8]  1C 00 99 1F F8 00 02 08
 (1652892856.354025)  can0  012   [8]  E8 03 10 00 00 00 00 00
 (1652892856.356019)  can0  014   [5]  03 30 00 10 27
 (1652892856.357837)  can0  1E5   [8]  1C 00 97 3F F7 00 02 25
 (1652892856.364193)  can0  012   [8]  E8 03 10 00 00 00 00 00
 (1652892856.366001)  can0  014   [5]  03 30 00 10 27
 (1652892856.367977)  can0  1E5   [8]  1C 00 95 5F F7 00 02 43
 (1652892856.374053)  can0  012   [8]  E8 03 10 00 00 00 00 00
 (1652892856.375879)  can0  014   [5]  03 30 00 10 27
 (1652892856.377828)  can0  1E5   [8]  1C 00 95 7F F8 00 02 64
 (1652892856.384187)  can0  012   [8]  E8 03 10 00 00 00 00 00
 (1652892856.385998)  can0  014   [5]  04 40 00 10 27
 (1652892856.387832)  can0  1E5   [8]  1C 00 94 1F F8 00 02 03
 (1652892856.394008)  can0  012   [8]  E8 03 10 00 00 00 00 00
 (1652892856.395801)  can0  014   [5]  03 30 00 10 27
 (1652892856.397980)  can0  1E5   [8]  1C 00 92 3F F7 00 02 20
 (1652892856.404026)  can0  012   [8]  E8 03 10 00 00 00 00 00
 (1652892856.404177)  can0  010   [4]  32 86 08 01
 (1652892856.405814)  can0  014   [5]  03 40 00 17 27
 (1652892856.407794)  can0  1E5   [8]  1C 00 92 5F F9 00 02 42
 (1652892856.414035)  can0  012   [8]  E8 03 10 00 00 00 00 00
 (1652892856.415843)  can0  014   [5]  04 30 00 09 27
 (1652892856.417983)  can0  1E5   [8]  1C 00 92 7F FA 00 02 63
 (1652892856.424032)  can0  012   [8]  E8 03 10 00 00 00 00 00
 (1652892856.425832)  can0  014   [5]  03 40 00 10 27
 (1652892856.427842)  can0  1E5   [8]  1C 00 91 1F F9 00 02 01
 (1652892856.434176)  can0  012   [8]  E8 03 10 00 00 00 00 00
 (1652892856.436004)  can0  014   [5]  04 30 00 10 27
 (1652892856.437822)  can0  1E5   [8]  1C 00 91 3F FB 00 02 23
 (1652892856.443990)  can0  012   [8]  E8 03 10 00 00 00 00 00
 (1652892856.445813)  can0  014   [5]  03 40 00 10 27
 (1652892856.447830)  can0  1E5   [8]  1C 00 91 5F FB 00 02 43
 (1652892856.454016)  can0  012   [8]  E8 03 10 00 00 00 00 00
 (1652892856.455852)  can0  014   [5]  04 30 00 10 27
 (1652892856.457844)  can0  1E5   [8]  1C 00 8F 7F FB 00 02 61
 (1652892856.464196)  can0  012   [8]  E8 03 10 00 00 00 00 00
 (1652892856.465988)  can0  014   [5]  04 40 00 10 27
 (1652892856.467982)  can0  1E5   [8]  1C 00 8F 1F FC 00 02 02
 (1652892856.473999)  can0  012   [8]  E8 03 10 00 00 00 00 00
 (1652892856.475817)  can0  014   [5]  04 40 00 10 27
 (1652892856.477789)  can0  1E5   [8]  1C 00 8F 3F FC 00 02 22
 (1652892856.484200)  can0  012   [8]  E8 03 10 00 00 00 00 00
 (1652892856.485991)  can0  014   [5]  04 30 00 10 27
 (1652892856.487846)  can0  1E5   [8]  1C 00 8F 5F FD 00 02 43
 (1652892856.494026)  can0  012   [8]  E8 03 10 00 00 00 00 00
 (1652892856.495811)  can0  014   [5]  03 40 00 10 27
 (1652892856.497835)  can0  1E5   [8]  1C 00 8F 7F FE 00 02 64
 (1652892856.504027)  can0  012   [8]  E8 03 10 00 00 00 00 00
 (1652892856.504149)  can0  010   [4]  32 86 08 01
 (1652892856.505857)  can0  014   [5]  04 40 00 13 27
 (1652892856.507800)  can0  1E5   [8]  1C 00 8F 1F FE 00 02 04
 (1652892856.514034)  can0  012   [8]  E8 03 10 00 00 00 00 00
 (1652892856.515830)  can0  014   [5]  04 30 00 0D 27
 (1652892856.517983)  can0  1E5   [8]  1C 00 91 30 00 00 01 19
 (1652892856.523994)  can0  012   [8]  E8 03 10 00 00 00 00 00
 (1652892856.525812)  can0  014   [5]  04 40 00 10 27
 (1652892856.527779)  can0  1E5   [8]  1C 00 91 50 00 00 01 39
 (1652892856.534038)  can0  012   [8]  E8 03 10 00 00 00 00 00
 (1652892856.535872)  can0  014   [5]  04 40 00 10 27
 (1652892856.538458)  can0  1E5   [8]  1C 00 91 70 00 00 01 59
 (1652892856.543994)  can0  012   [8]  E8 03 10 00 00 00 00 00
 (1652892856.545875)  can0  014   [5]  04 40 00 10 27
 (1652892856.547988)  can0  1E5   [8]  1C 00 91 10 00 00 00 F9
 (1652892856.554021)  can0  012   [8]  E8 03 10 00 00 00 00 00
 (1652892856.556012)  can0  014   [5]  04 40 00 10 27
 (1652892856.557772)  can0  1E5   [8]  1C 00 91 30 00 00 01 19
 (1652892856.564040)  can0  012   [8]  E8 03 10 00 00 00 00 00
 (1652892856.565989)  can0  014   [5]  04 40 00 10 27
 (1652892856.567820)  can0  1E5   [8]  1C 00 92 50 01 00 01 3B
 (1652892856.573986)  can0  012   [8]  E8 03 10 00 00 00 00 00
 (1652892856.575846)  can0  014   [5]  04 40 00 10 27
 (1652892856.577792)  can0  1E5   [8]  1C 00 92 70 01 00 01 5B
 (1652892856.584028)  can0  012   [8]  E8 03 10 00 00 00 00 00
 (1652892856.586020)  can0  014   [5]  05 50 00 0F 27
 (1652892856.587829)  can0  1E5   [8]  1C 00 92 10 01 00 00 FB
 (1652892856.593996)  can0  012   [8]  E8 03 10 00 00 00 00 00
 (1652892856.595808)  can0  014   [5]  04 40 00 11 27
 (1652892856.597999)  can0  1E5   [8]  1C 00 91 30 00 00 01 19
 (1652892856.604074)  can0  012   [8]  E8 03 10 00 00 00 00 00
 (1652892856.604176)  can0  010   [4]  32 86 08 01
 (1652892856.606007)  can0  014   [5]  04 40 00 13 27
 (1652892856.607799)  can0  1E5   [8]  1C 00 92 50 00 00 01 3A
 (1652892856.614025)  can0  012   [8]  E8 03 10 00 00 00 00 00
 (1652892856.615843)  can0  014   [5]  04 40 00 0D 27
 (1652892856.618059)  can0  1E5   [8]  1C 00 92 70 00 00 01 5A
 (1652892856.623999)  can0  012   [8]  E8 03 10 00 00 00 00 00
 (1652892856.625835)  can0  014   [5]  04 50 00 10 27
 (1652892856.627835)  can0  1E5   [8]  1C 00 91 10 00 00 00 F9
 (1652892856.634026)  can0  012   [8]  E8 03 10 00 00 00 00 00
 (1652892856.635854)  can0  014   [5]  05 40 00 10 27
 (1652892856.637998)  can0  1E5   [8]  1C 00 92 30 00 00 01 1A
 (1652892856.644033)  can0  012   [8]  E8 03 10 00 00 00 00 00
 (1652892856.645853)  can0  014   [5]  04 50 00 10 27
 (1652892856.647983)  can0  1E5   [8]  1C 00 92 50 00 00 01 3A
 (1652892856.654276)  can0  012   [8]  E8 03 10 00 00 00 00 00
 (1652892856.655855)  can0  014   [5]  05 50 00 10 27
 (1652892856.657813)  can0  1E5   [8]  1C 00 92 70 00 00 01 5A
 (1652892856.664015)  can0  012   [8]  E8 03 10 00 00 00 00 00
 (1652892856.665836)  can0  014   [5]  04 40 00 10 27
 (1652892856.668151)  can0  1E5   [8]  1C 00 92 10 00 00 00 FA
 (1652892856.674002)  can0  012   [8]  E8 03 10 00 00 00 00 00
 (1652892856.675830)  can0  014   [5]  05 50 00 10 27
 (1652892856.677820)  can0  1E5   [8]  1C 00 92 30 00 00 01 1A
 (1652892856.684204)  can0  012   [8]  E8 03 10 00 00 00 00 00
 (1652892856.686191)  can0  014   [5]  05 50 00 10 27
 (1652892856.687816)  can0  1E5   [8]  1C 00 92 50 00 00 01 3A
 (1652892856.693994)  can0  012   [8]  E8 03 10 00 00 00 00 00
 (1652892856.695855)  can0  014   [5]  05 40 00 10 27
 (1652892856.697823)  can0  1E5   [8]  1C 00 92 70 00 00 01 5A
 (1652892856.704222)  can0  012   [8]  E8 03 10 00 00 00 00 00
 (1652892856.704231)  can0  010   [4]  32 86 08 01
 (1652892856.705854)  can0  014   [5]  05 60 00 13 27
 (1652892856.707819)  can0  1E5   [8]  1C 00 92 10 00 00 00 FA
 (1652892856.714032)  can0  012   [8]  E8 03 10 00 00 00 00 00
 (1652892856.715826)  can0  014   [5]  05 40 00 0D 27
 (1652892856.718015)  can0  1E5   [8]  1C 00 92 30 00 00 01 1A
 (1652892856.724000)  can0  012   [8]  E8 03 10 00 00 00 00 00
 (1652892856.725860)  can0  014   [5]  05 50 00 13 27
 (1652892856.727796)  can0  1E5   [8]  1C 00 92 50 00 00 01 3A
 (1652892856.734017)  can0  012   [8]  E8 03 10 00 00 00 00 00
 (1652892856.735857)  can0  014   [5]  04 50 00 0D 27
 (1652892856.737825)  can0  1E5   [8]  1C 00 92 70 00 00 01 5A
 (1652892856.743983)  can0  012   [8]  E8 03 10 00 00 00 00 00
 (1652892856.745837)  can0  014   [5]  05 50 00 10 27
 (1652892856.748094)  can0  1E5   [8]  1C 00 92 10 00 00 00 FA
 (1652892856.754037)  can0  012   [8]  E8 03 10 00 00 00 00 00
 (1652892856.756034)  can0  014   [5]  05 50 00 10 27
 (1652892856.757816)  can0  1E5   [8]  1C 00 91 30 00 00 01 19
 (1652892856.764030)  can0  012   [8]  E8 03 10 00 00 00 00 00
 (1652892856.765853)  can0  014   [5]  05 50 00 10 27
 (1652892856.768144)  can0  1E5   [8]  1C 00 92 50 00 00 01 3A
 (1652892856.774028)  can0  012   [8]  E8 03 10 00 00 00 00 00
 (1652892856.775881)  can0  014   [5]  05 50 00 10 27
 (1652892856.777816)  can0  1E5   [8]  1C 00 92 70 00 00 01 5A
 (1652892856.784031)  can0  012   [8]  E8 03 10 00 00 00 00 00
 (1652892856.785845)  can0  014   [5]  05 50 00 10 27
 (1652892856.787830)  can0  1E5   [8]  1C 00 92 10 00 00 00 FA
 (1652892856.794000)  can0  012   [8]  E8 03 10 00 00 00 00 00
 (1652892856.795802)  can0  014   [5]  06 50 00 10 27
 (1652892856.797819)  can0  1E5   [8]  1C 00 92 30 00 00 01 1A
 (1652892856.804200)  can0  012   [8]  E8 03 10 00 00 00 00 00
 (1652892856.804209)  can0  010   [4]  32 86 08 01
 (1652892856.805860)  can0  014   [5]  05 50 00 13 27
 (1652892856.807774)  can0  1E5   [8]  1C 00 92 50 00 00 01 3A
 (1652892856.814022)  can0  012   [8]  E8 03 10 00 00 00 00 00
 (1652892856.815997)  can0  014   [5]  05 50 00 0D 27
 (1652892856.817964)  can0  1E5   [8]  1C 00 92 70 00 00 01 5A
 (1652892856.824030)  can0  012   [8]  E8 03 10 00 00 00 00 00
 (1652892856.825831)  can0  014   [5]  06 60 00 10 27
 (1652892856.827835)  can0  1E5   [8]  1C 00 92 10 00 00 00 FA
 (1652892856.834175)  can0  012   [8]  E8 03 10 00 00 00 00 00
 (1652892856.835994)  can0  014   [5]  05 60 00 10 27
 (1652892856.837822)  can0  1E5   [8]  1C 00 92 30 00 00 01 1A
 (1652892856.844006)  can0  012   [8]  E8 03 10 00 00 00 00 00
 (1652892856.845819)  can0  014   [5]  05 50 00 10 27
 (1652892856.847970)  can0  1E5   [8]  1C 00 92 50 00 00 01 3A
 (1652892856.854004)  can0  012   [8]  E8 03 10 00 00 00 00 00
 (1652892856.856011)  can0  014   [5]  06 60 00 10 27
 (1652892856.857885)  can0  1E5   [8]  1C 00 92 70 00 00 01 5A
 (1652892856.864020)  can0  012   [8]  E8 03 10 00 00 00 00 00
 (1652892856.865835)  can0  014   [5]  05 50 00 10 27
 (1652892856.867964)  can0  1E5   [8]  1C 00 92 10 00 00 00 FA
 (1652892856.874016)  can0  012   [8]  E8 03 10 00 00 00 00 00
 (1652892856.875876)  can0  014   [5]  06 60 00 10 27
 (1652892856.877826)  can0  1E5   [8]  1C 00 92 30 00 00 01 1A
 (1652892856.884044)  can0  012   [8]  E8 03 10 00 00 00 00 00
 (1652892856.885842)  can0  014   [5]  06 60 00 10 27
 (1652892856.887788)  can0  1E5   [8]  1C 00 92 50 00 00 01 3A
 (1652892856.894013)  can0  012   [8]  E8 03 10 00 00 00 00 00
 (1652892856.895848)  can0  014   [5]  06 60 00 10 27
 (1652892856.897964)  can0  1E5   [8]  1C 00 92 70 00 00 01 5A
 (1652892856.904119)  can0  012   [8]  E8 03 10 00 00 00 00 00
 (1652892856.904158)  can0  010   [4]  32 86 08 01
 (1652892856.905991)  can0  014   [5]  06 60 00 13 27
 (1652892856.907832)  can0  1E5   [8]  1C 00 92 10 00 00 00 FA
 (1652892856.914172)  can0  012   [8]  E8 03 10 00 00 00 00 00
 (1652892856.915989)  can0  014   [5]  06 60 00 0D 27
 (1652892856.917819)  can0  1E5   [8]  1C 00 92 30 00 00 01 1A
 (1652892856.924021)  can0  012   [8]  E8 03 10 00 00 00 00 00
 (1652892856.925864)  can0  014   [5]  06 50 00 10 27
 (1652892856.927810)  can0  1E5   [8]  1C 00 92 50 00 00 01 3A
 (1652892856.934180)  can0  012   [8]  E8 03 10 00 00 00 00 00
 (1652892856.935987)  can0  014   [5]  06 70 00 10 27
 (1652892856.938463)  can0  1E5   [8]  1C 00 92 70 00 00 01 5A
 (1652892856.944119)  can0  012   [8]  E8 03 10 00 00 00 00 00
 (1652892856.945803)  can0  014   [5]  06 50 00 10 27
 (1652892856.947951)  can0  1E5   [8]  1C 00 92 10 00 00 00 FA
 (1652892856.954172)  can0  012   [8]  E8 03 10 00 00 00 00 00
 (1652892856.956007)  can0  014   [5]  06 70 00 10 27
 (1652892856.957766)  can0  1E5   [8]  1C 00 92 30 00 00 01 1A
 (1652892856.964023)  can0  012   [8]  E8 03 10 00 00 00 00 00
 (1652892856.965871)  can0  014   [5]  06 60 00 10 27
 (1652892856.967811)  can0  1E5   [8]  1C 00 92 50 00 00 01 3A
 (1652892856.974009)  can0  012   [8]  E8 03 10 00 00 00 00 00
 (1652892856.975863)  can0  014   [5]  07 60 00 10 27
 (1652892856.977809)  can0  1E5   [8]  1C 00 92 70 00 00 01 5A
 (1652892856.984024)  can0  012   [8]  E8 03 10 00 00 00 00 00
 (1652892856.985828)  can0  014   [5]  06 70 00 10 27
 (1652892856.988557)  can0  1E5   [8]  1C 00 92 10 00 00 00 FA
 (1652892856.993999)  can0  012   [8]  E8 03 10 00 00 00 00 00
 (1652892856.995847)  can0  014   [5]  07 60 00 10 27
 (1652892856.997957)  can0  1E5   [8]  1C 00 92 30 00 00 01 1A
 (1652892857.004175)  can0  012   [8]  E8 03 10 00 00 00 00 00
 (1652892857.004183)  can0  010   [4]  32 86 08 01
 (1652892857.004284)  can0  0E2   [2]  0A 00
 (1652892857.004405)  can0  0E3   [2]  0A 00
 (1652892857.005822)  can0  014   [5]  07 70 00 19 27
 (1652892857.005936)  can0  0E4   [2]  0A 00
 (1652892857.007807)  can0  1E5   [8]  1C 00 92 50 00 00 01 3A
 (1652892857.014004)  can0  012   [8]  E8 03 10 00 00 00 00 00
 (1652892857.015828)  can0  014   [5]  07 60 00 07 27
 (1652892857.017803)  can0  1E5   [8]  1C 00 92 70 00 00 01 5A
 (1652892857.024024)  can0  012   [8]  E8 03 10 00 00 00 00 00
 (1652892857.025863)  can0  014   [5]  06 70 00 10 27
 (1652892857.027799)  can0  1E5   [8]  1C 00 91 10 00 00 00 F9
 (1652892857.034169)  can0  012   [8]  E8 03 10 00 00 00 00 00
 (1652892857.035999)  can0  014   [5]  07 60 00 10 27
 (1652892857.037807)  can0  1E5   [8]  1C 00 92 30 00 00 01 1A
 (1652892857.044019)  can0  012   [8]  E8 03 10 00 00 00 00 00
 (1652892857.045826)  can0  014   [5]  07 70 00 10 27
 (1652892857.047946)  can0  1E5   [8]  1C 00 91 50 00 00 01 39
 (1652892857.054167)  can0  012   [8]  E8 03 10 00 00 00 00 00
 (1652892857.055843)  can0  014   [5]  07 70 00 10 27
 (1652892857.057810)  can0  1E5   [8]  1C 00 91 70 00 00 01 59
 (1652892857.064226)  can0  012   [8]  E8 03 10 00 00 00 00 00
 (1652892857.065994)  can0  014   [5]  07 60 00 10 27
 (1652892857.067963)  can0  1E5   [8]  1C 00 91 10 00 00 00 F9
 (1652892857.073991)  can0  012   [8]  E8 03 10 00 00 00 00 00
 (1652892857.075857)  can0  014   [5]  06 70 00 10 27
 (1652892857.077788)  can0  1E5   [8]  1C 00 91 30 00 00 01 19
 (1652892857.083995)  can0  012   [8]  E8 03 10 00 00 00 00 00
 (1652892857.085987)  can0  014   [5]  07 70 00 10 27
 (1652892857.088620)  can0  1E5   [8]  1C 00 91 50 00 00 01 39
 (1652892857.093993)  can0  012   [8]  E8 03 10 00 00 00 00 00
 (1652892857.095830)  can0  014   [5]  07 70 00 10 27
 (1652892857.097970)  can0  1E5   [8]  1C 00 91 70 00 00 01 59
 (1652892857.104003)  can0  012   [8]  E8 03 10 00 00 00 00 00
 (1652892857.104133)  can0  010   [4]  32 86 08 01
 (1652892857.105818)  can0  014   [5]  07 70 00 13 27
 (1652892857.107805)  can0  1E5   [8]  1C 00 91 10 00 00 00 F9
 (1652892857.114025)  can0  012   [8]  E8 03 10 00 00 00 00 00
 (1652892857.115788)  can0  014   [5]  07 70 00 0D 27
 (1652892857.118044)  can0  1E5   [8]  1C 00 91 30 00 00 01 19
 (1652892857.124007)  can0  012   [8]  E8 03 10 00 00 00 00 00
 (1652892857.125831)  can0  014   [5]  08 70 00 10 27
 (1652892857.127825)  can0  1E5   [8]  1C 00 91 50 00 00 01 39
 (1652892857.134206)  can0  012   [8]  E8 03 10 00 00 00 00 00
 (1652892857.135809)  can0  014   [5]  07 80 00 10 27
 (1652892857.137758)  can0  1E5   [8]  1C 00 91 70 00 00 01 59
 (1652892857.143994)  can0  012   [8]  E8 03 10 00 00 00 00 00
 (1652892857.145840)  can0  014   [5]  08 80 00 10 27
 (1652892857.147803)  can0  1E5   [8]  1C 00 91 10 00 00 00 F9
 (1652892857.154281)  can0  012   [8]  E8 03 10 00 00 00 00 00
 (1652892857.155850)  can0  014   [5]  07 70 00 10 27
 (1652892857.157805)  can0  1E5   [8]  1C 00 91 30 00 00 01 19
 (1652892857.164002)  can0  012   [8]  E8 03 10 00 00 00 00 00
 (1652892857.165979)  can0  014   [5]  08 80 00 10 27
 (1652892857.167810)  can0  1E5   [8]  1C 00 91 50 00 00 01 39
 (1652892857.174013)  can0  012   [8]  E8 03 10 00 00 00 00 00
 (1652892857.175851)  can0  014   [5]  08 80 00 10 27
 (1652892857.177791)  can0  1E5   [8]  1C 00 91 70 00 00 01 59
 (1652892857.184199)  can0  012   [8]  E8 03 10 00 00 00 00 00
 (1652892857.186157)  can0  014   [5]  08 80 00 10 27
 (1652892857.188016)  can0  1E5   [8]  1C 00 91 10 00 00 00 F9
 (1652892857.194015)  can0  012   [8]  E8 03 10 00 00 00 00 00
 (1652892857.195836)  can0  014   [5]  08 80 00 10 27
 (1652892857.197799)  can0  1E5   [8]  1C 00 91 30 00 00 01 19
 (1652892857.204012)  can0  012   [8]  E8 03 10 00 00 00 00 00
 (1652892857.204135)  can0  010   [4]  32 86 08 01
 (1652892857.205831)  can0  014   [5]  08 70 00 13 27
 (1652892857.207802)  can0  1E5   [8]  1C 00 8F 5F FF 00 02 45
 (1652892857.214010)  can0  012   [8]  E8 03 10 00 00 00 00 00
 (1652892857.215827)  can0  014   [5]  08 80 00 0D 27
 (1652892857.217981)  can0  1E5   [8]  1C 00 8F 7F FF 00 02 65
 (1652892857.224030)  can0  012   [8]  E8 03 10 00 00 00 00 00
 (1652892857.225839)  can0  014   [5]  08 70 00 10 27
 (1652892857.227807)  can0  1E5   [8]  1C 00 8F 1F FF 00 02 05
 (1652892857.234344)  can0  012   [8]  E8 03 10 00 00 00 00 00
 (1652892857.235804)  can0  014   [5]  08 80 00 10 27
 (1652892857.237804)  can0  1E5   [8]  1C 00 8F 3F FF 00 02 25
 (1652892857.243987)  can0  012   [8]  E8 03 10 00 00 00 00 00
 (1652892857.245835)  can0  014   [5]  08 80 00 10 27
 (1652892857.247799)  can0  1E5   [8]  1C 00 8F 5F FF 00 02 45
 (1652892857.254244)  can0  012   [8]  E8 03 10 00 00 00 00 00
 (1652892857.256018)  can0  014   [5]  08 90 00 10 27
 (1652892857.257851)  can0  1E5   [8]  1C 00 8F 7F FF 00 02 65
 (1652892857.264303)  can0  012   [8]  E8 03 10 00 00 00 00 00
 (1652892857.265806)  can0  014   [5]  09 90 00 10 27
 (1652892857.267956)  can0  1E5   [8]  1C 00 8D 1F FE 00 02 02
 (1652892857.274005)  can0  012   [8]  E8 03 10 00 00 00 00 00
 (1652892857.275825)  can0  014   [5]  09 80 00 10 27
 (1652892857.277785)  can0  1E5   [8]  1C 00 8D 3F FE 00 02 22
 (1652892857.284291)  can0  012   [8]  E8 03 10 00 00 00 00 00
 (1652892857.285989)  can0  014   [5]  09 90 00 10 27
 (1652892857.287931)  can0  1E5   [8]  1C 00 8D 5F FE 00 02 42
 (1652892857.294084)  can0  012   [8]  E8 03 10 00 00 00 00 00
 (1652892857.295839)  can0  014   [5]  09 90 00 10 27
 (1652892857.298121)  can0  1E5   [8]  1C 00 8C 7F FD 00 02 60
 (1652892857.304007)  can0  012   [8]  E8 03 10 00 00 00 00 00
 (1652892857.304139)  can0  010   [4]  32 86 08 01
 (1652892857.306026)  can0  014   [5]  09 80 00 13 27
 (1652892857.307812)  can0  1E5   [8]  1C 00 8C 1F FE 00 02 01
 (1652892857.314012)  can0  012   [8]  E8 03 10 00 00 00 00 00
 (1652892857.316017)  can0  014   [5]  09 A0 00 0D 27
 (1652892857.317952)  can0  1E5   [8]  1C 00 8A 3F FD 00 02 1E
 (1652892857.324025)  can0  012   [8]  E8 03 10 00 00 00 00 00
 (1652892857.325840)  can0  014   [5]  09 90 00 10 27
 (1652892857.327831)  can0  1E5   [8]  1C 00 89 5F FC 00 02 3C
 (1652892857.334180)  can0  012   [8]  E8 03 10 00 00 00 00 00
 (1652892857.335996)  can0  014   [5]  09 90 00 10 27
 (1652892857.337943)  can0  1E5   [8]  1C 00 89 7F FC 00 02 5C
 (1652892857.344004)  can0  012   [8]  E8 03 10 00 00 00 00 00
 (1652892857.345829)  can0  014   [5]  09 80 00 10 27
 (1652892857.347784)  can0  1E5   [8]  1C 00 87 1F FB 00 01 F9
 (1652892857.354178)  can0  012   [8]  E8 03 10 00 00 00 00 00
 (1652892857.355861)  can0  014   [5]  0A 90 00 10 27
 (1652892857.358986)  can0  1E5   [8]  1C 00 85 3F FA 00 02 16
 (1652892857.364013)  can0  012   [8]  E8 03 10 00 00 00 00 00
 (1652892857.365982)  can0  014   [5]  09 90 00 10 27
 (1652892857.367817)  can0  1E5   [8]  1C 00 85 5F FB 00 02 37
 (1652892857.374018)  can0  012   [8]  E8 03 10 00 00 00 00 00
 (1652892857.375868)  can0  014   [5]  09 90 00 10 27
 (1652892857.377795)  can0  1E5   [8]  1C 00 84 7F FA 00 02 55
 (1652892857.384189)  can0  012   [8]  E8 03 10 00 00 00 00 00
 (1652892857.385984)  can0  014   [5]  09 90 00 10 27
 (1652892857.388286)  can0  1E5   [8]  1C 00 84 1F FA 00 01 F5
 (1652892857.394016)  can0  012   [8]  E8 03 10 00 00 00 00 00
 (1652892857.395841)  can0  014   [5]  09 90 00 10 27
 (1652892857.397960)  can0  1E5   [8]  1C 00 82 3F FA 00 02 13
 (1652892857.404035)  can0  012   [8]  E8 03 10 00 00 00 00 00
 (1652892857.404140)  can0  010   [4]  32 86 08 01
 (1652892857.405817)  can0  014   [5]  0A A0 00 13 27
 (1652892857.407796)  can0  1E5   [8]  1C 00 82 5F FA 00 02 33
 (1652892857.413996)  can0  012   [8]  E8 03 10 00 00 00 00 00
 (1652892857.415973)  can0  014   [5]  09 90 00 0D 27
 (1652892857.417940)  can0  1E5   [8]  1C 00 81 7F FA 00 02 52
 (1652892857.424005)  can0  012   [8]  E8 03 10 00 00 00 00 00
 (1652892857.425802)  can0  014   [5]  0A A0 00 10 27
 (1652892857.427806)  can0  1E5   [8]  1C 00 81 1F FB 00 01 F3
 (1652892857.433992)  can0  012   [8]  E8 03 10 00 00 00 00 00
 (1652892857.435855)  can0  014   [5]  0A A0 00 10 27
 (1652892857.437797)  can0  1E5   [8]  1C 00 81 3F FB 00 02 13
 (1652892857.443987)  can0  012   [8]  E8 03 10 00 00 00 00 00
 (1652892857.445818)  can0  014   [5]  0A A0 00 10 27
 (1652892857.447952)  can0  1E5   [8]  1C 00 7F 5F FB 00 02 31
 (1652892857.454018)  can0  012   [8]  E8 03 10 00 00 00 00 00
 (1652892857.455844)  can0  014   [5]  0A A0 00 10 27
 (1652892857.457769)  can0  1E5   [8]  1C 00 7F 7F FC 00 02 52
 (1652892857.464168)  can0  012   [8]  E8 03 10 00 00 00 00 00
 (1652892857.465827)  can0  014   [5]  0A A0 00 10 27
 (1652892857.467988)  can0  1E5   [8]  1C 00 7F 1F FC 00 01 F2
 (1652892857.474011)  can0  012   [8]  E8 03 10 00 00 00 00 00
 (1652892857.475835)  can0  014   [5]  0B A0 00 10 27
 (1652892857.477808)  can0  1E5   [8]  1C 00 7F 3F FD 00 02 13
 (1652892857.484163)  can0  012   [8]  E8 03 10 00 00 00 00 00
 (1652892857.485991)  can0  014   [5]  0A A0 00 10 27
 (1652892857.488543)  can0  1E5   [8]  1C 00 7D 5F FC 00 02 30
 (1652892857.494001)  can0  012   [8]  E8 03 10 00 00 00 00 00
 (1652892857.495809)  can0  014   [5]  0A A0 00 10 27
 (1652892857.497928)  can0  1E5   [8]  1C 00 7D 7F FD 00 02 51
 (1652892857.504013)  can0  012   [8]  E8 03 10 00 00 00 00 00
 (1652892857.504146)  can0  010   [4]  32 86 08 01
 (1652892857.505833)  can0  014   [5]  09 A0 00 13 27
 (1652892857.507797)  can0  1E5   [8]  1C 00 7C 1F FC 00 01 EF
 (1652892857.514025)  can0  012   [8]  E8 03 10 00 00 00 00 00
 (1652892857.515982)  can0  014   [5]  0A A0 00 0D 27
 (1652892857.517945)  can0  1E5   [8]  1C 00 7C 3F FD 00 02 10
 (1652892857.524012)  can0  012   [8]  E8 03 10 00 00 00 00 00
 (1652892857.525797)  can0  014   [5]  0A A0 00 10 27
 (1652892857.527755)  can0  1E5   [8]  1C 00 7A 5F FC 00 02 2D
 (1652892857.534006)  can0  012   [8]  E8 03 10 00 00 00 00 00
 (1652892857.535987)  can0  014   [5]  0B A0 00 10 27
 (1652892857.537958)  can0  1E5   [8]  1C 00 7A 7F FC 00 02 4D
 (1652892857.544020)  can0  012   [8]  E8 03 10 00 00 00 00 00
 (1652892857.545835)  can0  014   [5]  0A B0 00 10 27
 (1652892857.547939)  can0  1E5   [8]  1C 00 79 1F FC 00 01 EC
 (1652892857.554001)  can0  012   [8]  E8 03 10 00 00 00 00 00
 (1652892857.555815)  can0  014   [5]  0B A0 00 10 27
 (1652892857.557782)  can0  1E5   [8]  1C 00 79 3F FC 00 02 0C
 (1652892857.563993)  can0  012   [8]  E8 03 10 00 00 00 00 00
 (1652892857.565838)  can0  014   [5]  0A B0 00 10 27
 (1652892857.567808)  can0  1E5   [8]  1C 00 77 5F FB 00 02 29
 (1652892857.574041)  can0  012   [8]  E8 03 10 00 00 00 00 00
 (1652892857.575849)  can0  014   [5]  0B B0 00 10 27
 (1652892857.577783)  can0  1E5   [8]  1C 00 75 7F FA 00 02 46
 (1652892857.584197)  can0  012   [8]  E8 03 10 00 00 00 00 00
 (1652892857.585815)  can0  014   [5]  0B B0 00 14 27
 (1652892857.587797)  can0  1E5   [8]  1C 00 74 1F FA 00 01 E5
 (1652892857.593987)  can0  012   [8]  E8 03 10 00 00 00 00 00
 (1652892857.595811)  can0  014   [5]  0B A0 00 0C 27
 (1652892857.597799)  can0  1E5   [8]  1C 00 74 3F FA 00 02 05
 (1652892857.604215)  can0  012   [8]  E8 03 10 00 00 00 00 00
 (1652892857.604223)  can0  010   [4]  32 86 08 01
 (1652892857.606042)  can0  014   [5]  0B B0 00 13 27
 (1652892857.607769)  can0  1E5   [8]  1C 00 72 5F FA 00 02 23
 (1652892857.614156)  can0  012   [8]  E8 03 10 00 00 00 00 00
 (1652892857.616022)  can0  014   [5]  0B B0 00 0D 27
 (1652892857.617788)  can0  1E5   [8]  1C 00 71 7F F9 00 02 41
 (1652892857.623996)  can0  012   [8]  E8 03 10 00 00 00 00 00
 (1652892857.625876)  can0  014   [5]  0B B0 00 10 27
 (1652892857.627801)  can0  1E5   [8]  1C 00 6F 1F F9 00 01 DF
 (1652892857.634020)  can0  012   [8]  E8 03 10 00 00 00 00 00
 (1652892857.636003)  can0  014   [5]  0B B0 00 10 27
 (1652892857.637968)  can0  1E5   [8]  1C 00 6D 3F F8 00 01 FC
 (1652892857.644005)  can0  012   [8]  E8 03 10 00 00 00 00 00
 (1652892857.645827)  can0  014   [5]  0B B0 00 10 27
 (1652892857.647935)  can0  1E5   [8]  1C 00 6D 5F F9 00 02 1D
 (1652892857.654011)  can0  012   [8]  E8 03 10 00 00 00 00 00
 (1652892857.656013)  can0  014   [5]  0B B0 00 10 27
 (1652892857.657789)  can0  1E5   [8]  1C 00 6C 7F F8 00 02 3B
 (1652892857.664022)  can0  012   [8]  E8 03 10 00 00 00 00 00
 (1652892857.665843)  can0  014   [5]  0B B0 00 10 27
 (1652892857.667955)  can0  1E5   [8]  1C 00 6A 1F F8 00 01 D9
 (1652892857.674033)  can0  012   [8]  E8 03 10 00 00 00 00 00
 (1652892857.675846)  can0  014   [5]  0C C0 00 14 27
 (1652892857.677763)  can0  1E5   [8]  1C 00 69 3F F8 00 01 F8
 (1652892857.684240)  can0  012   [8]  E8 03 10 00 00 00 00 00
 (1652892857.686101)  can0  014   [5]  0B B0 00 0C 27
 (1652892857.688169)  can0  1E5   [8]  1C 00 65 5F F7 00 02 13
 (1652892857.693998)  can0  012   [8]  E8 03 10 00 00 00 00 00
 (1652892857.695812)  can0  014   [5]  0B B0 00 10 27
 (1652892857.697791)  can0  1E5   [8]  1C 00 65 7F F7 00 02 33
 (1652892857.704168)  can0  012   [8]  E8 03 10 00 00 00 00 00
 (1652892857.704176)  can0  010   [4]  32 86 08 01
 (1652892857.706082)  can0  014   [5]  0C C0 00 13 27
 (1652892857.707779)  can0  1E5   [8]  1C 00 62 1F F6 00 01 CF
 (1652892857.714012)  can0  012   [8]  E8 03 10 00 00 00 00 00
 (1652892857.715987)  can0  014   [5]  0B B0 00 0D 27
 (1652892857.717803)  can0  1E5   [8]  1C 00 61 3F F6 00 01 EE
 (1652892857.723993)  can0  012   [8]  E8 03 10 00 00 00 00 00
 (1652892857.725913)  can0  014   [5]  0C C0 00 10 27
 (1652892857.727769)  can0  1E5   [8]  1C 00 5F 5F F6 00 02 0C
 (1652892857.734033)  can0  012   [8]  E8 03 10 00 00 00 00 00
 (1652892857.736043)  can0  014   [5]  0C C0 00 10 27
 (1652892857.737967)  can0  1E5   [8]  1C 00 5D 7F F6 00 02 2A
 (1652892857.744017)  can0  012   [8]  E8 03 10 00 00 00 00 00
 (1652892857.745814)  can0  014   [5]  0C B0 00 10 27
 (1652892857.748003)  can0  1E5   [8]  1C 00 5C 1F F5 00 01 C8
 (1652892857.754263)  can0  012   [8]  E8 03 10 00 00 00 00 00
 (1652892857.755862)  can0  014   [5]  0B C0 00 10 27
 (1652892857.757792)  can0  1E5   [8]  1C 00 5A 3F F5 00 01 E6
 (1652892857.764013)  can0  012   [8]  E8 03 10 00 00 00 00 00
 (1652892857.766026)  can0  014   [5]  0C D0 00 10 27
 (1652892857.768022)  can0  1E5   [8]  1C 00 59 5F F5 00 02 05
 (1652892857.773985)  can0  012   [8]  E8 03 10 00 00 00 00 00
 (1652892857.775830)  can0  014   [5]  0C C0 00 10 27
 (1652892857.777793)  can0  1E5   [8]  1C 00 57 7F F5 00 02 23
 (1652892857.784027)  can0  012   [8]  E8 03 10 00 00 00 00 00
 (1652892857.786001)  can0  014   [5]  0D C0 00 10 27
 (1652892857.788071)  can0  1E5   [8]  1C 00 57 1F F7 00 01 C5
 (1652892857.794006)  can0  012   [8]  E8 03 10 00 00 00 00 00
 (1652892857.795814)  can0  014   [5]  0C D0 00 10 27
 (1652892857.798099)  can0  1E5   [8]  1C 00 54 3F F5 00 01 E0
 (1652892857.804031)  can0  012   [8]  E8 03 10 00 00 00 00 00
 (1652892857.804187)  can0  010   [4]  32 86 08 01
 (1652892857.806022)  can0  014   [5]  0D C0 00 13 27
 (1652892857.807755)  can0  1E5   [8]  1C 00 54 5F F7 00 02 02
 (1652892857.814325)  can0  012   [8]  E8 03 10 00 00 00 00 00
 (1652892857.815842)  can0  014   [5]  0C C0 00 0D 27
 (1652892857.817797)  can0  1E5   [8]  1C 00 52 7F F7 00 02 20
