 (1652892905.323705)  can0  012   [8]  E8 03 10 00 00 00 00 00
 (1652892905.325712)  can0  014   [5]  00 00 00 10 27
 (1652892905.326332)  can0  1E5   [8]  1C FE BE 50 00 00 02 64
 (1652892905.333726)  can0  012   [8]  E8 03 10 00 00 00 00 00
 (1652892905.335806)  can0  014   [5]  00 00 00 10 27
 (1652892905.336333)  can0  1E5   [8]  1C FE BE 70 00 00 02 84
 (1652892905.343733)  can0  012   [8]  E8 03 10 00 00 00 00 00
 (1652892905.345810)  can0  014   [5]  00 00 00 10 27
 (1652892905.346345)  can0  1E5   [8]  1C FE BE 10 00 00 02 24
 (1652892905.353750)  can0  012   [8]  E8 03 10 00 00 00 00 00
 (1652892905.355661)  can0  014   [5]  00 00 00 10 27
 (1652892905.356336)  can0  1E5   [8]  1C FE BE 30 00 00 02 44
 (1652892905.363741)  can0  012   [8]  E8 03 10 00 00 00 00 00
 (1652892905.365827)  can0  014   [5]  00 00 00 10 27
 (1652892905.366338)  can0  1E5   [8]  1C FE BD 50 00 00 02 63
 (1652892905.373746)  can0  012   [8]  E8 03 10 00 00 00 00 00
 (1652892905.375821)  can0  014   [5]  00 00 00 10 27
 (1652892905.376339)  can0  1E5   [8]  1C FE BE 70 00 00 02 84
 (1652892905.383749)  can0  012   [8]  E8 03 10 00 00 00 00 00
 (1652892905.385827)  can0  014   [5]  00 00 00 10 27
 (1652892905.386345)  can0  1E5   [8]  1C FE BE 10 00 00 02 24
 (1652892905.393774)  can0  012   [8]  E8 03 10 00 00 00 00 00
 (1652892905.395830)  can0  014   [5]  00 00 00 10 27
 (1652892905.396345)  can0  1E5   [8]  1C FE BE 30 00 00 02 44
 (1652892905.403756)  can0  012   [8]  E8 03 10 00 00 00 00 00
 (1652892905.403822)  can0  010   [4]  26 73 00 00
 (1652892905.405819)  can0  014   [5]  00 00 00 13 27
 (1652892905.406333)  can0  1E5   [8]  1C FE BE 50 00 00 02 64
 (1652892905.413753)  can0  012   [8]  E8 03 10 00 00 00 00 00
 (1652892905.415829)  can0  014   [5]  00 00 00 0D 27
 (1652892905.416340)  can0  1E5   [8]  1C FE BE 70 00 00 02 84
 (1652892905.423780)  can0  012   [8]  E8 03 10 00 00 00 00 00
 (1652892905.425829)  can0  014   [5]  00 00 00 10 27
 (1652892905.426307)  can0  1E5   [8]  1C FE BE 10 00 00 02 24
 (1652892905.433747)  can0  012   [8]  E8 03 10 00 00 00 00 00
 (1652892905.435836)  can0  014   [5]  00 00 00 10 27
 (1652892905.436352)  can0  1E5   [8]  1C FE BE 30 00 00 02 44
 (1652892905.443781)  can0  012   [8]  E8 03 10 00 00 00 00 00
 (1652892905.445823)  can0  014   [5]  00 00 00 10 27
 (1652892905.446351)  can0  1E5   [8]  1C FE BE 50 00 00 02 64
 (1652892905.453697)  can0  012   [8]  E8 03 10 00 00 00 00 00
 (1652892905.455825)  can0  014   [5]  00 00 00 10 27
 (1652892905.456334)  can0  1E5   [8]  1C FE BE 70 00 00 02 84
 (1652892905.463737)  can0  012   [8]  E8 03 10 00 00 00 00 00
 (1652892905.465826)  can0  014   [5]  00 00 00 10 27
 (1652892905.466339)  can0  1E5   [8]  1C FE BE 10 00 00 02 24
 (1652892905.473752)  can0  012   [8]  E8 03 10 00 00 00 00 00
 (1652892905.475828)  can0  014   [5]  00 00 00 10 27
 (1652892905.476339)  can0  1E5   [8]  1C FE BE 30 00 00 02 44
 (1652892905.483713)  can0  012   [8]  E8 03 10 00 00 00 00 00
 (1652892905.485822)  can0  014   [5]  00 00 00 10 27
 (1652892905.486345)  can0  1E5   [8]  1C FE BE 50 00 00 02 64
 (1652892905.493773)  can0  012   [8]  E8 03 10 00 00 00 00 00
 (1652892905.495820)  can0  014   [5]  00 00 00 10 27
 (1652892905.496345)  can0  1E5   [8]  1C FE BE 70 00 00 02 84
 (1652892905.503741)  can0  012   [8]  E8 03 10 00 00 00 00 00
 (1652892905.503830)  can0  010   [4]  26 73 00 00
 (1652892905.505664)  can0  014   [5]  00 00 00 13 27
 (1652892905.506350)  can0  1E5   [8]  1C FE BE 10 00 00 02 24
 (1652892905.513748)  can0  012   [8]  E8 03 10 00 00 00 00 00
 (1652892905.515823)  can0  014   [5]  00 00 00 0D 27
 (1652892905.516334)  can0  1E5   [8]  1C FE BE 30 00 00 02 44
 (1652892905.523820)  can0  012   [8]  E8 03 10 00 00 00 00 00
 (1652892905.525824)  can0  014   [5]  00 00 00 10 27
 (1652892905.526339)  can0  1E5   [8]  1C FE BE 50 00 00 02 64
 (1652892905.533743)  can0  012   [8]  E8 03 10 00 00 00 00 00
 (1652892905.535835)  can0  014   [5]  00 00 00 10 27
 (1652892905.536322)  can0  1E5   [8]  1C FE BE 70 00 00 02 84
 (1652892905.543765)  can0  012   [8]  E8 03 10 00 00 00 00 00
 (1652892905.545835)  can0  014   [5]  00 00 00 10 27
 (1652892905.546346)  can0  1E5   [8]  1C FE BE 10 00 00 02 24
 (1652892905.553754)  can0  012   [8]  E8 03 10 00 00 00 00 00
 (1652892905.555826)  can0  014   [5]  00 00 00 10 27
 (1652892905.556335)  can0  1E5   [8]  1C FE BE 30 00 00 02 44
 (1652892905.563782)  can0  012   [8]  E8 03 10 00 00 00 00 00
 (1652892905.565666)  can0  014   [5]  00 00 00 10 27
 (1652892905.566333)  can0  1E5   [8]  1C FE BE 50 00 00 02 64
 (1652892905.573746)  can0  012   [8]  E8 03 10 00 00 00 00 00
 (1652892905.575664)  can0  014   [5]  00 00 00 10 27
 (1652892905.576340)  can0  1E5   [8]  1C FE BE 70 00 00 02 84
 (1652892905.583764)  can0  012   [8]  E8 03 10 00 00 00 00 00
 (1652892905.585657)  can0  014   [5]  00 00 00 10 27
 (1652892905.586322)  can0  1E5   [8]  1C FE BE 10 00 00 02 24
 (1652892905.593807)  can0  012   [8]  E8 03 10 00 00 00 00 00
 (1652892905.595663)  can0  014   [5]  00 00 00 10 27
 (1652892905.596396)  can0  1E5   [8]  1C FE BE 30 00 00 02 44
 (1652892905.603751)  can0  012   [8]  E8 03 10 00 00 00 00 00
 (1652892905.603815)  can0  010   [4]  26 73 00 00
 (1652892905.605835)  can0  014   [5]  00 00 00 13 27
 (1652892905.606332)  can0  1E5   [8]  1C FE BE 50 00 00 02 64
 (1652892905.613750)  can0  012   [8]  E8 03 10 00 00 00 00 00
 (1652892905.615831)  can0  014   [5]  00 00 00 0D 27
 (1652892905.616338)  can0  1E5   [8]  1C FE BE 70 00 00 02 84
 (1652892905.623713)  can0  012   [8]  E8 03 10 00 00 00 00 00
 (1652892905.625825)  can0  014   [5]  00 00 00 10 27
 (1652892905.626338)  can0  1E5   [8]  1C FE BE 10 00 00 02 24
 (1652892905.633725)  can0  012   [8]  E8 03 10 00 00 00 00 00
 (1652892905.635826)  can0  014   [5]  00 00 00 10 27
 (1652892905.636332)  can0  1E5   [8]  1C FE BE 30 00 00 02 44
 (1652892905.643723)  can0  012   [8]  E8 03 10 00 00 00 00 00
 (1652892905.645826)  can0  014   [5]  00 00 00 10 27
 (1652892905.646328)  can0  1E5   [8]  1C FE BE 50 00 00 02 64
 (1652892905.653722)  can0  012   [8]  E8 03 10 00 00 00 00 00
 (1652892905.655823)  can0  014   [5]  00 00 00 10 27
 (1652892905.656336)  can0  1E5   [8]  1C FE BE 70 00 00 02 84
 (1652892905.663743)  can0  012   [8]  E8 03 10 00 00 00 00 00
 (1652892905.665825)  can0  014   [5]  00 00 00 10 27
 (1652892905.666333)  can0  1E5   [8]  1C FE BE 10 00 00 02 24
 (1652892905.673729)  can0  012   [8]  E8 03 10 00 00 00 00 00
 (1652892905.675827)  can0  014   [5]  00 00 00 10 27
 (1652892905.676337)  can0  1E5   [8]  1C FE BE 30 00 00 02 44
 (1652892905.683737)  can0  012   [8]  E8 03 10 00 00 00 00 00
 (1652892905.685904)  can0  014   [5]  00 00 00 10 27
 (1652892905.686327)  can0  1E5   [8]  1C FE BE 50 00 00 02 64
 (1652892905.693770)  can0  012   [8]  E8 03 10 00 00 00 00 00
 (1652892905.695825)  can0  014   [5]  00 00 00 10 27
 (1652892905.696330)  can0  1E5   [8]  1C FE BE 70 00 00 02 84
 (1652892905.703761)  can0  012   [8]  E8 03 10 00 00 00 00 00
 (1652892905.703828)  can0  010   [4]  26 73 00 00
 (1652892905.705825)  can0  014   [5]  00 00 00 13 27
 (1652892905.706332)  can0  1E5   [8]  1C FE BE 10 00 00 02 24
 (1652892905.713795)  can0  012   [8]  E8 03 10 00 00 00 00 00
 (1652892905.715827)  can0  014   [5]  00 00 00 0D 27
 (1652892905.716333)  can0  1E5   [8]  1C FE BE 30 00 00 02 44
 (1652892905.723895)  can0  012   [8]  E8 03 10 00 00 00 00 00
 (1652892905.725833)  can0  014   [5]  00 00 00 10 27
 (1652892905.726338)  can0  1E5   [8]  1C FE BE 50 00 00 02 64
 (1652892905.733722)  can0  012   [8]  E8 03 10 00 00 00 00 00
 (1652892905.735825)  can0  014   [5]  00 00 00 10 27
 (1652892905.736327)  can0  1E5   [8]  1C FE BE 70 00 00 02 84
 (1652892905.743777)  can0  012   [8]  E8 03 10 00 00 00 00 00
 (1652892905.745844)  can0  014   [5]  00 00 00 10 27
 (1652892905.746341)  can0  1E5   [8]  1C FE BE 10 00 00 02 24
 (1652892905.753724)  can0  012   [8]  E8 03 10 00 00 00 00 00
 (1652892905.755874)  can0  014   [5]  00 00 00 10 27
 (1652892905.756345)  can0  1E5   [8]  1C FE BE 30 00 00 02 44
 (1652892905.763889)  can0  012   [8]  E8 03 10 00 00 00 00 00
 (1652892905.765882)  can0  014   [5]  00 00 00 10 27
 (1652892905.766327)  can0  1E5   [8]  1C FE BE 50 00 00 02 64
 (1652892905.773780)  can0  012   [8]  E8 03 10 00 00 00 00 00
 (1652892905.775911)  can0  014   [5]  00 00 00 10 27
 (1652892905.776334)  can0  1E5   [8]  1C FE BE 70 00 00 02 84
 (1652892905.783743)  can0  012   [8]  E8 03 10 00 00 00 00 00
 (1652892905.785645)  can0  014   [5]  00 00 00 10 27
 (1652892905.786342)  can0  1E5   [8]  1C FE BE 10 00 00 02 24
 (1652892905.793761)  can0  012   [8]  E8 03 10 00 00 00 00 00
 (1652892905.795876)  can0  014   [5]  00 00 00 10 27
 (1652892905.796339)  can0  1E5   [8]  1C FE BE 30 00 00 02 44
 (1652892905.803738)  can0  012   [8]  E8 03 10 00 00 00 00 00
 (1652892905.803847)  can0  010   [4]  26 73 00 00
 (1652892905.805970)  can0  014   [5]  00 00 00 13 27
 (1652892905.806327)  can0  1E5   [8]  1C FE BE 50 00 00 02 64
 (1652892905.813760)  can0  012   [8]  E8 03 10 00 00 00 00 00
 (1652892905.815628)  can0  014   [5]  00 00 00 0D 27
 (1652892905.816317)  can0  1E5   [8]  1C FE BD 70 00 00 02 83
 (1652892905.823946)  can0  012   [8]  E8 03 10 00 00 00 00 00
 (1652892905.825827)  can0  014   [5]  00 00 00 10 27
 (1652892905.826294)  can0  1E5   [8]  1C FE BE 10 00 00 02 24
 (1652892905.833761)  can0  012   [8]  E8 03 10 00 00 00 00 00
 (1652892905.835828)  can0  014   [5]  00 00 00 10 27
 (1652892905.836298)  can0  1E5   [8]  1C FE BE 30 00 00 02 44
 (1652892905.843686)  can0  012   [8]  E8 03 10 00 00 00 00 00
 (1652892905.845826)  can0  014   [5]  00 00 00 10 27
 (1652892905.846293)  can0  1E5   [8]  1C FE BE 50 00 00 02 64
 (1652892905.853764)  can0  012   [8]  E8 03 10 00 00 00 00 00
 (1652892905.855828)  can0  014   [5]  00 00 00 10 27
 (1652892905.856299)  can0  1E5   [8]  1C FE BD 70 00 00 02 83
 (1652892905.863798)  can0  012   [8]  E8 03 10 00 00 00 00 00
 (1652892905.865829)  can0  014   [5]  00 00 00 10 27
 (1652892905.866304)  can0  1E5   [8]  1C FE BE 10 00 00 02 24
 (1652892905.873929)  can0  012   [8]  E8 03 10 00 00 00 00 00
 (1652892905.875828)  can0  014   [5]  00 00 00 10 27
 (1652892905.876292)  can0  1E5   [8]  1C FE BE 30 00 00 02 44
 (1652892905.883770)  can0  012   [8]  E8 03 10 00 00 00 00 00
 (1652892905.885825)  can0  014   [5]  00 00 00 10 27
 (1652892905.886280)  can0  1E5   [8]  1C FE BE 50 00 00 02 64
 (1652892905.893701)  can0  012   [8]  E8 03 10 00 00 00 00 00
 (1652892905.895821)  can0  014   [5]  00 00 00 10 27
 (1652892905.896299)  can0  1E5   [8]  1C FE BD 70 00 00 02 83
 (1652892905.903763)  can0  012   [8]  E8 03 10 00 00 00 00 00
 (1652892905.903824)  can0  010   [4]  26 73 00 00
 (1652892905.905825)  can0  014   [5]  00 00 00 13 27
 (1652892905.906287)  can0  1E5   [8]  1C FE BE 10 00 00 02 24
 (1652892905.913743)  can0  012   [8]  E8 03 10 00 00 00 00 00
 (1652892905.915829)  can0  014   [5]  00 00 00 0D 27
 (1652892905.916287)  can0  1E5   [8]  1C FE BE 30 00 00 02 44
 (1652892905.923784)  can0  012   [8]  E8 03 10 00 00 00 00 00
 (1652892905.925820)  can0  014   [5]  00 00 00 10 27
 (1652892905.926293)  can0  1E5   [8]  1C FE BE 50 00 00 02 64
 (1652892905.933772)  can0  012   [8]  E8 03 10 00 00 00 00 00
 (1652892905.935828)  can0  014   [5]  00 00 00 10 27
 (1652892905.936281)  can0  1E5   [8]  1C FE BD 70 00 00 02 83
 (1652892905.943794)  can0  012   [8]  E8 03 10 00 00 00 00 00
 (1652892905.945830)  can0  014   [5]  00 00 00 10 27
 (1652892905.946280)  can0  1E5   [8]  1C FE BE 10 00 00 02 24
 (1652892905.953872)  can0  012   [8]  E8 03 10 00 00 00 00 00
 (1652892905.955820)  can0  014   [5]  00 00 00 10 27
 (1652892905.956281)  can0  1E5   [8]  1C FE BE 30 00 00 02 44
 (1652892905.963801)  can0  012   [8]  E8 03 10 00 00 00 00 00
 (1652892905.965820)  can0  014   [5]  00 00 00 10 27
 (1652892905.966289)  can0  1E5   [8]  1C FE BE 50 00 00 02 64
 (1652892905.973750)  can0  012   [8]  E8 03 10 00 00 00 00 00
 (1652892905.975821)  can0  014   [5]  00 00 00 10 27
 (1652892905.976334)  can0  1E5   [8]  1C FE BE 70 00 00 02 84
 (1652892905.983720)  can0  012   [8]  E8 03 10 00 00 00 00 00
 (1652892905.985825)  can0  014   [5]  00 00 00 10 27
 (1652892905.986323)  can0  1E5   [8]  1C FE BE 10 00 00 02 24
 (1652892905.993813)  can0  012   [8]  E8 03 10 00 00 00 00 00
 (1652892905.995828)  can0  014   [5]  00 00 00 10 27
 (1652892905.996318)  can0  1E5   [8]  1C FE BE 30 00 00 02 44
 (1652892906.003743)  can0  012   [8]  E8 03 10 00 00 00 00 00
 (1652892906.003846)  can0  010   [4]  26 73 00 00
 (1652892906.003995)  can0  0E2   [2]  B0 03
 (1652892906.004101)  can0  0E3   [2]  B0 03
 (1652892906.005831)  can0  014   [5]  00 00 00 19 27
 (1652892906.005839)  can0  0E4   [2]  B0 03
 (1652892906.006322)  can0  1E5   [8]  1C FE BE 50 00 00 02 64
 (1652892906.013947)  can0  012   [8]  E8 03 10 00 00 00 00 00
 (1652892906.015822)  can0  014   [5]  00 00 00 07 27
 (1652892906.016327)  can0  1E5   [8]  1C FE BE 70 00 00 02 84
 (1652892906.023746)  can0  012   [8]  E8 03 10 00 00 00 00 00
 (1652892906.025669)  can0  014   [5]  00 00 00 10 27
 (1652892906.026332)  can0  1E5   [8]  1C FE BE 10 00 00 02 24
 (1652892906.033744)  can0  012   [8]  E8 03 10 00 00 00 00 00
 (1652892906.035834)  can0  014   [5]  00 00 00 10 27
 (1652892906.036318)  can0  1E5   [8]  1C FE BE 30 00 00 02 44
 (1652892906.043766)  can0  012   [8]  E8 03 10 00 00 00 00 00
 (1652892906.045826)  can0  014   [5]  00 00 00 10 27
 (1652892906.046317)  can0  1E5   [8]  1C FE BE 50 00 00 02 64
 (1652892906.053746)  can0  012   [8]  E8 03 10 00 00 00 00 00
 (1652892906.055825)  can0  014   [5]  00 00 00 10 27
 (1652892906.056318)  can0  1E5   [8]  1C FE BE 70 00 00 02 84
 (1652892906.063748)  can0  012   [8]  E8 03 10 00 00 00 00 00
 (1652892906.065826)  can0  014   [5]  00 00 00 10 27
 (1652892906.066328)  can0  1E5   [8]  1C FE BE 10 00 00 02 24
 (1652892906.073751)  can0  012   [8]  E8 03 10 00 00 00 00 00
 (1652892906.075826)  can0  014   [5]  00 00 00 10 27
 (1652892906.076333)  can0  1E5   [8]  1C FE BE 30 00 00 02 44
 (1652892906.083779)  can0  012   [8]  E8 03 10 00 00 00 00 00
 (1652892906.085827)  can0  014   [5]  00 00 00 10 27
 (1652892906.086325)  can0  1E5   [8]  1C FE BE 50 00 00 02 64
 (1652892906.093767)  can0  012   [8]  E8 03 10 00 00 00 00 00
 (1652892906.095825)  can0  014   [5]  00 00 00 10 27
 (1652892906.096324)  can0  1E5   [8]  1C FE BE 70 00 00 02 84
 (1652892906.103755)  can0  012   [8]  E8 03 10 00 00 00 00 00
 (1652892906.103862)  can0  010   [4]  26 73 00 00
 (1652892906.105837)  can0  014   [5]  00 00 00 13 27
 (1652892906.106323)  can0  1E5   [8]  1C FE BE 10 00 00 02 24
 (1652892906.113744)  can0  012   [8]  E8 03 10 00 00 00 00 00
 (1652892906.115836)  can0  014   [5]  00 00 00 0D 27
 (1652892906.116323)  can0  1E5   [8]  1C FE BE 30 00 00 02 44
 (1652892906.123741)  can0  012   [8]  E8 03 10 00 00 00 00 00
 (1652892906.125826)  can0  014   [5]  00 00 00 10 27
 (1652892906.126323)  can0  1E5   [8]  1C FE BE 50 00 00 02 64
 (1652892906.133744)  can0  012   [8]  E8 03 10 00 00 00 00 00
 (1652892906.135826)  can0  014   [5]  00 00 00 10 27
 (1652892906.136327)  can0  1E5   [8]  1C FE BE 70 00 00 02 84
 (1652892906.143767)  can0  012   [8]  E8 03 10 00 00 00 00 00
 (1652892906.145829)  can0  014   [5]  00 00 00 10 27
 (1652892906.146322)  can0  1E5   [8]  1C FE BD 10 00 00 02 23
 (1652892906.153742)  can0  012   [8]  E8 03 10 00 00 00 00 00
 (1652892906.155827)  can0  014   [5]  00 00 00 10 27
 (1652892906.156326)  can0  1E5   [8]  1C FE BE 30 00 00 02 44
 (1652892906.163739)  can0  012   [8]  E8 03 10 00 00 00 00 00
 (1652892906.165825)  can0  014   [5]  00 00 00 10 27
 (1652892906.166312)  can0  1E5   [8]  1C FE BD 50 00 00 02 63
 (1652892906.173744)  can0  012   [8]  E8 03 10 00 00 00 00 00
 (1652892906.175827)  can0  014   [5]  00 00 00 10 27
 (1652892906.176317)  can0  1E5   [8]  1C FE BE 70 00 00 02 84
 (1652892906.183784)  can0  012   [8]  E8 03 10 00 00 00 00 00
 (1652892906.185826)  can0  014   [5]  00 00 00 10 27
 (1652892906.186327)  can0  1E5   [8]  1C FE BE 10 00 00 02 24
 (1652892906.193764)  can0  012   [8]  E8 03 10 00 00 00 00 00
 (1652892906.195828)  can0  014   [5]  00 00 00 10 27
 (1652892906.196323)  can0  1E5   [8]  1C FE BE 30 00 00 02 44
 (1652892906.203750)  can0  012   [8]  E8 03 10 00 00 00 00 00
 (1652892906.203858)  can0  010   [4]  26 73 00 00
 (1652892906.205844)  can0  014   [5]  00 00 00 13 27
 (1652892906.206310)  can0  1E5   [8]  1C FE BE 50 00 00 02 64
 (1652892906.213749)  can0  012   [8]  E8 03 10 00 00 00 00 00
 (1652892906.215826)  can0  014   [5]  00 00 00 0D 27
 (1652892906.216316)  can0  1E5   [8]  1C FE BE 70 00 00 02 84
 (1652892906.223752)  can0  012   [8]  E8 03 10 00 00 00 00 00
 (1652892906.225822)  can0  014   [5]  00 00 00 10 27
 (1652892906.226318)  can0  1E5   [8]  1C FE BE 10 00 00 02 24
 (1652892906.233765)  can0  012   [8]  E8 03 10 00 00 00 00 00
 (1652892906.235827)  can0  014   [5]  00 00 00 10 27
 (1652892906.236323)  can0  1E5   [8]  1C FE BE 30 00 00 02 44
 (1652892906.243808)  can0  012   [8]  E8 03 10 00 00 00 00 00
 (1652892906.245825)  can0  014   [5]  00 00 00 10 27
 (1652892906.246311)  can0  1E5   [8]  1C FE BE 50 00 00 02 64
 (1652892906.253813)  can0  012   [8]  E8 03 10 00 00 00 00 00
 (1652892906.255833)  can0  014   [5]  00 00 00 10 27
 (1652892906.256315)  can0  1E5   [8]  1C FE BE 70 00 00 02 84
 (1652892906.263829)  can0  012   [8]  E8 03 10 00 00 00 00 00
 (1652892906.265836)  can0  014   [5]  00 00 00 10 27
 (1652892906.266318)  can0  1E5   [8]  1C FE BD 10 00 00 02 23
 (1652892906.273853)  can0  012   [8]  E8 03 10 00 00 00 00 00
 (1652892906.275846)  can0  014   [5]  00 00 00 10 27
 (1652892906.276322)  can0  1E5   [8]  1C FE BE 30 00 00 02 44
 (1652892906.283879)  can0  012   [8]  E8 03 10 00 00 00 00 00
 (1652892906.285879)  can0  014   [5]  00 00 00 10 27
 (1652892906.286310)  can0  1E5   [8]  1C FE BE 50 00 00 02 64
 (1652892906.293768)  can0  012   [8]  E8 03 10 00 00 00 00 00
 (1652892906.295891)  can0  014   [5]  00 00 00 10 27
 (1652892906.296316)  can0  1E5   [8]  1C FE BE 70 00 00 02 84
 (1652892906.303699)  can0  012   [8]  E8 03 10 00 00 00 00 00
 (1652892906.303869)  can0  010   [4]  26 73 00 00
 (1652892906.305660)  can0  014   [5]  00 00 00 13 27
 (1652892906.306341)  can0  1E5   [8]  1C FE BE 10 00 00 02 24
 (1652892906.313723)  can0  012   [8]  E8 03 10 00 00 00 00 00
 (1652892906.316020)  can0  014   [5]  00 00 00 0D 27
 (1652892906.316323)  can0  1E5   [8]  1C FE BE 30 00 00 02 44
 (1652892906.323724)  can0  012   [8]  E8 03 10 00 00 00 00 00
 (1652892906.325945)  can0  014   [5]  00 00 00 10 27
 (1652892906.326306)  can0  1E5   [8]  1C FE BE 50 00 00 02 64
 (1652892906.333755)  can0  012   [8]  E8 03 10 00 00 00 00 00
 (1652892906.335827)  can0  014   [5]  00 00 00 10 27
 (1652892906.336310)  can0  1E5   [8]  1C FE BE 70 00 00 02 84
 (1652892906.343762)  can0  012   [8]  E8 03 10 00 00 00 00 00
 (1652892906.345827)  can0  014   [5]  00 00 00 10 27
 (1652892906.346310)  can0  1E5   [8]  1C FE BE 10 00 00 02 24
 (1652892906.353735)  can0  012   [8]  E8 03 10 00 00 00 00 00
 (1652892906.355833)  can0  014   [5]  00 00 00 10 27
 (1652892906.356311)  can0  1E5   [8]  1C FE BE 30 00 00 02 44
 (1652892906.363725)  can0  012   [8]  E8 03 10 00 00 00 00 00
 (1652892906.365828)  can0  014   [5]  00 00 00 10 27
 (1652892906.366318)  can0  1E5   [8]  1C FE BE 50 00 00 02 64
 (1652892906.373743)  can0  012   [8]  E8 03 10 00 00 00 00 00
 (1652892906.375828)  can0  014   [5]  00 00 00 10 27
 (1652892906.376307)  can0  1E5   [8]  1C FE BE 70 00 00 02 84
 (1652892906.383743)  can0  012   [8]  E8 03 10 00 00 00 00 00
 (1652892906.385828)  can0  014   [5]  00 F0 FF 10 27
 (1652892906.386310)  can0  1E5   [8]  1C FE BE 10 00 00 02 24
 (1652892906.393776)  can0  012   [8]  E8 03 10 00 00 00 00 00
 (1652892906.395836)  can0  014   [5]  00 00 00 10 27
 (1652892906.396310)  can0  1E5   [8]  1C FE BE 30 00 00 02 44
 (1652892906.403748)  can0  012   [8]  E8 03 10 00 00 00 00 00
 (1652892906.403854)  can0  010   [4]  26 73 00 00
 (1652892906.405828)  can0  014   [5]  00 00 00 13 27
 (1652892906.406310)  can0  1E5   [8]  1C FE BE 50 00 00 02 64
 (1652892906.413751)  can0  012   [8]  E8 03 10 00 00 00 00 00
 (1652892906.415825)  can0  014   [5]  00 00 00 0D 27
 (1652892906.416304)  can0  1E5   [8]  1C FE BE 70 00 00 02 84
 (1652892906.423738)  can0  012   [8]  E8 03 10 00 00 00 00 00
 (1652892906.425823)  can0  014   [5]  00 00 00 10 27
 (1652892906.426306)  can0  1E5   [8]  1C FE BE 10 00 00 02 24
 (1652892906.433748)  can0  012   [8]  E8 03 10 00 00 00 00 00
 (1652892906.435834)  can0  014   [5]  00 00 00 10 27
 (1652892906.436314)  can0  1E5   [8]  1C FE BE 30 00 00 02 44
 (1652892906.443764)  can0  012   [8]  E8 03 10 00 00 00 00 00
 (1652892906.445669)  can0  014   [5]  FF 0F 00 10 27
 (1652892906.446313)  can0  1E5   [8]  1C FE BD 50 00 00 02 63
 (1652892906.453746)  can0  012   [8]  E8 03 10 00 00 00 00 00
 (1652892906.455830)  can0  014   [5]  00 00 00 10 27
 (1652892906.456311)  can0  1E5   [8]  1C FE BE 70 00 00 02 84
 (1652892906.463723)  can0  012   [8]  E8 03 10 00 00 00 00 00
 (1652892906.465822)  can0  014   [5]  00 00 00 10 27
 (1652892906.466324)  can0  1E5   [8]  1C FE BE 10 00 00 02 24
 (1652892906.473735)  can0  012   [8]  E8 03 10 00 00 00 00 00
 (1652892906.475827)  can0  014   [5]  00 00 00 10 27
 (1652892906.476304)  can0  1E5   [8]  1C FE BE 30 00 00 02 44
 (1652892906.483750)  can0  012   [8]  E8 03 10 00 00 00 00 00
 (1652892906.485834)  can0  014   [5]  00 00 00 10 27
 (1652892906.486310)  can0  1E5   [8]  1C FE BD 50 00 00 02 63
 (1652892906.493780)  can0  012   [8]  E8 03 10 00 00 00 00 00
 (1652892906.495835)  can0  014   [5]  00 00 00 10 27
 (1652892906.496310)  can0  1E5   [8]  1C FE BE 70 00 00 02 84
 (1652892906.503742)  can0  012   [8]  E8 03 10 00 00 00 00 00
 (1652892906.503843)  can0  010   [4]  26 73 00 00
 (1652892906.505823)  can0  014   [5]  00 00 00 13 27
 (1652892906.506312)  can0  1E5   [8]  1C FE BE 10 00 00 02 24
 (1652892906.513751)  can0  012   [8]  E8 03 10 00 00 00 00 00
 (1652892906.515827)  can0  014   [5]  00 00 00 0D 27
 (1652892906.516303)  can0  1E5   [8]  1C FE BE 30 00 00 02 44
 (1652892906.523730)  can0  012   [8]  E8 03 10 00 00 00 00 00
 (1652892906.525822)  can0  014   [5]  00 00 00 10 27
 (1652892906.526310)  can0  1E5   [8]  1C FE BE 50 00 00 02 64
 (1652892906.533742)  can0  012   [8]  E8 03 10 00 00 00 00 00
 (1652892906.535823)  can0  014   [5]  00 00 00 10 27
 (1652892906.536311)  can0  1E5   [8]  1C FE BE 70 00 00 02 84
 (1652892906.543765)  can0  012   [8]  E8 03 10 00 00 00 00 00
 (1652892906.545824)  can0  014   [5]  00 00 00 10 27
 (1652892906.546311)  can0  1E5   [8]  1C FE BE 10 00 00 02 24
 (1652892906.553737)  can0  012   [8]  E8 03 10 00 00 00 00 00
 (1652892906.555827)  can0  014   [5]  00 00 00 10 27
 (1652892906.556304)  can0  1E5   [8]  1C FE BE 30 00 00 02 44
 (1652892906.563743)  can0  012   [8]  E8 03 10 00 00 00 00 00
 (1652892906.565826)  can0  014   [5]  00 00 00 10 27
 (1652892906.566309)  can0  1E5   [8]  1C FE BE 50 00 00 02 64
 (1652892906.573748)  can0  012   [8]  E8 03 10 00 00 00 00 00
 (1652892906.575825)  can0  014   [5]  00 00 00 10 27
 (1652892906.576306)  can0  1E5   [8]  1C FE BD 70 00 00 02 83
 (1652892906.583750)  can0  012   [8]  E8 03 10 00 00 00 00 00
 (1652892906.585826)  can0  014   [5]  00 00 00 10 27
 (1652892906.586312)  can0  1E5   [8]  1C FE BE 10 00 00 02 24
 (1652892906.593757)  can0  012   [8]  E8 03 10 00 00 00 00 00
 (1652892906.595823)  can0  014   [5]  00 00 00 10 27
 (1652892906.596310)  can0  1E5   [8]  1C FE BE 30 00 00 02 44
 (1652892906.603744)  can0  012   [8]  E8 03 10 00 00 00 00 00
 (1652892906.603848)  can0  010   [4]  26 73 00 00
 (1652892906.605835)  can0  014   [5]  00 00 00 13 27
 (1652892906.606304)  can0  1E5   [8]  1C FE BE 50 00 00 02 64
 (1652892906.613740)  can0  012   [8]  E8 03 10 00 00 00 00 00
 (1652892906.615826)  can0  014   [5]  00 00 00 0D 27
 (1652892906.616308)  can0  1E5   [8]  1C FE BE 70 00 00 02 84
 (1652892906.623737)  can0  012   [8]  E8 03 10 00 00 00 00 00
 (1652892906.625827)  can0  014   [5]  00 00 00 10 27
 (1652892906.626311)  can0  1E5   [8]  1C FE BE 10 00 00 02 24
 (1652892906.633751)  can0  012   [8]  E8 03 10 00 00 00 00 00
 (1652892906.635828)  can0  014   [5]  00 00 00 10 27
 (1652892906.636304)  can0  1E5   [8]  1C FE BE 30 00 00 02 44
 (1652892906.643765)  can0  012   [8]  E8 03 10 00 00 00 00 00
 (1652892906.645827)  can0  014   [5]  00 00 00 10 27
 (1652892906.646304)  can0  1E5   [8]  1C FE BD 50 00 00 02 63
 (1652892906.653751)  can0  012   [8]  E8 03 10 00 00 00 00 00
 (1652892906.655836)  can0  014   [5]  00 00 00 10 27
 (1652892906.656305)  can0  1E5   [8]  1C FE BE 70 00 00 02 84
 (1652892906.663746)  can0  012   [8]  E8 03 10 00 00 00 00 00
