 (1652893046.784081)  can0  1E5   [8]  1C FE 3E 1F FC 00 02 AF
 (1652893046.794061)  can0  1E5   [8]  1C FE 3E 3F FC 00 02 CF
 (1652893046.795665)  can0  010   [4]  26 73 00 00
 (1652893046.804237)  can0  1E5   [8]  1C FE 3B 5F FA 00 02 EA
 (1652893046.814068)  can0  1E5   [8]  1C FE 3B 7F FA 00 03 0A
 (1652893046.824247)  can0  1E5   [8]  1C FE 3B 1F FA 00 02 AA
 (1652893046.834230)  can0  1E5   [8]  1C FE 3B 3F FA 00 02 CA
 (1652893046.844247)  can0  1E5   [8]  1C FE 3D 50 00 00 01 E3
 (1652893046.854238)  can0  1E5   [8]  1C FE 3E 70 01 00 02 05
 (1652893046.864253)  can0  1E5   [8]  1C FE 42 10 03 00 01 AB
 (1652893046.874277)  can0  1E5   [8]  1C FE 45 30 05 00 01 D0
 (1652893046.884258)  can0  1E5   [8]  1C FE 48 50 07 00 01 F5
 (1652893046.894230)  can0  1E5   [8]  1C FE 4B 70 09 00 02 1A
 (1652893046.895688)  can0  010   [4]  26 73 00 00
 (1652893046.904242)  can0  1E5   [8]  1C FE 4E 10 0B 00 01 BF
 (1652893046.914250)  can0  1E5   [8]  1C FE 52 30 0D 00 01 E5
 (1652893046.924252)  can0  1E5   [8]  1C FE 56 50 10 00 02 0C
 (1652893046.934250)  can0  1E5   [8]  1C FE 5A 70 12 00 02 32
 (1652893046.944264)  can0  1E5   [8]  1C FE 5B 10 13 00 01 D4
 (1652893046.954054)  can0  1E5   [8]  1C FE 5E 30 14 00 01 F8
 (1652893046.964310)  can0  1E5   [8]  1C FE 5E 50 12 00 02 16
 (1652893046.974116)  can0  1E5   [8]  1C FE 60 70 11 00 02 37
 (1652893046.984091)  can0  1E5   [8]  1C FE 60 10 0F 00 01 D5
 (1652893046.994070)  can0  1E5   [8]  1C FE 60 30 0D 00 01 F3
 (1652893046.995506)  can0  010   [4]  26 73 00 00
 (1652893047.004381)  can0  1E5   [8]  1C FE 5E 50 00 00 02 04
 (1652893047.014253)  can0  1E5   [8]  1C FE 5E 70 00 00 02 24
 (1652893047.024021)  can0  1E5   [8]  1C FE 5D 1F FF 00 02 D1
 (1652893047.034235)  can0  1E5   [8]  1C FE 5B 3F FE 00 02 EE
 (1652893047.044250)  can0  1E5   [8]  1C FE 5B 5F FE 00 03 0E
 (1652893047.054226)  can0  1E5   [8]  1C FE 5A 7F FD 00 03 2C
 (1652893047.064261)  can0  1E5   [8]  1C FE 58 1F FC 00 02 C9
 (1652893047.074254)  can0  1E5   [8]  1C FE 58 3F FC 00 02 E9
 (1652893047.084265)  can0  1E5   [8]  1C FE 56 5F FB 00 03 06
 (1652893047.094239)  can0  1E5   [8]  1C FE 56 7F FB 00 03 26
 (1652893047.095679)  can0  010   [4]  26 73 00 00
 (1652893047.104243)  can0  1E5   [8]  1C FE 56 1F FB 00 02 C6
 (1652893047.114235)  can0  1E5   [8]  1C FE 56 3F FB 00 02 E6
 (1652893047.124248)  can0  1E5   [8]  1C FE 56 5F FC 00 03 07
 (1652893047.134069)  can0  1E5   [8]  1C FE 56 7F FD 00 03 28
 (1652893047.144247)  can0  1E5   [8]  1C FE 58 10 00 00 01 BE
 (1652893047.154261)  can0  1E5   [8]  1C FE 58 30 00 00 01 DE
 (1652893047.164244)  can0  1E5   [8]  1C FE 5A 50 01 00 02 01
 (1652893047.174237)  can0  1E5   [8]  1C FE 5A 70 01 00 02 21
 (1652893047.184280)  can0  1E5   [8]  1C FE 5A 10 01 00 01 C1
 (1652893047.194241)  can0  1E5   [8]  1C FE 5B 30 02 00 01 E3
 (1652893047.195758)  can0  010   [4]  26 73 00 00
 (1652893047.204234)  can0  1E5   [8]  1C FE 5B 50 02 00 02 03
 (1652893047.214309)  can0  1E5   [8]  1C FE 5B 70 02 00 02 23
 (1652893047.224249)  can0  1E5   [8]  1C FE 5B 10 02 00 01 C3
 (1652893047.234236)  can0  1E5   [8]  1C FE 5B 30 02 00 01 E3
 (1652893047.244235)  can0  1E5   [8]  1C FE 5B 50 02 00 02 03
 (1652893047.254250)  can0  1E5   [8]  1C FE 5B 70 02 00 02 23
 (1652893047.264235)  can0  1E5   [8]  1C FE 5B 10 01 00 01 C2
 (1652893047.274219)  can0  1E5   [8]  1C FE 5B 30 01 00 01 E2
 (1652893047.284105)  can0  1E5   [8]  1C FE 5B 50 01 00 02 02
 (1652893047.294378)  can0  1E5   [8]  1C FE 5B 70 00 00 02 21
 (1652893047.295682)  can0  010   [4]  26 73 00 00
 (1652893047.304349)  can0  1E5   [8]  1C FE 5A 10 00 00 01 C0
 (1652893047.314050)  can0  1E5   [8]  1C FE 5A 30 00 00 01 E0
 (1652893047.324220)  can0  1E5   [8]  1C FE 5A 50 00 00 02 00
 (1652893047.334247)  can0  1E5   [8]  1C FE 5A 70 00 00 02 20
 (1652893047.344410)  can0  1E5   [8]  1C FE 5A 10 00 00 01 C0
 (1652893047.354242)  can0  1E5   [8]  1C FE 5A 30 00 00 01 E0
 (1652893047.364230)  can0  1E5   [8]  1C FE 5A 50 00 00 02 00
 (1652893047.374066)  can0  1E5   [8]  1C FE 5A 70 00 00 02 20
 (1652893047.384230)  can0  1E5   [8]  1C FE 5A 10 00 00 01 C0
 (1652893047.394259)  can0  1E5   [8]  1C FE 5A 30 00 00 01 E0
 (1652893047.395670)  can0  010   [4]  26 73 00 00
 (1652893047.404238)  can0  1E5   [8]  1C FE 5A 50 00 00 02 00
 (1652893047.414244)  can0  1E5   [8]  1C FE 5A 70 00 00 02 20
 (1652893047.424237)  can0  1E5   [8]  1C FE 5A 10 00 00 01 C0
 (1652893047.434255)  can0  1E5   [8]  1C FE 5A 30 00 00 01 E0
 (1652893047.444234)  can0  1E5   [8]  1C FE 5A 50 00 00 02 00
 (1652893047.454254)  can0  1E5   [8]  1C FE 5A 70 00 00 02 20
 (1652893047.464264)  can0  1E5   [8]  1C FE 5A 10 00 00 01 C0
 (1652893047.474277)  can0  1E5   [8]  1C FE 5A 30 00 00 01 E0
 (1652893047.484305)  can0  1E5   [8]  1C FE 5A 50 00 00 02 00
 (1652893047.494365)  can0  1E5   [8]  1C FE 5A 70 00 00 02 20
 (1652893047.495679)  can0  010   [4]  26 73 00 00
 (1652893047.504343)  can0  1E5   [8]  1C FE 5A 10 00 00 01 C0
 (1652893047.514365)  can0  1E5   [8]  1C FE 5A 30 00 00 01 E0
 (1652893047.524378)  can0  1E5   [8]  1C FE 5A 50 00 00 02 00
 (1652893047.534240)  can0  1E5   [8]  1C FE 5A 70 00 00 02 20
 (1652893047.544238)  can0  1E5   [8]  1C FE 5A 10 00 00 01 C0
 (1652893047.554230)  can0  1E5   [8]  1C FE 5A 30 00 00 01 E0
 (1652893047.564243)  can0  1E5   [8]  1C FE 5A 50 00 00 02 00
 (1652893047.574233)  can0  1E5   [8]  1C FE 5A 70 00 00 02 20
 (1652893047.584247)  can0  1E5   [8]  1C FE 5A 10 00 00 01 C0
 (1652893047.594279)  can0  1E5   [8]  1C FE 5A 30 00 00 01 E0
 (1652893047.595676)  can0  010   [4]  26 73 00 00
 (1652893047.604055)  can0  1E5   [8]  1C FE 5A 50 00 00 02 00
 (1652893047.614219)  can0  1E5   [8]  1C FE 5A 70 00 00 02 20
 (1652893047.624229)  can0  1E5   [8]  1C FE 5A 10 00 00 01 C0
 (1652893047.634230)  can0  1E5   [8]  1C FE 5A 30 00 00 01 E0
 (1652893047.644231)  can0  1E5   [8]  1C FE 5A 50 00 00 02 00
 (1652893047.654238)  can0  1E5   [8]  1C FE 5A 70 00 00 02 20
 (1652893047.664251)  can0  1E5   [8]  1C FE 5A 10 00 00 01 C0
 (1652893047.674205)  can0  1E5   [8]  1C FE 5A 30 00 00 01 E0
 (1652893047.684225)  can0  1E5   [8]  1C FE 5A 50 00 00 02 00
 (1652893047.694228)  can0  1E5   [8]  1C FE 5A 70 00 00 02 20
 (1652893047.695702)  can0  010   [4]  26 73 00 00
 (1652893047.695710)  can0  0E2   [2]  78 00
 (1652893047.704209)  can0  1E5   [8]  1C FE 5A 10 00 00 01 C0
 (1652893047.714236)  can0  1E5   [8]  1C FE 5A 30 00 00 01 E0
 (1652893047.724226)  can0  1E5   [8]  1C FE 5A 50 00 00 02 00
 (1652893047.734231)  can0  1E5   [8]  1C FE 5A 70 00 00 02 20
 (1652893047.744264)  can0  1E5   [8]  1C FE 5A 10 00 00 01 C0
 (1652893047.754283)  can0  1E5   [8]  1C FE 5A 30 00 00 01 E0
 (1652893047.764236)  can0  1E5   [8]  1C FE 5A 50 00 00 02 00
 (1652893047.774008)  can0  1E5   [8]  1C FE 5A 70 00 00 02 20
 (1652893047.784234)  can0  1E5   [8]  1C FE 5A 10 00 00 01 C0
 (1652893047.794350)  can0  1E5   [8]  1C FE 5A 30 00 00 01 E0
 (1652893047.795653)  can0  010   [4]  26 73 00 00
 (1652893047.804344)  can0  1E5   [8]  1C FE 5A 50 00 00 02 00
 (1652893047.814221)  can0  1E5   [8]  1C FE 5A 70 00 00 02 20
 (1652893047.824225)  can0  1E5   [8]  1C FE 5A 10 00 00 01 C0
 (1652893047.834210)  can0  1E5   [8]  1C FE 5A 30 00 00 01 E0
 (1652893047.844209)  can0  1E5   [8]  1C FE 5A 50 00 00 02 00
 (1652893047.854231)  can0  1E5   [8]  1C FE 5A 70 00 00 02 20
 (1652893047.864219)  can0  1E5   [8]  1C FE 5A 10 00 00 01 C0
 (1652893047.874236)  can0  1E5   [8]  1C FE 5A 30 00 00 01 E0
 (1652893047.884209)  can0  1E5   [8]  1C FE 5A 50 00 00 02 00
 (1652893047.894217)  can0  1E5   [8]  1C FE 5A 70 00 00 02 20
 (1652893047.895670)  can0  010   [4]  26 73 00 00
 (1652893047.904210)  can0  1E5   [8]  1C FE 5A 10 00 00 01 C0
 (1652893047.914253)  can0  1E5   [8]  1C FE 5A 30 00 00 01 E0
 (1652893047.924219)  can0  1E5   [8]  1C FE 5A 50 00 00 02 00
 (1652893047.934224)  can0  1E5   [8]  1C FE 5A 70 00 00 02 20
 (1652893047.944220)  can0  1E5   [8]  1C FE 5A 10 00 00 01 C0
 (1652893047.954246)  can0  1E5   [8]  1C FE 5A 30 00 00 01 E0
 (1652893047.964225)  can0  1E5   [8]  1C FE 5A 50 00 00 02 00
 (1652893047.974239)  can0  1E5   [8]  1C FE 5A 70 00 00 02 20
 (1652893047.984234)  can0  1E5   [8]  1C FE 5A 10 00 00 01 C0
 (1652893047.994280)  can0  1E5   [8]  1C FE 5A 30 00 00 01 E0
 (1652893047.995690)  can0  010   [4]  26 73 00 00
 (1652893048.004297)  can0  1E5   [8]  1C FE 5A 50 00 00 02 00
 (1652893048.014272)  can0  1E5   [8]  1C FE 5A 70 00 00 02 20
 (1652893048.024338)  can0  1E5   [8]  1C FE 5A 10 00 00 01 C0
 (1652893048.034362)  can0  1E5   [8]  1C FE 5A 30 00 00 01 E0
 (1652893048.044053)  can0  1E5   [8]  1C FE 5A 50 00 00 02 00
 (1652893048.054237)  can0  1E5   [8]  1C FE 5A 70 00 00 02 20
 (1652893048.064233)  can0  1E5   [8]  1C FE 5A 10 00 00 01 C0
 (1652893048.074196)  can0  1E5   [8]  1C FE 5A 30 00 00 01 E0
 (1652893048.084208)  can0  1E5   [8]  1C FE 5A 50 00 00 02 00
 (1652893048.094218)  can0  1E5   [8]  1C FE 5A 70 00 00 02 20
 (1652893048.095675)  can0  010   [4]  26 73 00 00
 (1652893048.104213)  can0  1E5   [8]  1C FE 5A 10 00 00 01 C0
 (1652893048.114235)  can0  1E5   [8]  1C FE 5A 30 00 00 01 E0
 (1652893048.124218)  can0  1E5   [8]  1C FE 5A 50 00 00 02 00
 (1652893048.134202)  can0  1E5   [8]  1C FE 5A 70 00 00 02 20
 (1652893048.144211)  can0  1E5   [8]  1C FE 5A 10 00 00 01 C0
 (1652893048.154230)  can0  1E5   [8]  1C FE 5A 30 00 00 01 E0
 (1652893048.164224)  can0  1E5   [8]  1C FE 5A 50 00 00 02 00
 (1652893048.174219)  can0  1E5   [8]  1C FE 5A 70 00 00 02 20
 (1652893048.184212)  can0  1E5   [8]  1C FE 5A 10 00 00 01 C0
 (1652893048.194211)  can0  1E5   [8]  1C FE 5A 30 00 00 01 E0
 (1652893048.195684)  can0  010   [4]  26 73 00 00
 (1652893048.204204)  can0  1E5   [8]  1C FE 5A 50 00 00 02 00
 (1652893048.214220)  can0  1E5   [8]  1C FE 5A 70 00 00 02 20
 (1652893048.224194)  can0  1E5   [8]  1C FE 58 1F FF 00 02 CC
 (1652893048.234213)  can0  1E5   [8]  1C FE 58 3F FF 00 02 EC
 (1652893048.244211)  can0  1E5   [8]  1C FE 5A 50 00 00 02 00
 (1652893048.254215)  can0  1E5   [8]  1C FE 5A 70 00 00 02 20
 (1652893048.264222)  can0  1E5   [8]  1C FE 5A 10 00 00 01 C0
 (1652893048.274162)  can0  1E5   [8]  1C FE 58 30 00 00 01 DE
 (1652893048.284218)  can0  1E5   [8]  1C FE 5A 50 00 00 02 00
 (1652893048.294219)  can0  1E5   [8]  1C FE 5A 70 00 00 02 20
 (1652893048.295677)  can0  010   [4]  26 73 00 00
 (1652893048.304203)  can0  1E5   [8]  1C FE 58 10 00 00 01 BE
 (1652893048.314207)  can0  1E5   [8]  1C FE 58 30 00 00 01 DE
 (1652893048.324002)  can0  1E5   [8]  1C FE 5A 50 00 00 02 00
 (1652893048.334344)  can0  1E5   [8]  1C FE 5A 70 00 00 02 20
 (1652893048.344356)  can0  1E5   [8]  1C FE 5A 10 00 00 01 C0
 (1652893048.354203)  can0  1E5   [8]  1C FE 5A 30 00 00 01 E0
 (1652893048.364208)  can0  1E5   [8]  1C FE 58 50 00 00 01 FE
 (1652893048.374221)  can0  1E5   [8]  1C FE 5A 70 00 00 02 20
 (1652893048.384219)  can0  1E5   [8]  1C FE 58 10 00 00 01 BE
 (1652893048.394202)  can0  1E5   [8]  1C FE 5A 30 00 00 01 E0
 (1652893048.395671)  can0  010   [4]  26 73 00 00
 (1652893048.404202)  can0  1E5   [8]  1C FE 58 50 00 00 01 FE
 (1652893048.414209)  can0  1E5   [8]  1C FE 58 70 00 00 02 1E
 (1652893048.424235)  can0  1E5   [8]  1C FE 5A 10 00 00 01 C0
 (1652893048.434201)  can0  1E5   [8]  1C FE 58 30 00 00 01 DE
 (1652893048.444203)  can0  1E5   [8]  1C FE 5A 50 00 00 02 00
 (1652893048.454212)  can0  1E5   [8]  1C FE 5A 70 00 00 02 20
 (1652893048.464213)  can0  1E5   [8]  1C FE 5A 10 00 00 01 C0
 (1652893048.474210)  can0  1E5   [8]  1C FE 5A 30 00 00 01 E0
 (1652893048.484191)  can0  1E5   [8]  1C FE 5A 50 00 00 02 00
 (1652893048.494235)  can0  1E5   [8]  1C FE 5A 70 00 00 02 20
 (1652893048.495664)  can0  010   [4]  26 73 00 00
 (1652893048.504254)  can0  1E5   [8]  1C FE 58 10 00 00 01 BE
 (1652893048.514284)  can0  1E5   [8]  1C FE 58 30 00 00 01 DE
 (1652893048.524299)  can0  1E5   [8]  1C FE 5A 50 00 00 02 00
 (1652893048.534350)  can0  1E5   [8]  1C FE 5A 70 00 00 02 20
 (1652893048.544342)  can0  1E5   [8]  1C FE 58 10 00 00 01 BE
 (1652893048.554211)  can0  1E5   [8]  1C FE 58 30 00 00 01 DE
 (1652893048.564234)  can0  1E5   [8]  1C FE 58 50 00 00 01 FE
 (1652893048.574208)  can0  1E5   [8]  1C FE 5A 70 00 00 02 20
 (1652893048.584202)  can0  1E5   [8]  1C FE 5A 10 00 00 01 C0
 (1652893048.594193)  can0  1E5   [8]  1C FE 5A 30 00 00 01 E0
 (1652893048.595669)  can0  010   [4]  26 73 00 00
 (1652893048.604201)  can0  1E5   [8]  1C FE 5A 50 00 00 02 00
 (1652893048.614138)  can0  1E5   [8]  1C FE 58 70 00 00 02 1E
 (1652893048.624203)  can0  1E5   [8]  1C FE 5A 10 00 00 01 C0
 (1652893048.634227)  can0  1E5   [8]  1C FE 5A 30 00 00 01 E0
 (1652893048.644201)  can0  1E5   [8]  1C FE 5A 50 00 00 02 00
 (1652893048.654202)  can0  1E5   [8]  1C FE 58 70 00 00 02 1E
 (1652893048.664205)  can0  1E5   [8]  1C FE 5A 10 00 00 01 C0
 (1652893048.674194)  can0  1E5   [8]  1C FE 58 30 00 00 01 DE
 (1652893048.684207)  can0  1E5   [8]  1C FE 5A 50 00 00 02 00
 (1652893048.694201)  can0  1E5   [8]  1C FE 58 70 00 00 02 1E
 (1652893048.695614)  can0  010   [4]  26 73 00 00
 (1652893048.695622)  can0  0E2   [2]  A0 00
 (1652893048.704179)  can0  1E5   [8]  1C FE 5A 10 00 00 01 C0
 (1652893048.714188)  can0  1E5   [8]  1C FE 58 30 00 00 01 DE
 (1652893048.724202)  can0  1E5   [8]  1C FE 5A 50 00 00 02 00
 (1652893048.734211)  can0  1E5   [8]  1C FE 5A 70 00 00 02 20
 (1652893048.744189)  can0  1E5   [8]  1C FE 58 10 00 00 01 BE
 (1652893048.754214)  can0  1E5   [8]  1C FE 5A 30 00 00 01 E0
 (1652893048.764194)  can0  1E5   [8]  1C FE 58 50 00 00 01 FE
 (1652893048.774022)  can0  1E5   [8]  1C FE 5A 70 00 00 02 20
 (1652893048.783992)  can0  1E5   [8]  1C FE 5A 10 00 00 01 C0
 (1652893048.793994)  can0  1E5   [8]  1C FE 58 30 00 00 01 DE
 (1652893048.795505)  can0  010   [4]  26 73 00 00
 (1652893048.804014)  can0  1E5   [8]  1C FE 58 50 00 00 01 FE
 (1652893048.814023)  can0  1E5   [8]  1C FE 5A 70 00 00 02 20
 (1652893048.824017)  can0  1E5   [8]  1C FE 58 10 00 00 01 BE
 (1652893048.834012)  can0  1E5   [8]  1C FE 5A 30 00 00 01 E0
 (1652893048.843998)  can0  1E5   [8]  1C FE 5A 50 00 00 02 00
 (1652893048.854015)  can0  1E5   [8]  1C FE 5A 70 00 00 02 20
 (1652893048.864023)  can0  1E5   [8]  1C FE 5A 10 00 00 01 C0
 (1652893048.874012)  can0  1E5   [8]  1C FE 5A 30 00 00 01 E0
 (1652893048.884017)  can0  1E5   [8]  1C FE 5A 50 00 00 02 00
 (1652893048.894003)  can0  1E5   [8]  1C FE 5A 70 00 00 02 20
 (1652893048.895511)  can0  010   [4]  26 73 00 00
 (1652893048.904014)  can0  1E5   [8]  1C FE 58 10 00 00 01 BE
 (1652893048.914008)  can0  1E5   [8]  1C FE 58 30 00 00 01 DE
 (1652893048.924018)  can0  1E5   [8]  1C FE 5A 50 00 00 02 00
 (1652893048.934022)  can0  1E5   [8]  1C FE 58 70 00 00 02 1E
 (1652893048.944008)  can0  1E5   [8]  1C FE 5A 10 00 00 01 C0
 (1652893048.954017)  can0  1E5   [8]  1C FE 5A 30 00 00 01 E0
 (1652893048.964013)  can0  1E5   [8]  1C FE 5A 50 00 00 02 00
 (1652893048.974017)  can0  1E5   [8]  1C FE 5A 70 00 00 02 20
 (1652893048.984020)  can0  1E5   [8]  1C FE 5A 10 00 00 01 C0
 (1652893048.994008)  can0  1E5   [8]  1C FE 58 30 00 00 01 DE
 (1652893048.995504)  can0  010   [4]  26 73 00 00
 (1652893049.004016)  can0  1E5   [8]  1C FE 5A 50 00 00 02 00
 (1652893049.014000)  can0  1E5   [8]  1C FE 58 70 00 00 02 1E
 (1652893049.024018)  can0  1E5   [8]  1C FE 58 10 00 00 01 BE
 (1652893049.034018)  can0  1E5   [8]  1C FE 5A 30 00 00 01 E0
 (1652893049.044060)  can0  1E5   [8]  1C FE 5A 50 00 00 02 00
 (1652893049.054013)  can0  1E5   [8]  1C FE 58 70 00 00 02 1E
 (1652893049.064005)  can0  1E5   [8]  1C FE 5A 10 00 00 01 C0
 (1652893049.074012)  can0  1E5   [8]  1C FE 5A 30 00 00 01 E0
 (1652893049.084006)  can0  1E5   [8]  1C FE 58 50 00 00 01 FE
 (1652893049.090920)  can0  0F0   [1]  01
 (1652893049.092106)  can0  011   [2]  0C 01
 (1652893049.093956)  can0  1E5   [8]  1C FE 5A 70 00 00 02 20
 (1652893049.095498)  can0  010   [4]  39 8F 0C 00
 (1652893049.103972)  can0  1E5   [8]  1C FE 58 10 00 00 01 BE
 (1652893049.114001)  can0  1E5   [8]  1C FE 5A 30 00 00 01 E0
 (1652893049.123961)  can0  1E5   [8]  1C FE 5A 50 00 00 02 00
 (1652893049.134230)  can0  1E5   [8]  1C FE 58 70 00 00 02 1E
 (1652893049.143989)  can0  1E5   [8]  1C FE 58 10 00 00 01 BE
 (1652893049.154004)  can0  1E5   [8]  1C FE 5A 30 00 00 01 E0
 (1652893049.164009)  can0  1E5   [8]  1C FE 5A 50 00 00 02 00
 (1652893049.174001)  can0  1E5   [8]  1C FE 58 70 00 00 02 1E
 (1652893049.184294)  can0  1E5   [8]  1C FE 58 10 00 00 01 BE
 (1652893049.194146)  can0  1E5   [8]  1C FE 58 30 00 00 01 DE
 (1652893049.195666)  can0  010   [4]  39 8F 0C 00
 (1652893049.204009)  can0  1E5   [8]  1C FE 5A 50 00 00 02 00
 (1652893049.214007)  can0  1E5   [8]  1C FE 5A 70 00 00 02 20
 (1652893049.223987)  can0  1E5   [8]  1C FE 5A 10 00 00 01 C0
 (1652893049.233995)  can0  1E5   [8]  1C FE 58 30 00 00 01 DE
 (1652893049.243979)  can0  1E5   [8]  1C FE 5A 50 00 00 02 00
 (1652893049.253969)  can0  1E5   [8]  1C FE 5A 70 00 00 02 20
 (1652893049.263995)  can0  1E5   [8]  1C FE 58 10 00 00 01 BE
 (1652893049.273974)  can0  1E5   [8]  1C FE 58 30 00 00 01 DE
 (1652893049.284013)  can0  1E5   [8]  1C FE 5A 50 00 00 02 00
 (1652893049.294013)  can0  1E5   [8]  1C FE 5A 70 00 00 02 20
 (1652893049.295834)  can0  010   [4]  39 8F 0C 00
 (1652893049.303991)  can0  1E5   [8]  1C FE 5A 10 00 00 01 C0
 (1652893049.314007)  can0  1E5   [8]  1C FE 5A 30 00 00 01 E0
 (1652893049.323977)  can0  1E5   [8]  1C FE 5A 50 00 00 02 00
 (1652893049.334005)  can0  1E5   [8]  1C FE 5A 70 00 00 02 20
 (1652893049.343999)  can0  1E5   [8]  1C FE 58 10 00 00 01 BE
 (1652893049.354004)  can0  1E5   [8]  1C FE 5A 30 00 00 01 E0
 (1652893049.364001)  can0  1E5   [8]  1C FE 5A 50 00 00 02 00
 (1652893049.373961)  can0  1E5   [8]  1C FE 58 70 00 00 02 1E
 (1652893049.383993)  can0  1E5   [8]  1C FE 5A 10 00 00 01 C0
 (1652893049.393997)  can0  1E5   [8]  1C FE 58 30 00 00 01 DE
 (1652893049.395660)  can0  010   [4]  39 8F 0C 00
 (1652893049.403987)  can0  1E5   [8]  1C FE 58 50 00 00 01 FE
 (1652893049.413997)  can0  1E5   [8]  1C FE 5A 70 00 00 02 20
 (1652893049.423983)  can0  1E5   [8]  1C FE 5A 10 00 00 01 C0
 (1652893049.433985)  can0  1E5   [8]  1C FE 58 30 00 00 01 DE
 (1652893049.443971)  can0  1E5   [8]  1C FE 5A 50 00 00 02 00
 (1652893049.453955)  can0  1E5   [8]  1C FE 5A 70 00 00 02 20
 (1652893049.463994)  can0  1E5   [8]  1C FE 5A 10 00 00 01 C0
 (1652893049.473995)  can0  1E5   [8]  1C FE 5A 30 00 00 01 E0
 (1652893049.483974)  can0  1E5   [8]  1C FE 5A 50 00 00 02 00
 (1652893049.493977)  can0  1E5   [8]  1C FE 5A 70 00 00 02 20
 (1652893049.495498)  can0  010   [4]  39 8F 0C 00
 (1652893049.503988)  can0  1E5   [8]  1C FE 5A 10 00 00 01 C0
 (1652893049.513985)  can0  1E5   [8]  1C FE 58 30 00 00 01 DE
 (1652893049.523967)  can0  1E5   [8]  1C FE 5A 50 00 00 02 00
 (1652893049.533966)  can0  1E5   [8]  1C FE 5A 70 00 00 02 20
 (1652893049.543988)  can0  1E5   [8]  1C FE 5A 10 00 00 01 C0
 (1652893049.553959)  can0  1E5   [8]  1C FE 5A 30 00 00 01 E0
 (1652893049.564038)  can0  1E5   [8]  1C FE 5A 50 00 00 02 00
 (1652893049.573951)  can0  1E5   [8]  1C FE 5A 70 00 00 02 20
 (1652893049.583992)  can0  1E5   [8]  1C FE 5A 10 00 00 01 C0
 (1652893049.593983)  can0  1E5   [8]  1C FE 5A 30 00 00 01 E0
 (1652893049.595648)  can0  010   [4]  39 8F 0C 00
 (1652893049.603957)  can0  1E5   [8]  1C FE 58 50 00 00 01 FE
 (1652893049.613985)  can0  1E5   [8]  1C FE 5A 70 00 00 02 20
 (1652893049.623966)  can0  1E5   [8]  1C FE 58 10 00 00 01 BE
 (1652893049.633996)  can0  1E5   [8]  1C FE 5A 30 00 00 01 E0
 (1652893049.643993)  can0  1E5   [8]  1C FE 5A 50 00 00 02 00
 (1652893049.653955)  can0  1E5   [8]  1C FE 5A 70 00 00 02 20
 (1652893049.663991)  can0  1E5   [8]  1C FE 5A 10 00 00 01 C0
 (1652893049.673999)  can0  1E5   [8]  1C FE 5A 30 00 00 01 E0
 (1652893049.683984)  can0  1E5   [8]  1C FE 58 50 00 00 01 FE
 (1652893049.693985)  can0  1E5   [8]  1C FE 58 70 00 00 02 1E
 (1652893049.695645)  can0  010   [4]  39 8F 0C 00
 (1652893049.695654)  can0  0E2   [2]  CA 00
 (1652893049.703953)  can0  1E5   [8]  1C FE 5A 10 00 00 01 C0
 (1652893049.713993)  can0  1E5   [8]  1C FE 5A 30 00 00 01 E0
 (1652893049.723978)  can0  1E5   [8]  1C FE 5A 50 00 00 02 00
 (1652893049.733995)  can0  1E5   [8]  1C FE 58 70 00 00 02 1E
 (1652893049.743954)  can0  1E5   [8]  1C FE 5A 10 00 00 01 C0
 (1652893049.753968)  can0  1E5   [8]  1C FE 5A 30 00 00 01 E0
 (1652893049.763984)  can0  1E5   [8]  1C FE 5A 50 00 00 02 00
 (1652893049.773966)  can0  1E5   [8]  1C FE 5A 70 00 00 02 20
 (1652893049.783989)  can0  1E5   [8]  1C FE 58 10 00 00 01 BE
 (1652893049.793989)  can0  1E5   [8]  1C FE 5A 30 00 00 01 E0
 (1652893049.795811)  can0  010   [4]  39 8F 0C 01
 (1652893049.803981)  can0  1E5   [8]  1C FE 5A 50 00 00 02 00
 (1652893049.813955)  can0  1E5   [8]  1C FE 5A 70 00 00 02 20
 (1652893049.823947)  can0  1E5   [8]  1C FE 5A 10 00 00 01 C0
 (1652893049.833978)  can0  1E5   [8]  1C FE 5A 30 00 00 01 E0
 (1652893049.843982)  can0  1E5   [8]  1C FE 5A 50 00 00 02 00
 (1652893049.853953)  can0  1E5   [8]  1C FE 5A 70 00 00 02 20
 (1652893049.863982)  can0  1E5   [8]  1C FE 58 10 00 00 01 BE
 (1652893049.873931)  can0  1E5   [8]  1C FE 5A 30 00 00 01 E0
 (1652893049.883983)  can0  1E5   [8]  1C FE 5A 50 00 00 02 00
 (1652893049.893988)  can0  1E5   [8]  1C FE 58 70 00 00 02 1E
 (1652893049.895642)  can0  010   [4]  39 8F 0C 01
 (1652893049.903951)  can0  1E5   [8]  1C FE 58 10 00 00 01 BE
 (1652893049.913990)  can0  1E5   [8]  1C FE 58 30 00 00 01 DE
 (1652893049.923943)  can0  1E5   [8]  1C FE 58 50 00 00 01 FE
 (1652893049.933974)  can0  1E5   [8]  1C FE 58 70 00 00 02 1E
 (1652893049.943979)  can0  1E5   [8]  1C FE 58 10 00 00 01 BE
 (1652893049.953944)  can0  1E5   [8]  1C FE 56 3F FF 00 02 EA
 (1652893049.963981)  can0  1E5   [8]  1C FE 58 50 00 00 01 FE
 (1652893049.973951)  can0  1E5   [8]  1C FE 58 70 00 00 02 1E
 (1652893049.984024)  can0  1E5   [8]  1C FE 58 10 00 00 01 BE
 (1652893049.993967)  can0  1E5   [8]  1C FE 58 30 00 00 01 DE
 (1652893049.995493)  can0  010   [4]  39 8F 0C 01
 (1652893050.003950)  can0  1E5   [8]  1C FE 58 50 00 00 01 FE
 (1652893050.013972)  can0  1E5   [8]  1C FE 58 70 00 00 02 1E
 (1652893050.023954)  can0  1E5   [8]  1C FE 58 10 00 00 01 BE
 (1652893050.033973)  can0  1E5   [8]  1C FE 5A 30 01 00 01 E1
 (1652893050.043977)  can0  1E5   [8]  1C FE 58 50 00 00 01 FE
 (1652893050.053967)  can0  1E5   [8]  1C FE 5A 70 00 00 02 20
 (1652893050.063987)  can0  1E5   [8]  1C FE 5A 10 00 00 01 C0
 (1652893050.073958)  can0  1E5   [8]  1C FE 5A 30 00 00 01 E0
 (1652893050.083951)  can0  1E5   [8]  1C FE 5A 50 00 00 02 00
 (1652893050.093949)  can0  1E5   [8]  1C FE 5A 70 00 00 02 20
 (1652893050.095461)  can0  010   [4]  39 8F 0C 01
 (1652893050.103986)  can0  1E5   [8]  1C FE 5A 10 00 00 01 C0
 (1652893050.113967)  can0  1E5   [8]  1C FE 58 30 00 00 01 DE
 (1652893050.124001)  can0  1E5   [8]  1C FE 58 50 00 00 01 FE
 (1652893050.133968)  can0  1E5   [8]  1C FE 5A 70 00 00 02 20
 (1652893050.143974)  can0  1E5   [8]  1C FE 58 10 00 00 01 BE
 (1652893050.153972)  can0  1E5   [8]  1C FE 58 30 00 00 01 DE
 (1652893050.163979)  can0  1E5   [8]  1C FE 58 50 00 00 01 FE
 (1652893050.173967)  can0  1E5   [8]  1C FE 58 70 00 00 02 1E
 (1652893050.183983)  can0  1E5   [8]  1C FE 58 10 00 00 01 BE
 (1652893050.193968)  can0  1E5   [8]  1C FE 58 30 00 00 01 DE
 (1652893050.195644)  can0  010   [4]  39 8F 0C 01
 (1652893050.203952)  can0  1E5   [8]  1C FE 58 50 00 00 01 FE
 (1652893050.213943)  can0  1E5   [8]  1C FE 58 70 00 00 02 1E
 (1652893050.223947)  can0  1E5   [8]  1C FE 58 10 00 00 01 BE
 (1652893050.234277)  can0  1E5   [8]  1C FE 58 30 00 00 01 DE
 (1652893050.243968)  can0  1E5   [8]  1C FE 58 50 00 00 01 FE
 (1652893050.253943)  can0  1E5   [8]  1C FE 58 70 00 00 02 1E
 (1652893050.263979)  can0  1E5   [8]  1C FE 58 10 00 00 01 BE
 (1652893050.273937)  can0  1E5   [8]  1C FE 58 30 00 00 01 DE
 (1652893050.284399)  can0  1E5   [8]  1C FE 58 50 00 00 01 FE
 (1652893050.293969)  can0  1E5   [8]  1C FE 58 70 00 00 02 1E
 (1652893050.295772)  can0  010   [4]  39 8F 0C 01
 (1652893050.303972)  can0  1E5   [8]  1C FE 58 10 00 00 01 BE
 (1652893050.313958)  can0  1E5   [8]  1C FE 58 30 00 00 01 DE
 (1652893050.323972)  can0  1E5   [8]  1C FE 58 50 00 00 01 FE
 (1652893050.333942)  can0  1E5   [8]  1C FE 58 70 00 00 02 1E
 (1652893050.344090)  can0  1E5   [8]  1C FE 58 10 00 00 01 BE
 (1652893050.353968)  can0  1E5   [8]  1C FE 58 30 00 00 01 DE
 (1652893050.363967)  can0  1E5   [8]  1C FE 58 50 00 00 01 FE
 (1652893050.373962)  can0  1E5   [8]  1C FE 58 70 00 00 02 1E
 (1652893050.383963)  can0  1E5   [8]  1C FE 58 10 00 00 01 BE
 (1652893050.393973)  can0  1E5   [8]  1C FE 58 30 00 00 01 DE
 (1652893050.395651)  can0  010   [4]  39 8F 0C 01
 (1652893050.403957)  can0  1E5   [8]  1C FE 58 50 00 00 01 FE
 (1652893050.413948)  can0  1E5   [8]  1C FE 58 70 00 00 02 1E
 (1652893050.423982)  can0  1E5   [8]  1C FE 58 10 00 00 01 BE
 (1652893050.433961)  can0  1E5   [8]  1C FE 58 30 00 00 01 DE
 (1652893050.443952)  can0  1E5   [8]  1C FE 58 50 00 00 01 FE
 (1652893050.453941)  can0  1E5   [8]  1C FE 58 70 00 00 02 1E
 (1652893050.463961)  can0  1E5   [8]  1C FE 58 10 00 00 01 BE
 (1652893050.473957)  can0  1E5   [8]  1C FE 58 30 00 00 01 DE
 (1652893050.483965)  can0  1E5   [8]  1C FE 56 5F FF 00 03 0A
 (1652893050.493970)  can0  1E5   [8]  1C FE 58 70 00 00 02 1E
 (1652893050.495639)  can0  010   [4]  39 8F 0C 01
 (1652893050.503971)  can0  1E5   [8]  1C FE 58 10 00 00 01 BE
 (1652893050.513961)  can0  1E5   [8]  1C FE 58 30 00 00 01 DE
 (1652893050.523926)  can0  1E5   [8]  1C FE 58 50 00 00 01 FE
 (1652893050.533964)  can0  1E5   [8]  1C FE 56 70 00 00 02 1C
 (1652893050.543961)  can0  1E5   [8]  1C FE 56 10 00 00 01 BC
 (1652893050.553975)  can0  1E5   [8]  1C FE 56 30 00 00 01 DC
 (1652893050.563964)  can0  1E5   [8]  1C FE 56 50 00 00 01 FC
 (1652893050.573932)  can0  1E5   [8]  1C FE 56 70 00 00 02 1C
 (1652893050.583970)  can0  1E5   [8]  1C FE 56 10 00 00 01 BC
 (1652893050.593961)  can0  1E5   [8]  1C FE 56 30 00 00 01 DC
 (1652893050.595639)  can0  010   [4]  39 8F 0C 01
 (1652893050.603965)  can0  1E5   [8]  1C FE 56 50 00 00 01 FC
 (1652893050.613931)  can0  1E5   [8]  1C FE 56 70 00 00 02 1C
 (1652893050.623938)  can0  1E5   [8]  1C FE 56 10 00 00 01 BC
 (1652893050.633956)  can0  1E5   [8]  1C FE 55 3F FF 00 02 E9
 (1652893050.643940)  can0  1E5   [8]  1C FE 55 5F FF 00 03 09
 (1652893050.653927)  can0  1E5   [8]  1C FE 55 7F FF 00 03 29
 (1652893050.663924)  can0  1E5   [8]  1C FE 55 1F FF 00 02 C9
 (1652893050.673929)  can0  1E5   [8]  1C FE 55 3F FF 00 02 E9
 (1652893050.684211)  can0  1E5   [8]  1C FE 55 5F FF 00 03 09
 (1652893050.693937)  can0  1E5   [8]  1C FE 55 7F FF 00 03 29
 (1652893050.695471)  can0  010   [4]  39 8F 0C 01
 (1652893050.695557)  can0  0E2   [2]  F2 00
 (1652893050.703952)  can0  1E5   [8]  1C FE 55 1F FF 00 02 C9
 (1652893050.713997)  can0  1E5   [8]  1C FE 53 3F FE 00 02 E6
 (1652893050.723959)  can0  1E5   [8]  1C FE 53 5F FE 00 03 06
 (1652893050.733966)  can0  1E5   [8]  1C FE 53 7F FF 00 03 27
 (1652893050.743953)  can0  1E5   [8]  1C FE 53 1F FF 00 02 C7
 (1652893050.753954)  can0  1E5   [8]  1C FE 53 3F FF 00 02 E7
 (1652893050.763956)  can0  1E5   [8]  1C FE 53 5F FF 00 03 07
 (1652893050.773959)  can0  1E5   [8]  1C FE 52 7F FE 00 03 25
 (1652893050.783944)  can0  1E5   [8]  1C FE 52 1F FE 00 02 C5
 (1652893050.793933)  can0  1E5   [8]  1C FE 52 3F FE 00 02 E5
 (1652893050.795486)  can0  010   [4]  39 8F 0C 01
 (1652893050.804081)  can0  1E5   [8]  1C FE 50 5F FD 00 03 02
 (1652893050.813932)  can0  1E5   [8]  1C FE 50 7F FE 00 03 23
 (1652893050.823913)  can0  1E5   [8]  1C FE 4E 1F FD 00 02 C0
 (1652893050.833934)  can0  1E5   [8]  1C FE 4E 3F FD 00 02 E0
 (1652893050.843942)  can0  1E5   [8]  1C FE 4D 5F FC 00 02 FE
 (1652893050.853928)  can0  1E5   [8]  1C FE 4D 7F FC 00 03 1E
 (1652893050.863925)  can0  1E5   [8]  1C FE 4B 1F FB 00 02 BB
 (1652893050.873927)  can0  1E5   [8]  1C FE 4A 3F FB 00 02 DA
 (1652893050.883928)  can0  1E5   [8]  1C FE 4A 5F FB 00 02 FA
 (1652893050.893952)  can0  1E5   [8]  1C FE 4A 7F FB 00 03 1A
 (1652893050.895648)  can0  010   [4]  39 8F 0C 01
 (1652893050.903918)  can0  1E5   [8]  1C FE 4A 1F FC 00 02 BB
 (1652893050.913958)  can0  1E5   [8]  1C FE 4A 3F FC 00 02 DB
 (1652893050.924044)  can0  1E5   [8]  1C FE 4A 5F FD 00 02 FC
 (1652893050.933954)  can0  1E5   [8]  1C FE 4A 7F FD 00 03 1C
 (1652893050.943923)  can0  1E5   [8]  1C FE 4A 1F FE 00 02 BD
 (1652893050.953950)  can0  1E5   [8]  1C FE 4B 30 00 00 01 D1
 (1652893050.963943)  can0  1E5   [8]  1C FE 4B 50 00 00 01 F1
 (1652893050.973989)  can0  1E5   [8]  1C FE 4D 70 01 00 02 14
 (1652893050.983956)  can0  1E5   [8]  1C FE 4D 10 01 00 01 B4
 (1652893050.993958)  can0  1E5   [8]  1C FE 4D 30 01 00 01 D4
 (1652893050.995647)  can0  010   [4]  39 8F 0C 01
 (1652893051.003948)  can0  1E5   [8]  1C FE 4B 50 00 00 01 F1
 (1652893051.013951)  can0  1E5   [8]  1C FE 4A 7F FF 00 03 1E
 (1652893051.023927)  can0  1E5   [8]  1C FE 4A 1F FF 00 02 BE
 (1652893051.033949)  can0  1E5   [8]  1C FE 4A 3F FF 00 02 DE
 (1652893051.043950)  can0  1E5   [8]  1C FE 4B 50 00 00 01 F1
 (1652893051.053927)  can0  1E5   [8]  1C FE 4A 70 00 00 02 10
 (1652893051.063930)  can0  1E5   [8]  1C FE 4A 10 00 00 01 B0
 (1652893051.073913)  can0  1E5   [8]  1C FE 4A 30 00 00 01 D0
 (1652893051.083932)  can0  1E5   [8]  1C FE 4A 50 00 00 01 F0
 (1652893051.093919)  can0  1E5   [8]  1C FE 4A 70 00 00 02 10
 (1652893051.095645)  can0  010   [4]  39 8F 0C 01
 (1652893051.103946)  can0  1E5   [8]  1C FE 4A 10 00 00 01 B0
 (1652893051.113918)  can0  1E5   [8]  1C FE 4A 30 00 00 01 D0
 (1652893051.123927)  can0  1E5   [8]  1C FE 4A 50 00 00 01 F0
 (1652893051.133958)  can0  1E5   [8]  1C FE 4A 70 00 00 02 10
 (1652893051.143924)  can0  1E5   [8]  1C FE 4A 10 00 00 01 B0
 (1652893051.153919)  can0  1E5   [8]  1C FE 4A 30 00 00 01 D0
 (1652893051.163930)  can0  1E5   [8]  1C FE 4A 50 00 00 01 F0
 (1652893051.173909)  can0  1E5   [8]  1C FE 4A 70 00 00 02 10
 (1652893051.183948)  can0  1E5   [8]  1C FE 4A 10 00 00 01 B0
 (1652893051.193939)  can0  1E5   [8]  1C FE 4A 30 00 00 01 D0
 (1652893051.195498)  can0  010   [4]  39 8F 0C 01
 (1652893051.203924)  can0  1E5   [8]  1C FE 4B 50 00 00 01 F1
 (1652893051.213944)  can0  1E5   [8]  1C FE 4B 70 00 00 02 11
 (1652893051.223897)  can0  1E5   [8]  1C FE 4B 10 00 00 01 B1
 (1652893051.234250)  can0  1E5   [8]  1C FE 4D 30 01 00 01 D4
 (1652893051.243937)  can0  1E5   [8]  1C FE 4D 50 01 00 01 F4
 (1652893051.253948)  can0  1E5   [8]  1C FE 4D 70 01 00 02 14
 (1652893051.263934)  can0  1E5   [8]  1C FE 4E 10 02 00 01 B6
 (1652893051.273913)  can0  1E5   [8]  1C FE 50 30 03 00 01 D9
 (1652893051.283937)  can0  1E5   [8]  1C FE 52 50 04 00 01 FC
 (1652893051.293942)  can0  1E5   [8]  1C FE 52 70 04 00 02 1C
 (1652893051.295489)  can0  010   [4]  39 8F 0C 01
 (1652893051.303908)  can0  1E5   [8]  1C FE 52 10 04 00 01 BC
 (1652893051.313943)  can0  1E5   [8]  1C FE 52 30 04 00 01 DC
 (1652893051.323910)  can0  1E5   [8]  1C FE 52 50 04 00 01 FC
 (1652893051.333941)  can0  1E5   [8]  1C FE 52 70 03 00 02 1B
 (1652893051.343927)  can0  1E5   [8]  1C FE 52 10 03 00 01 BB
 (1652893051.353926)  can0  1E5   [8]  1C FE 52 30 03 00 01 DB
 (1652893051.363926)  can0  1E5   [8]  1C FE 52 50 02 00 01 FA
 (1652893051.373905)  can0  1E5   [8]  1C FE 52 70 01 00 02 19
 (1652893051.383916)  can0  1E5   [8]  1C FE 50 10 00 00 01 B6
 (1652893051.394006)  can0  1E5   [8]  1C FE 50 30 00 00 01 D6
 (1652893051.395653)  can0  010   [4]  39 8F 0C 01
 (1652893051.403941)  can0  1E5   [8]  1C FE 52 50 00 00 01 F8
 (1652893051.413918)  can0  1E5   [8]  1C FE 52 70 00 00 02 18
 (1652893051.423929)  can0  1E5   [8]  1C FE 52 10 00 00 01 B8
 (1652893051.434609)  can0  1E5   [8]  1C FE 52 30 00 00 01 D8
 (1652893051.444342)  can0  1E5   [8]  1C FE 52 50 00 00 01 F8
 (1652893051.453948)  can0  1E5   [8]  1C FE 50 70 00 00 02 16
 (1652893051.463932)  can0  1E5   [8]  1C FE 52 10 00 00 01 B8
 (1652893051.473937)  can0  1E5   [8]  1C FE 52 30 00 00 01 D8
 (1652893051.483937)  can0  1E5   [8]  1C FE 52 50 00 00 01 F8
 (1652893051.493940)  can0  1E5   [8]  1C FE 50 70 00 00 02 16
 (1652893051.495643)  can0  010   [4]  39 8F 0C 01
 (1652893051.503924)  can0  1E5   [8]  1C FE 52 10 00 00 01 B8
 (1652893051.513937)  can0  1E5   [8]  1C FE 52 30 00 00 01 D8
 (1652893051.523932)  can0  1E5   [8]  1C FE 52 50 00 00 01 F8
 (1652893051.534136)  can0  1E5   [8]  1C FE 52 70 00 00 02 18
 (1652893051.544076)  can0  1E5   [8]  1C FE 52 10 00 00 01 B8
 (1652893051.553971)  can0  1E5   [8]  1C FE 52 30 00 00 01 D8
 (1652893051.563921)  can0  1E5   [8]  1C FE 52 50 00 00 01 F8
 (1652893051.573923)  can0  1E5   [8]  1C FE 52 70 00 00 02 18
 (1652893051.583940)  can0  1E5   [8]  1C FE 52 10 00 00 01 B8
 (1652893051.593933)  can0  1E5   [8]  1C FE 53 30 01 00 01 DA
 (1652893051.595637)  can0  010   [4]  39 8F 0C 01
 (1652893051.603942)  can0  1E5   [8]  1C FE 55 50 02 00 01 FD
 (1652893051.613925)  can0  1E5   [8]  1C FE 55 70 02 00 02 1D
 (1652893051.623916)  can0  1E5   [8]  1C FE 55 10 02 00 01 BD
 (1652893051.633990)  can0  1E5   [8]  1C FE 55 30 02 00 01 DD
 (1652893051.643912)  can0  1E5   [8]  1C FE 53 50 00 00 01 F9
 (1652893051.653968)  can0  1E5   [8]  1C FE 52 7F FF 00 03 26
 (1652893051.663938)  can0  1E5   [8]  1C FE 50 1F FE 00 02 C3
 (1652893051.673932)  can0  1E5   [8]  1C FE 4E 3F FD 00 02 E0
 (1652893051.683915)  can0  1E5   [8]  1C FE 4B 5F FB 00 02 FB
 (1652893051.693920)  can0  1E5   [8]  1C FE 4A 7F FA 00 03 19
 (1652893051.695633)  can0  010   [4]  39 8F 0C 01
 (1652893051.695642)  can0  0E2   [2]  1A 01
 (1652893051.703934)  can0  1E5   [8]  1C FE 4A 1F FA 00 02 B9
 (1652893051.713928)  can0  1E5   [8]  1C FE 4A 3F FA 00 02 D9
 (1652893051.723914)  can0  1E5   [8]  1C FE 4A 5F FA 00 02 F9
 (1652893051.733899)  can0  1E5   [8]  1C FE 4A 7F FA 00 03 19
 (1652893051.743906)  can0  1E5   [8]  1C FE 4A 1F FA 00 02 B9
 (1652893051.753900)  can0  1E5   [8]  1C FE 4A 3F FB 00 02 DA
 (1652893051.763908)  can0  1E5   [8]  1C FE 4A 5F FC 00 02 FB
 (1652893051.773901)  can0  1E5   [8]  1C FE 4A 7F FD 00 03 1C
 (1652893051.783906)  can0  1E5   [8]  1C FE 4A 1F FF 00 02 BE
 (1652893051.793901)  can0  1E5   [8]  1C FE 4A 30 00 00 01 D0
 (1652893051.795498)  can0  010   [4]  39 8F 0C 01
 (1652893051.803935)  can0  1E5   [8]  1C FE 4A 50 00 00 01 F0
 (1652893051.813923)  can0  1E5   [8]  1C FE 4A 70 00 00 02 10
 (1652893051.823926)  can0  1E5   [8]  1C FE 4A 10 00 00 01 B0
 (1652893051.833920)  can0  1E5   [8]  1C FE 4A 30 00 00 01 D0
 (1652893051.843930)  can0  1E5   [8]  1C FE 4A 50 00 00 01 F0
 (1652893051.853921)  can0  1E5   [8]  1C FE 4A 70 00 00 02 10
 (1652893051.863959)  can0  1E5   [8]  1C FE 4A 10 00 00 01 B0
 (1652893051.873924)  can0  1E5   [8]  1C FE 4A 30 00 00 01 D0
 (1652893051.883919)  can0  1E5   [8]  1C FE 4A 50 00 00 01 F0
 (1652893051.893923)  can0  1E5   [8]  1C FE 4A 70 00 00 02 10
 (1652893051.895812)  can0  010   [4]  39 8F 0C 01
 (1652893051.903989)  can0  1E5   [8]  1C FE 4A 10 00 00 01 B0
 (1652893051.913885)  can0  1E5   [8]  1C FE 4A 30 00 00 01 D0
 (1652893051.923937)  can0  1E5   [8]  1C FE 48 5F FF 00 02 FC
 (1652893051.933929)  can0  1E5   [8]  1C FE 48 7F FF 00 03 1C
 (1652893051.943906)  can0  1E5   [8]  1C FE 48 1F FF 00 02 BC
 (1652893051.953899)  can0  1E5   [8]  1C FE 48 3F FF 00 02 DC
 (1652893051.963919)  can0  1E5   [8]  1C FE 48 5F FF 00 02 FC
 (1652893051.973910)  can0  1E5   [8]  1C FE 48 7F FF 00 03 1C
 (1652893051.983916)  can0  1E5   [8]  1C FE 48 1F FF 00 02 BC
 (1652893051.993919)  can0  1E5   [8]  1C FE 48 3F FF 00 02 DC
 (1652893051.995637)  can0  010   [4]  39 8F 0C 01
 (1652893052.003936)  can0  1E5   [8]  1C FE 48 5F FF 00 02 FC
 (1652893052.013916)  can0  1E5   [8]  1C FE 48 7F FF 00 03 1C
 (1652893052.023916)  can0  1E5   [8]  1C FE 48 10 00 00 01 AE
 (1652893052.033910)  can0  1E5   [8]  1C FE 48 30 00 00 01 CE
 (1652893052.043915)  can0  1E5   [8]  1C FE 48 50 00 00 01 EE
 (1652893052.053924)  can0  1E5   [8]  1C FE 48 70 00 00 02 0E
 (1652893052.063895)  can0  1E5   [8]  1C FE 48 10 00 00 01 AE
 (1652893052.073883)  can0  1E5   [8]  1C FE 46 3F FF 00 02 DA
 (1652893052.083931)  can0  1E5   [8]  1C FE 48 50 00 00 01 EE
 (1652893052.093923)  can0  1E5   [8]  1C FE 48 70 00 00 02 0E
 (1652893052.095628)  can0  010   [4]  39 8F 0C 01
 (1652893052.103925)  can0  1E5   [8]  1C FE 48 10 00 00 01 AE
 (1652893052.113915)  can0  1E5   [8]  1C FE 48 30 00 00 01 CE
 (1652893052.123886)  can0  1E5   [8]  1C FE 48 50 00 00 01 EE
 (1652893052.133968)  can0  1E5   [8]  1C FE 48 70 00 00 02 0E
 (1652893052.143906)  can0  1E5   [8]  1C FE 48 10 00 00 01 AE
 (1652893052.153920)  can0  1E5   [8]  1C FE 48 30 00 00 01 CE
 (1652893052.163885)  can0  1E5   [8]  1C FE 48 50 00 00 01 EE
 (1652893052.173889)  can0  1E5   [8]  1C FE 46 70 00 00 02 0C
 (1652893052.184030)  can0  1E5   [8]  1C FE 48 10 00 00 01 AE
 (1652893052.193920)  can0  1E5   [8]  1C FE 48 30 00 00 01 CE
 (1652893052.195477)  can0  010   [4]  39 8F 0C 01
 (1652893052.203919)  can0  1E5   [8]  1C FE 48 50 00 00 01 EE
 (1652893052.213919)  can0  1E5   [8]  1C FE 46 70 00 00 02 0C
 (1652893052.223872)  can0  1E5   [8]  1C FE 48 10 00 00 01 AE
 (1652893052.233916)  can0  1E5   [8]  1C FE 48 30 00 00 01 CE
 (1652893052.243897)  can0  1E5   [8]  1C FE 48 50 00 00 01 EE
 (1652893052.253916)  can0  1E5   [8]  1C FE 46 70 00 00 02 0C
 (1652893052.263907)  can0  1E5   [8]  1C FE 46 10 00 00 01 AC
 (1652893052.273911)  can0  1E5   [8]  1C FE 46 30 00 00 01 CC
 (1652893052.283899)  can0  1E5   [8]  1C FE 46 50 00 00 01 EC
 (1652893052.293892)  can0  1E5   [8]  1C FE 46 70 00 00 02 0C
 (1652893052.295482)  can0  010   [4]  39 8F 0C 01
 (1652893052.303911)  can0  1E5   [8]  1C FE 46 10 00 00 01 AC
 (1652893052.313904)  can0  1E5   [8]  1C FE 46 30 00 00 01 CC
 (1652893052.323878)  can0  1E5   [8]  1C FE 46 50 00 00 01 EC
 (1652893052.334328)  can0  1E5   [8]  1C FE 46 70 00 00 02 0C
 (1652893052.343892)  can0  1E5   [8]  1C FE 45 1F FF 00 02 B9
 (1652893052.353903)  can0  1E5   [8]  1C FE 45 3F FF 00 02 D9
 (1652893052.363920)  can0  1E5   [8]  1C FE 45 5F FF 00 02 F9
 (1652893052.373917)  can0  1E5   [8]  1C FE 45 7F FF 00 03 19
 (1652893052.383865)  can0  1E5   [8]  1C FE 45 1F FF 00 02 B9
 (1652893052.394086)  can0  1E5   [8]  1C FE 43 3F FE 00 02 D6
 (1652893052.395482)  can0  010   [4]  39 8F 0C 01
 (1652893052.403906)  can0  1E5   [8]  1C FE 45 50 00 00 01 EB
 (1652893052.413906)  can0  1E5   [8]  1C FE 45 70 00 00 02 0B
 (1652893052.423906)  can0  1E5   [8]  1C FE 45 10 00 00 01 AB
 (1652893052.433907)  can0  1E5   [8]  1C FE 43 30 00 00 01 C9
 (1652893052.443896)  can0  1E5   [8]  1C FE 45 50 00 00 01 EB
 (1652893052.453902)  can0  1E5   [8]  1C FE 43 70 00 00 02 09
 (1652893052.463897)  can0  1E5   [8]  1C FE 43 10 00 00 01 A9
 (1652893052.473907)  can0  1E5   [8]  1C FE 43 30 00 00 01 C9
 (1652893052.483936)  can0  1E5   [8]  1C FE 43 50 00 00 01 E9
 (1652893052.493908)  can0  1E5   [8]  1C FE 43 70 00 00 02 09
 (1652893052.495628)  can0  010   [4]  39 8F 0C 01
 (1652893052.503880)  can0  1E5   [8]  1C FE 43 10 00 00 01 A9
 (1652893052.513897)  can0  1E5   [8]  1C FE 43 30 00 00 01 C9
 (1652893052.523881)  can0  1E5   [8]  1C FE 43 50 00 00 01 E9
 (1652893052.533888)  can0  1E5   [8]  1C FE 43 70 00 00 02 09
 (1652893052.543903)  can0  1E5   [8]  1C FE 42 1F FF 00 02 B6
 (1652893052.553910)  can0  1E5   [8]  1C FE 42 3F FF 00 02 D6
 (1652893052.563895)  can0  1E5   [8]  1C FE 42 5F FF 00 02 F6
 (1652893052.573921)  can0  1E5   [8]  1C FE 42 7F FF 00 03 16
 (1652893052.583894)  can0  1E5   [8]  1C FE 42 1F FF 00 02 B6
 (1652893052.593899)  can0  1E5   [8]  1C FE 42 3F FF 00 02 D6
 (1652893052.595627)  can0  010   [4]  39 8F 0C 01
 (1652893052.603891)  can0  1E5   [8]  1C FE 40 5F FE 00 02 F3
 (1652893052.613901)  can0  1E5   [8]  1C FE 40 7F FE 00 03 13
 (1652893052.623877)  can0  1E5   [8]  1C FE 40 1F FE 00 02 B3
 (1652893052.633883)  can0  1E5   [8]  1C FE 40 3F FE 00 02 D3
 (1652893052.643867)  can0  1E5   [8]  1C FE 40 5F FF 00 02 F4
 (1652893052.653878)  can0  1E5   [8]  1C FE 40 7F FF 00 03 14
 (1652893052.663871)  can0  1E5   [8]  1C FE 40 1F FF 00 02 B4
 (1652893052.668165)  can0  012   [8]  E8 03 10 00 00 00 00 00
 (1652893052.673855)  can0  1E5   [8]  1C FE 40 3F FF 00 02 D4
 (1652893052.678329)  can0  012   [8]  E8 03 10 00 00 00 00 00
 (1652893052.684061)  can0  1E5   [8]  1C FE 40 5F FF 00 02 F4
 (1652893052.688043)  can0  012   [8]  E8 03 10 00 00 00 00 00
 (1652893052.693871)  can0  1E5   [8]  1C FE 40 7F FF 00 03 14
 (1652893052.695628)  can0  010   [4]  39 8F 0C 01
 (1652893052.695636)  can0  0E2   [2]  42 01
 (1652893052.698356)  can0  012   [8]  E8 03 10 00 00 00 00 00
 (1652893052.703886)  can0  1E5   [8]  1C FE 40 10 00 00 01 A6
 (1652893052.708020)  can0  012   [8]  E8 03 10 00 00 00 00 00
 (1652893052.713881)  can0  1E5   [8]  1C FE 40 30 00 00 01 C6
 (1652893052.718335)  can0  012   [8]  E8 03 10 00 00 00 00 00
 (1652893052.723874)  can0  1E5   [8]  1C FE 40 50 00 00 01 E6
 (1652893052.728397)  can0  012   [8]  E8 03 10 00 00 00 00 00
 (1652893052.733883)  can0  1E5   [8]  1C FE 40 70 00 00 02 06
 (1652893052.738075)  can0  012   [8]  E8 03 10 00 00 00 00 00
 (1652893052.743870)  can0  1E5   [8]  1C FE 40 10 00 00 01 A6
 (1652893052.748214)  can0  012   [8]  E8 03 10 00 00 00 00 00
 (1652893052.753865)  can0  1E5   [8]  1C FE 40 30 00 00 01 C6
 (1652893052.758018)  can0  012   [8]  E8 03 10 00 00 00 00 00
 (1652893052.763899)  can0  1E5   [8]  1C FE 40 50 00 00 01 E6
 (1652893052.768061)  can0  012   [8]  E8 03 10 00 00 00 00 00
 (1652893052.773860)  can0  1E5   [8]  1C FE 3E 7F FF 00 03 12
 (1652893052.778051)  can0  012   [8]  E8 03 10 00 00 00 00 00
 (1652893052.784198)  can0  1E5   [8]  1C FE 3E 1F FF 00 02 B2
 (1652893052.788046)  can0  012   [8]  E8 03 10 00 00 00 00 00
 (1652893052.793907)  can0  1E5   [8]  1C FE 3E 3F FF 00 02 D2
 (1652893052.795636)  can0  010   [4]  39 8F 0C 01
 (1652893052.798204)  can0  012   [8]  E8 03 10 00 00 00 00 00
 (1652893052.803870)  can0  1E5   [8]  1C FE 3E 5F FF 00 02 F2
 (1652893052.808017)  can0  012   [8]  E8 03 10 00 00 00 00 00
 (1652893052.813907)  can0  1E5   [8]  1C FE 40 70 00 00 02 06
 (1652893052.818570)  can0  012   [8]  E8 03 10 00 00 00 00 00
 (1652893052.823864)  can0  1E5   [8]  1C FE 3E 10 00 00 01 A4
 (1652893052.828056)  can0  012   [8]  E8 03 10 00 00 00 00 00
 (1652893052.833886)  can0  1E5   [8]  1C FE 3E 30 00 00 01 C4
 (1652893052.838052)  can0  012   [8]  E8 03 10 00 00 00 00 00
 (1652893052.843898)  can0  1E5   [8]  1C FE 3E 50 00 00 01 E4
 (1652893052.848048)  can0  012   [8]  E8 03 10 00 00 00 00 00
 (1652893052.853890)  can0  1E5   [8]  1C FE 3E 70 00 00 02 04
 (1652893052.858016)  can0  012   [8]  E8 03 10 00 00 00 00 00
 (1652893052.863861)  can0  1E5   [8]  1C FE 3E 10 00 00 01 A4
 (1652893052.868621)  can0  012   [8]  E8 03 10 00 00 00 00 00
 (1652893052.873894)  can0  1E5   [8]  1C FE 3E 30 00 00 01 C4
 (1652893052.878054)  can0  012   [8]  E8 03 10 00 00 00 00 00
 (1652893052.883871)  can0  1E5   [8]  1C FE 3E 50 00 00 01 E4
 (1652893052.888054)  can0  012   [8]  E8 03 10 00 00 00 00 00
 (1652893052.893879)  can0  1E5   [8]  1C FE 3E 70 00 00 02 04
 (1652893052.895443)  can0  010   [4]  39 8F 0C 01
 (1652893052.898244)  can0  012   [8]  E8 03 10 00 00 00 00 00
 (1652893052.903868)  can0  1E5   [8]  1C FE 3E 10 00 00 01 A4
 (1652893052.908044)  can0  012   [8]  E8 03 10 00 00 00 00 00
 (1652893052.913894)  can0  1E5   [8]  1C FE 3E 30 00 00 01 C4
 (1652893052.918042)  can0  012   [8]  E8 03 10 00 00 00 00 00
 (1652893052.918700)  can0  014   [5]  1E F0 01 94 27
 (1652893052.923862)  can0  1E5   [8]  1C FE 3E 50 00 00 01 E4
 (1652893052.928061)  can0  012   [8]  E8 03 10 00 00 00 00 00
 (1652893052.928591)  can0  014   [5]  1F F0 01 D8 26
 (1652893052.933901)  can0  1E5   [8]  1C FE 3E 70 00 00 02 04
 (1652893052.938050)  can0  012   [8]  E8 03 10 00 00 00 00 00
 (1652893052.938597)  can0  014   [5]  1E F0 01 10 27
 (1652893052.943882)  can0  1E5   [8]  1C FE 3E 10 00 00 01 A4
 (1652893052.948200)  can0  012   [8]  E8 03 10 00 00 00 00 00
 (1652893052.948595)  can0  014   [5]  1E F0 01 10 27
 (1652893052.953982)  can0  1E5   [8]  1C FE 3E 30 00 00 01 C4
 (1652893052.958064)  can0  012   [8]  E8 03 10 00 00 00 00 00
 (1652893052.958549)  can0  014   [5]  20 00 02 10 27
 (1652893052.963897)  can0  1E5   [8]  1C FE 3E 50 00 00 01 E4
 (1652893052.968219)  can0  012   [8]  E8 03 10 00 00 00 00 00
 (1652893052.968571)  can0  014   [5]  1E 00 02 10 27
 (1652893052.973856)  can0  1E5   [8]  1C FE 3E 70 00 00 02 04
 (1652893052.978211)  can0  012   [8]  E8 03 10 00 00 00 00 00
 (1652893052.978601)  can0  014   [5]  1F F0 01 10 27
 (1652893052.983892)  can0  1E5   [8]  1C FE 3E 10 00 00 01 A4
 (1652893052.988062)  can0  012   [8]  E8 03 10 00 00 00 00 00
 (1652893052.988610)  can0  014   [5]  1F 10 02 10 27
 (1652893052.993880)  can0  1E5   [8]  1C FE 3E 30 00 00 01 C4
 (1652893052.995482)  can0  010   [4]  39 8F 0C 01
 (1652893052.998214)  can0  012   [8]  E8 03 10 00 00 00 00 00
 (1652893052.998606)  can0  014   [5]  1E 10 02 13 27
 (1652893053.003892)  can0  1E5   [8]  1C FE 3E 50 00 00 01 E4
 (1652893053.008061)  can0  012   [8]  E8 03 10 00 00 00 00 00
 (1652893053.008556)  can0  014   [5]  1F F0 01 0D 27
 (1652893053.013904)  can0  1E5   [8]  1C FE 3E 70 00 00 02 04
 (1652893053.018220)  can0  012   [8]  E8 03 10 00 00 00 00 00
 (1652893053.018607)  can0  014   [5]  21 F0 01 10 27
 (1652893053.023858)  can0  1E5   [8]  1C FE 3E 10 00 00 01 A4
 (1652893053.028213)  can0  012   [8]  E8 03 10 00 00 00 00 00
 (1652893053.028607)  can0  014   [5]  1F F0 01 13 27
 (1652893053.033892)  can0  1E5   [8]  1C FE 3E 30 00 00 01 C4
 (1652893053.038053)  can0  012   [8]  E8 03 10 00 00 00 00 00
 (1652893053.038622)  can0  014   [5]  20 10 02 0D 27
 (1652893053.043883)  can0  1E5   [8]  1C FE 3E 50 00 00 01 E4
 (1652893053.048038)  can0  012   [8]  E8 03 10 00 00 00 00 00
 (1652893053.048553)  can0  014   [5]  21 10 02 10 27
 (1652893053.053860)  can0  1E5   [8]  1C FE 3E 70 00 00 02 04
 (1652893053.058048)  can0  012   [8]  E8 03 10 00 00 00 00 00
 (1652893053.058570)  can0  014   [5]  22 10 02 16 27
 (1652893053.063891)  can0  1E5   [8]  1C FE 3E 10 00 00 01 A4
 (1652893053.068753)  can0  012   [8]  E8 03 10 00 00 00 00 00
 (1652893053.068762)  can0  014   [5]  1F 10 02 0A 27
 (1652893053.073889)  can0  1E5   [8]  1C FE 3E 30 00 00 01 C4
 (1652893053.078208)  can0  012   [8]  E8 03 10 00 00 00 00 00
 (1652893053.078586)  can0  014   [5]  22 10 02 10 27
 (1652893053.083887)  can0  1E5   [8]  1C FE 3E 50 00 00 01 E4
 (1652893053.088054)  can0  012   [8]  E8 03 10 00 00 00 00 00
 (1652893053.088620)  can0  014   [5]  22 10 02 10 27
 (1652893053.093884)  can0  1E5   [8]  1C FE 3E 70 00 00 02 04
 (1652893053.095634)  can0  010   [4]  39 8F 0C 01
 (1652893053.098202)  can0  012   [8]  E8 03 10 00 00 00 00 00
 (1652893053.098606)  can0  014   [5]  21 20 02 17 27
 (1652893053.103878)  can0  1E5   [8]  1C FE 3E 10 00 00 01 A4
 (1652893053.108056)  can0  012   [8]  E8 03 10 00 00 00 00 00
 (1652893053.108545)  can0  014   [5]  21 10 02 09 27
 (1652893053.113863)  can0  1E5   [8]  1C FE 3E 30 00 00 01 C4
 (1652893053.118220)  can0  012   [8]  E8 03 10 00 00 00 00 00
 (1652893053.118563)  can0  014   [5]  22 20 02 10 27
 (1652893053.123860)  can0  1E5   [8]  1C FE 3E 50 00 00 01 E4
 (1652893053.128219)  can0  012   [8]  E8 03 10 00 00 00 00 00
 (1652893053.128561)  can0  014   [5]  22 20 02 10 27
 (1652893053.133867)  can0  1E5   [8]  1C FE 3E 70 00 00 02 04
 (1652893053.138046)  can0  012   [8]  E8 03 10 00 00 00 00 00
 (1652893053.138559)  can0  014   [5]  23 20 02 10 27
 (1652893053.143860)  can0  1E5   [8]  1C FE 3E 10 00 00 01 A4
 (1652893053.148223)  can0  012   [8]  E8 03 10 00 00 00 00 00
 (1652893053.148564)  can0  014   [5]  21 20 02 10 27
 (1652893053.153872)  can0  1E5   [8]  1C FE 3E 30 00 00 01 C4
 (1652893053.158016)  can0  012   [8]  E8 03 10 00 00 00 00 00
 (1652893053.158594)  can0  014   [5]  24 30 02 10 27
 (1652893053.163866)  can0  1E5   [8]  1C FE 3E 50 00 00 01 E4
 (1652893053.168020)  can0  012   [8]  E8 03 10 00 00 00 00 00
 (1652893053.168557)  can0  014   [5]  20 20 02 10 27
 (1652893053.173888)  can0  1E5   [8]  1C FE 3D 7F FF 00 03 11
 (1652893053.178029)  can0  012   [8]  E8 03 10 00 00 00 00 00
 (1652893053.178555)  can0  014   [5]  26 20 02 10 27
 (1652893053.183881)  can0  1E5   [8]  1C FE 3E 10 00 00 01 A4
 (1652893053.188028)  can0  012   [8]  E8 03 10 00 00 00 00 00
 (1652893053.188545)  can0  014   [5]  21 30 02 10 27
 (1652893053.193892)  can0  1E5   [8]  1C FE 3E 30 00 00 01 C4
 (1652893053.195631)  can0  010   [4]  39 8F 0C 01
 (1652893053.198323)  can0  012   [8]  E8 03 10 00 00 00 00 00
 (1652893053.198562)  can0  014   [5]  24 30 02 13 27
 (1652893053.203866)  can0  1E5   [8]  1C FE 3E 50 00 00 01 E4
 (1652893053.208029)  can0  012   [8]  E8 03 10 00 00 00 00 00
 (1652893053.208557)  can0  014   [5]  23 40 02 0D 27
 (1652893053.213890)  can0  1E5   [8]  1C FE 3E 70 00 00 02 04
 (1652893053.218276)  can0  012   [8]  E8 03 10 00 00 00 00 00
 (1652893053.218560)  can0  014   [5]  24 30 02 11 27
 (1652893053.223851)  can0  1E5   [8]  1C FE 3E 10 00 00 01 A4
 (1652893053.228051)  can0  012   [8]  E8 03 10 00 00 00 00 00
 (1652893053.228596)  can0  014   [5]  23 40 02 11 27
 (1652893053.233875)  can0  1E5   [8]  1C FE 3E 30 00 00 01 C4
 (1652893053.238031)  can0  012   [8]  E8 03 10 00 00 00 00 00
 (1652893053.238553)  can0  014   [5]  23 30 02 0E 27
 (1652893053.243888)  can0  1E5   [8]  1C FE 3E 50 00 00 01 E4
 (1652893053.248057)  can0  012   [8]  E8 03 10 00 00 00 00 00
 (1652893053.248561)  can0  014   [5]  24 40 02 10 27
 (1652893053.253979)  can0  1E5   [8]  1C FE 3E 70 00 00 02 04
 (1652893053.258017)  can0  012   [8]  E8 03 10 00 00 00 00 00
 (1652893053.258545)  can0  014   [5]  24 40 02 13 27
 (1652893053.263867)  can0  1E5   [8]  1C FE 3E 10 00 00 01 A4
 (1652893053.268540)  can0  012   [8]  E8 03 10 00 00 00 00 00
 (1652893053.268555)  can0  014   [5]  23 40 02 0D 27
 (1652893053.273846)  can0  1E5   [8]  1C FE 3D 30 00 00 01 C3
 (1652893053.278050)  can0  012   [8]  E8 03 10 00 00 00 00 00
 (1652893053.278552)  can0  014   [5]  25 50 02 10 27
 (1652893053.284210)  can0  1E5   [8]  1C FE 3E 50 00 00 01 E4
 (1652893053.288057)  can0  012   [8]  E8 03 10 00 00 00 00 00
 (1652893053.288555)  can0  014   [5]  25 40 02 11 27
 (1652893053.293862)  can0  1E5   [8]  1C FE 3E 70 00 00 02 04
 (1652893053.295502)  can0  010   [4]  39 8F 0C 01
 (1652893053.298073)  can0  012   [8]  E8 03 10 00 00 00 00 00
 (1652893053.298558)  can0  014   [5]  22 50 02 14 27
 (1652893053.303864)  can0  1E5   [8]  1C FE 3E 10 00 00 01 A4
 (1652893053.308023)  can0  012   [8]  E8 03 10 00 00 00 00 00
 (1652893053.308559)  can0  014   [5]  25 40 02 0B 27
 (1652893053.313916)  can0  1E5   [8]  1C FE 3E 30 00 00 01 C4
 (1652893053.318568)  can0  012   [8]  E8 03 10 00 00 00 00 00
 (1652893053.318577)  can0  014   [5]  26 60 02 11 27
 (1652893053.323906)  can0  1E5   [8]  1C FE 3E 50 00 00 01 E4
 (1652893053.328210)  can0  012   [8]  E8 03 10 00 00 00 00 00
 (1652893053.328561)  can0  014   [5]  24 40 02 0F 27
 (1652893053.334323)  can0  1E5   [8]  1C FE 3E 70 00 00 02 04
 (1652893053.338052)  can0  012   [8]  E8 03 10 00 00 00 00 00
 (1652893053.338551)  can0  014   [5]  24 60 02 10 27
 (1652893053.343852)  can0  1E5   [8]  1C FE 3D 10 00 00 01 A3
 (1652893053.348226)  can0  012   [8]  E8 03 10 00 00 00 00 00
 (1652893053.348549)  can0  014   [5]  25 50 02 10 27
 (1652893053.353846)  can0  1E5   [8]  1C FE 3E 30 00 00 01 C4
 (1652893053.358022)  can0  012   [8]  E8 03 10 00 00 00 00 00
 (1652893053.358562)  can0  014   [5]  24 50 02 13 27
 (1652893053.363872)  can0  1E5   [8]  1C FE 3E 50 00 00 01 E4
 (1652893053.368588)  can0  012   [8]  E8 03 10 00 00 00 00 00
 (1652893053.368597)  can0  014   [5]  23 60 02 0D 27
 (1652893053.373877)  can0  1E5   [8]  1C FE 3E 70 00 00 02 04
 (1652893053.378051)  can0  012   [8]  E8 03 10 00 00 00 00 00
 (1652893053.378597)  can0  014   [5]  26 60 02 12 27
 (1652893053.384348)  can0  1E5   [8]  1C FE 3E 10 00 00 01 A4
 (1652893053.388036)  can0  012   [8]  E8 03 10 00 00 00 00 00
 (1652893053.388549)  can0  014   [5]  26 60 02 0E 27
 (1652893053.393855)  can0  1E5   [8]  1C FE 3E 30 00 00 01 C4
 (1652893053.395432)  can0  010   [4]  39 8F 0C 01
 (1652893053.398206)  can0  012   [8]  E8 03 10 00 00 00 00 00
 (1652893053.398602)  can0  014   [5]  27 50 02 13 27
 (1652893053.403872)  can0  1E5   [8]  1C FE 3E 50 00 00 01 E4
 (1652893053.408072)  can0  012   [8]  E8 03 10 00 00 00 00 00
 (1652893053.408594)  can0  014   [5]  26 80 02 11 27
 (1652893053.413867)  can0  1E5   [8]  1C FE 3E 70 00 00 02 04
 (1652893053.418048)  can0  012   [8]  E8 03 10 00 00 00 00 00
 (1652893053.418597)  can0  014   [5]  28 60 02 0C 27
 (1652893053.423897)  can0  1E5   [8]  1C FE 3E 10 00 00 01 A4
 (1652893053.428044)  can0  012   [8]  E8 03 10 00 00 00 00 00
 (1652893053.428586)  can0  014   [5]  27 60 02 10 27
 (1652893053.433873)  can0  1E5   [8]  1C FE 3E 30 00 00 01 C4
 (1652893053.438065)  can0  012   [8]  E8 03 10 00 00 00 00 00
 (1652893053.438560)  can0  014   [5]  28 50 02 10 27
 (1652893053.443865)  can0  1E5   [8]  1C FE 3E 50 00 00 01 E4
 (1652893053.448209)  can0  012   [8]  E8 03 10 00 00 00 00 00
 (1652893053.448559)  can0  014   [5]  2A 60 02 10 27
 (1652893053.453879)  can0  1E5   [8]  1C FE 3E 70 00 00 02 04
 (1652893053.458026)  can0  012   [8]  E8 03 10 00 00 00 00 00
 (1652893053.458583)  can0  014   [5]  28 80 02 10 27
 (1652893053.464089)  can0  1E5   [8]  1C FE 3E 10 00 00 01 A4
 (1652893053.468630)  can0  012   [8]  E8 03 10 00 00 00 00 00
 (1652893053.468638)  can0  014   [5]  29 70 02 13 27
 (1652893053.473874)  can0  1E5   [8]  1C FE 3E 30 00 00 01 C4
 (1652893053.478209)  can0  012   [8]  E8 03 10 00 00 00 00 00
 (1652893053.478603)  can0  014   [5]  27 90 02 0E 27
 (1652893053.483842)  can0  1E5   [8]  1C FE 3E 50 00 00 01 E4
 (1652893053.488045)  can0  012   [8]  E8 03 10 00 00 00 00 00
 (1652893053.488621)  can0  014   [5]  29 80 02 0F 27
 (1652893053.493857)  can0  1E5   [8]  1C FE 3E 70 00 00 02 04
 (1652893053.495491)  can0  010   [4]  39 8F 0C 01
 (1652893053.498221)  can0  012   [8]  E8 03 10 00 00 00 00 00
 (1652893053.498590)  can0  014   [5]  29 70 02 13 27
 (1652893053.503861)  can0  1E5   [8]  1C FE 3E 10 00 00 01 A4
 (1652893053.508018)  can0  012   [8]  E8 03 10 00 00 00 00 00
 (1652893053.508556)  can0  014   [5]  27 90 02 0D 27
 (1652893053.513902)  can0  1E5   [8]  1C FE 3E 30 00 00 01 C4
 (1652893053.518217)  can0  012   [8]  E8 03 10 00 00 00 00 00
 (1652893053.518562)  can0  014   [5]  29 80 02 10 27
 (1652893053.523869)  can0  1E5   [8]  1C FE 3E 50 00 00 01 E4
 (1652893053.528029)  can0  012   [8]  E8 03 10 00 00 00 00 00
 (1652893053.528566)  can0  014   [5]  2A 90 02 10 27
 (1652893053.533848)  can0  1E5   [8]  1C FE 3E 70 00 00 02 04
 (1652893053.538019)  can0  012   [8]  E8 03 10 00 00 00 00 00
 (1652893053.538589)  can0  014   [5]  27 80 02 10 27
 (1652893053.543872)  can0  1E5   [8]  1C FE 3E 10 00 00 01 A4
 (1652893053.548031)  can0  012   [8]  E8 03 10 00 00 00 00 00
 (1652893053.548562)  can0  014   [5]  28 90 02 10 27
 (1652893053.553855)  can0  1E5   [8]  1C FE 3E 30 00 00 01 C4
 (1652893053.558044)  can0  012   [8]  E8 03 10 00 00 00 00 00
 (1652893053.558597)  can0  014   [5]  2A 90 02 10 27
 (1652893053.563870)  can0  1E5   [8]  1C FE 3E 50 00 00 01 E4
 (1652893053.568054)  can0  012   [8]  E8 03 10 00 00 00 00 00
 (1652893053.568598)  can0  014   [5]  29 80 02 10 27
 (1652893053.573844)  can0  1E5   [8]  1C FE 3E 70 00 00 02 04
 (1652893053.578209)  can0  012   [8]  E8 03 10 00 00 00 00 00
 (1652893053.578563)  can0  014   [5]  28 A0 02 10 27
 (1652893053.583859)  can0  1E5   [8]  1C FE 3E 10 00 00 01 A4
 (1652893053.588039)  can0  012   [8]  E8 03 10 00 00 00 00 00
 (1652893053.588556)  can0  014   [5]  2A A0 02 10 27
 (1652893053.593854)  can0  1E5   [8]  1C FE 3E 30 00 00 01 C4
 (1652893053.595623)  can0  010   [4]  39 8F 0C 01
 (1652893053.598204)  can0  012   [8]  E8 03 10 00 00 00 00 00
 (1652893053.598563)  can0  014   [5]  2A 90 02 13 27
 (1652893053.603844)  can0  1E5   [8]  1C FE 3E 50 00 00 01 E4
 (1652893053.608012)  can0  012   [8]  E8 03 10 00 00 00 00 00
 (1652893053.608606)  can0  014   [5]  29 A0 02 0D 27
 (1652893053.613844)  can0  1E5   [8]  1C FE 3E 70 00 00 02 04
 (1652893053.618457)  can0  012   [8]  E8 03 10 00 00 00 00 00
 (1652893053.618565)  can0  014   [5]  2B A0 02 10 27
 (1652893053.623835)  can0  1E5   [8]  1C FE 3E 10 00 00 01 A4
 (1652893053.628202)  can0  012   [8]  E8 03 10 00 00 00 00 00
 (1652893053.628598)  can0  014   [5]  2B 90 02 13 27
 (1652893053.633873)  can0  1E5   [8]  1C FE 3E 30 00 00 01 C4
 (1652893053.638050)  can0  012   [8]  E8 03 10 00 00 00 00 00
 (1652893053.638609)  can0  014   [5]  2A B0 02 0D 27
 (1652893053.643875)  can0  1E5   [8]  1C FE 3E 50 00 00 01 E4
 (1652893053.648241)  can0  012   [8]  E8 03 10 00 00 00 00 00
 (1652893053.648598)  can0  014   [5]  2B A0 02 14 27
 (1652893053.653871)  can0  1E5   [8]  1C FE 3E 70 00 00 02 04
 (1652893053.658056)  can0  012   [8]  E8 03 10 00 00 00 00 00
 (1652893053.658198)  can0  0E3   [2]  28 00
 (1652893053.658562)  can0  014   [5]  2B A0 02 12 27
 (1652893053.663844)  can0  1E5   [8]  1C FE 3E 10 00 00 01 A4
 (1652893053.668032)  can0  012   [8]  E8 03 10 00 00 00 00 00
 (1652893053.668547)  can0  014   [5]  2A A0 02 0D 27
 (1652893053.673834)  can0  1E5   [8]  1C FE 3E 30 00 00 01 C4
 (1652893053.678050)  can0  012   [8]  E8 03 10 00 00 00 00 00
 (1652893053.678588)  can0  014   [5]  2B C0 02 0D 27
 (1652893053.683934)  can0  1E5   [8]  1C FE 40 50 01 00 01 E7
 (1652893053.688052)  can0  012   [8]  E8 03 10 00 00 00 00 00
 (1652893053.688571)  can0  014   [5]  2B B0 02 10 27
 (1652893053.693847)  can0  1E5   [8]  1C FE 3E 70 00 00 02 04
 (1652893053.695641)  can0  010   [4]  39 8F 0C 01
 (1652893053.695650)  can0  0E2   [2]  6A 01
 (1652893053.698276)  can0  012   [8]  E8 03 10 00 00 00 00 00
 (1652893053.698553)  can0  014   [5]  2A A0 02 16 27
 (1652893053.703840)  can0  1E5   [8]  1C FE 3E 10 00 00 01 A4
 (1652893053.708056)  can0  012   [8]  E8 03 10 00 00 00 00 00
 (1652893053.708592)  can0  014   [5]  2B C0 02 0A 27
 (1652893053.713870)  can0  1E5   [8]  1C FE 3E 30 00 00 01 C4
 (1652893053.718343)  can0  012   [8]  E8 03 10 00 00 00 00 00
 (1652893053.718600)  can0  014   [5]  2C C0 02 12 27
 (1652893053.723857)  can0  1E5   [8]  1C FE 3E 50 00 00 01 E4
 (1652893053.728375)  can0  012   [8]  E8 03 10 00 00 00 00 00
 (1652893053.728599)  can0  014   [5]  2B B0 02 11 27
 (1652893053.733850)  can0  1E5   [8]  1C FE 3E 70 00 00 02 04
 (1652893053.738040)  can0  012   [8]  E8 03 10 00 00 00 00 00
 (1652893053.738583)  can0  014   [5]  2B C0 02 10 27
 (1652893053.743874)  can0  1E5   [8]  1C FE 3E 10 00 00 01 A4
 (1652893053.748059)  can0  012   [8]  E8 03 10 00 00 00 00 00
 (1652893053.748597)  can0  014   [5]  2C C0 02 0D 27
 (1652893053.753871)  can0  1E5   [8]  1C FE 3E 30 00 00 01 C4
 (1652893053.758018)  can0  012   [8]  E8 03 10 00 00 00 00 00
 (1652893053.758602)  can0  014   [5]  2B D0 02 10 27
 (1652893053.763870)  can0  1E5   [8]  1C FE 3E 50 00 00 01 E4
 (1652893053.768022)  can0  012   [8]  E8 03 10 00 00 00 00 00
 (1652893053.768553)  can0  014   [5]  2C D0 02 10 27
 (1652893053.773869)  can0  1E5   [8]  1C FE 3E 70 00 00 02 04
 (1652893053.778035)  can0  012   [8]  E8 03 10 00 00 00 00 00
 (1652893053.778596)  can0  014   [5]  2D D0 02 10 27
 (1652893053.784102)  can0  1E5   [8]  1C FE 3E 10 00 00 01 A4
 (1652893053.788047)  can0  012   [8]  E8 03 10 00 00 00 00 00
 (1652893053.788623)  can0  014   [5]  2C C0 02 10 27
 (1652893053.793879)  can0  1E5   [8]  1C FE 3E 30 00 00 01 C4
 (1652893053.795683)  can0  010   [4]  39 8F 0C 01
 (1652893053.798052)  can0  012   [8]  E8 03 10 00 00 00 00 00
 (1652893053.798602)  can0  014   [5]  2B D0 02 13 27
 (1652893053.803880)  can0  1E5   [8]  1C FE 3E 50 00 00 01 E4
 (1652893053.808041)  can0  012   [8]  E8 03 10 00 00 00 00 00
 (1652893053.808590)  can0  014   [5]  2E E0 02 10 27
 (1652893053.813872)  can0  1E5   [8]  1C FE 3E 70 00 00 02 04
 (1652893053.818210)  can0  012   [8]  E8 03 10 00 00 00 00 00
 (1652893053.818589)  can0  014   [5]  2D C0 02 0D 27
 (1652893053.823870)  can0  1E5   [8]  1C FE 3E 10 00 00 01 A4
 (1652893053.828211)  can0  012   [8]  E8 03 10 00 00 00 00 00
 (1652893053.828590)  can0  014   [5]  2C E0 02 13 27
 (1652893053.833847)  can0  1E5   [8]  1C FE 3E 30 00 00 01 C4
 (1652893053.838020)  can0  012   [8]  E8 03 10 00 00 00 00 00
 (1652893053.838566)  can0  014   [5]  2D E0 02 10 27
 (1652893053.843870)  can0  1E5   [8]  1C FE 3E 50 00 00 01 E4
 (1652893053.848200)  can0  012   [8]  E8 03 10 00 00 00 00 00
 (1652893053.848594)  can0  014   [5]  2D D0 02 0D 27
 (1652893053.853838)  can0  1E5   [8]  1C FE 3E 70 00 00 02 04
 (1652893053.858042)  can0  012   [8]  E8 03 10 00 00 00 00 00
 (1652893053.858554)  can0  014   [5]  2C F0 02 12 27
 (1652893053.863843)  can0  1E5   [8]  1C FE 3E 10 00 00 01 A4
 (1652893053.868450)  can0  012   [8]  E8 03 10 00 00 00 00 00
 (1652893053.868561)  can0  014   [5]  2F F0 02 10 27
 (1652893053.873832)  can0  1E5   [8]  1C FE 3E 30 00 00 01 C4
 (1652893053.878053)  can0  012   [8]  E8 03 10 00 00 00 00 00
 (1652893053.878558)  can0  014   [5]  2E F0 02 0E 27
 (1652893053.884341)  can0  1E5   [8]  1C FE 3E 50 00 00 01 E4
 (1652893053.888060)  can0  012   [8]  E8 03 10 00 00 00 00 00
 (1652893053.888561)  can0  014   [5]  2E F0 02 10 27
 (1652893053.893828)  can0  1E5   [8]  1C FE 3E 70 00 00 02 04
 (1652893053.895448)  can0  010   [4]  39 8F 0C 01
 (1652893053.898202)  can0  012   [8]  E8 03 10 00 00 00 00 00
 (1652893053.898568)  can0  014   [5]  30 F0 02 13 27
 (1652893053.903848)  can0  1E5   [8]  1C FE 3E 10 00 00 01 A4
 (1652893053.908014)  can0  012   [8]  E8 03 10 00 00 00 00 00
 (1652893053.908562)  can0  014   [5]  2D F0 02 0E 27
 (1652893053.908671)  can0  0E4   [2]  28 00
 (1652893053.913848)  can0  1E5   [8]  1C FE 3E 30 00 00 01 C4
 (1652893053.918024)  can0  012   [8]  E8 03 10 00 00 00 00 00
 (1652893053.918566)  can0  014   [5]  2E 10 03 13 27
 (1652893053.923844)  can0  1E5   [8]  1C FE 3E 50 00 00 01 E4
 (1652893053.928047)  can0  012   [8]  E8 03 10 00 00 00 00 00
 (1652893053.928565)  can0  014   [5]  2F F0 02 10 27
 (1652893053.933862)  can0  1E5   [8]  1C FE 3E 70 00 00 02 04
 (1652893053.938039)  can0  012   [8]  E8 03 10 00 00 00 00 00
 (1652893053.938552)  can0  014   [5]  2D 00 03 0C 27
 (1652893053.943836)  can0  1E5   [8]  1C FE 3E 10 00 00 01 A4
 (1652893053.948203)  can0  012   [8]  E8 03 10 00 00 00 00 00
 (1652893053.948569)  can0  014   [5]  2D 00 03 10 27
 (1652893053.953849)  can0  1E5   [8]  1C FE 3E 30 00 00 01 C4
 (1652893053.958015)  can0  012   [8]  E8 03 10 00 00 00 00 00
 (1652893053.958556)  can0  014   [5]  2F F0 02 10 27
 (1652893053.963848)  can0  1E5   [8]  1C FE 3E 50 00 00 01 E4
 (1652893053.968591)  can0  012   [8]  E8 03 10 00 00 00 00 00
 (1652893053.968599)  can0  014   [5]  2D 10 03 10 27
 (1652893053.973833)  can0  1E5   [8]  1C FE 3E 70 00 00 02 04
 (1652893053.978204)  can0  012   [8]  E8 03 10 00 00 00 00 00
 (1652893053.978555)  can0  014   [5]  30 10 03 10 27
 (1652893053.983839)  can0  1E5   [8]  1C FE 3E 10 00 00 01 A4
 (1652893053.988047)  can0  012   [8]  E8 03 10 00 00 00 00 00
 (1652893053.988558)  can0  014   [5]  29 00 03 10 27
 (1652893053.993841)  can0  1E5   [8]  1C FE 3E 30 00 00 01 C4
 (1652893053.995625)  can0  010   [4]  39 8F 0C 01
 (1652893053.998200)  can0  012   [8]  E8 03 10 00 00 00 00 00
 (1652893053.998562)  can0  014   [5]  2D 10 03 13 27
 (1652893054.003830)  can0  1E5   [8]  1C FE 3E 50 00 00 01 E4
 (1652893054.008025)  can0  012   [8]  E8 03 10 00 00 00 00 00
 (1652893054.008598)  can0  014   [5]  34 10 03 11 27
 (1652893054.013855)  can0  1E5   [8]  1C FE 3E 70 00 00 02 04
 (1652893054.018221)  can0  012   [8]  E8 03 10 00 00 00 00 00
 (1652893054.018596)  can0  014   [5]  2D 00 03 0C 27
 (1652893054.023854)  can0  1E5   [8]  1C FE 3E 10 00 00 01 A4
 (1652893054.028195)  can0  012   [8]  E8 03 10 00 00 00 00 00
 (1652893054.028597)  can0  014   [5]  33 20 03 11 27
 (1652893054.033899)  can0  1E5   [8]  1C FE 3E 30 00 00 01 C4
 (1652893054.038038)  can0  012   [8]  E8 03 10 00 00 00 00 00
 (1652893054.038567)  can0  014   [5]  30 F0 02 0F 27
 (1652893054.043938)  can0  1E5   [8]  1C FE 3E 50 00 00 01 E4
 (1652893054.048036)  can0  012   [8]  E8 03 10 00 00 00 00 00
 (1652893054.048566)  can0  014   [5]  31 F0 02 10 27
 (1652893054.053832)  can0  1E5   [8]  1C FE 3E 70 00 00 02 04
 (1652893054.058036)  can0  012   [8]  E8 03 10 00 00 00 00 00
 (1652893054.058549)  can0  014   [5]  31 10 03 10 27
 (1652893054.063866)  can0  1E5   [8]  1C FE 3E 10 00 00 01 A4
 (1652893054.068038)  can0  012   [8]  E8 03 10 00 00 00 00 00
 (1652893054.068564)  can0  014   [5]  31 10 03 10 27
 (1652893054.073843)  can0  1E5   [8]  1C FE 3E 30 00 00 01 C4
 (1652893054.078203)  can0  012   [8]  E8 03 10 00 00 00 00 00
 (1652893054.078589)  can0  014   [5]  32 20 03 10 27
 (1652893054.083860)  can0  1E5   [8]  1C FE 3E 50 00 00 01 E4
 (1652893054.088049)  can0  012   [8]  E8 03 10 00 00 00 00 00
 (1652893054.088562)  can0  014   [5]  30 20 03 10 27
 (1652893054.093847)  can0  1E5   [8]  1C FE 3E 70 00 00 02 04
 (1652893054.095617)  can0  010   [4]  39 8F 0C 01
 (1652893054.098200)  can0  012   [8]  E8 03 10 00 00 00 00 00
 (1652893054.098556)  can0  014   [5]  31 20 03 13 27
 (1652893054.103831)  can0  1E5   [8]  1C FE 3E 10 00 00 01 A4
 (1652893054.108012)  can0  012   [8]  E8 03 10 00 00 00 00 00
 (1652893054.108590)  can0  014   [5]  30 20 03 0D 27
 (1652893054.113864)  can0  1E5   [8]  1C FE 3E 30 00 00 01 C4
 (1652893054.118207)  can0  012   [8]  E8 03 10 00 00 00 00 00
 (1652893054.118594)  can0  014   [5]  30 20 03 10 27
 (1652893054.123853)  can0  1E5   [8]  1C FE 3E 50 00 00 01 E4
 (1652893054.128198)  can0  012   [8]  E8 03 10 00 00 00 00 00
 (1652893054.128554)  can0  014   [5]  31 30 03 13 27
 (1652893054.133879)  can0  1E5   [8]  1C FE 3E 70 00 00 02 04
 (1652893054.138029)  can0  012   [8]  E8 03 10 00 00 00 00 00
 (1652893054.138617)  can0  014   [5]  30 30 03 11 27
 (1652893054.143875)  can0  1E5   [8]  1C FE 3E 10 00 00 01 A4
 (1652893054.148047)  can0  012   [8]  E8 03 10 00 00 00 00 00
 (1652893054.148599)  can0  014   [5]  32 10 03 0C 27
 (1652893054.153855)  can0  1E5   [8]  1C FE 3E 30 00 00 01 C4
 (1652893054.158014)  can0  012   [8]  E8 03 10 00 00 00 00 00
 (1652893054.158601)  can0  014   [5]  34 40 03 10 27
 (1652893054.163843)  can0  1E5   [8]  1C FE 3E 50 00 00 01 E4
 (1652893054.168048)  can0  012   [8]  E8 03 10 00 00 00 00 00
 (1652893054.168592)  can0  014   [5]  31 30 03 10 27
 (1652893054.173842)  can0  1E5   [8]  1C FE 40 70 00 00 02 06
 (1652893054.178050)  can0  012   [8]  E8 03 10 00 00 00 00 00
 (1652893054.178593)  can0  014   [5]  33 40 03 10 27
 (1652893054.183906)  can0  1E5   [8]  1C FE 40 10 00 00 01 A6
 (1652893054.188033)  can0  012   [8]  E8 03 10 00 00 00 00 00
 (1652893054.188548)  can0  014   [5]  32 30 03 10 27
 (1652893054.193832)  can0  1E5   [8]  1C FE 42 30 01 00 01 C9
 (1652893054.195618)  can0  010   [4]  39 8F 0C 01
 (1652893054.198043)  can0  012   [8]  E8 03 10 00 00 00 00 00
 (1652893054.198578)  can0  014   [5]  34 30 03 12 27
 (1652893054.203830)  can0  1E5   [8]  1C FE 42 50 01 00 01 E9
 (1652893054.208019)  can0  012   [8]  E8 03 10 00 00 00 00 00
 (1652893054.208548)  can0  014   [5]  34 50 03 12 27
 (1652893054.213843)  can0  1E5   [8]  1C FE 42 70 01 00 02 09
 (1652893054.218286)  can0  012   [8]  E8 03 10 00 00 00 00 00
 (1652893054.218593)  can0  014   [5]  34 40 03 0C 27
 (1652893054.223875)  can0  1E5   [8]  1C FE 42 10 01 00 01 A9
 (1652893054.228330)  can0  012   [8]  E8 03 10 00 00 00 00 00
 (1652893054.228564)  can0  014   [5]  35 30 03 10 27
 (1652893054.233854)  can0  1E5   [8]  1C FE 42 30 01 00 01 C9
 (1652893054.238045)  can0  012   [8]  E8 03 10 00 00 00 00 00
 (1652893054.238619)  can0  014   [5]  32 40 03 10 27
 (1652893054.243850)  can0  1E5   [8]  1C FE 42 50 01 00 01 E9
 (1652893054.248353)  can0  012   [8]  E8 03 10 00 00 00 00 00
 (1652893054.248604)  can0  014   [5]  35 50 03 12 27
 (1652893054.253853)  can0  1E5   [8]  1C FE 42 70 01 00 02 09
 (1652893054.258041)  can0  012   [8]  E8 03 10 00 00 00 00 00
 (1652893054.258550)  can0  014   [5]  37 50 03 0E 27
 (1652893054.263850)  can0  1E5   [8]  1C FE 42 10 01 00 01 A9
 (1652893054.268347)  can0  012   [8]  E8 03 10 00 00 00 00 00
 (1652893054.268591)  can0  014   [5]  30 40 03 10 27
 (1652893054.273824)  can0  1E5   [8]  1C FE 42 30 01 00 01 C9
 (1652893054.278040)  can0  012   [8]  E8 03 10 00 00 00 00 00
 (1652893054.278589)  can0  014   [5]  36 40 03 17 27
 (1652893054.283832)  can0  1E5   [8]  1C FE 42 50 01 00 01 E9
 (1652893054.288056)  can0  012   [8]  E8 03 10 00 00 00 00 00
 (1652893054.288588)  can0  014   [5]  33 50 03 09 27
 (1652893054.293847)  can0  1E5   [8]  1C FE 42 70 00 00 02 08
 (1652893054.295447)  can0  010   [4]  39 8F 0C 01
 (1652893054.298209)  can0  012   [8]  E8 03 10 00 00 00 00 00
 (1652893054.298602)  can0  014   [5]  38 50 03 13 27
 (1652893054.303848)  can0  1E5   [8]  1C FE 42 10 00 00 01 A8
 (1652893054.308021)  can0  012   [8]  E8 03 10 00 00 00 00 00
 (1652893054.308564)  can0  014   [5]  35 60 03 0D 27
 (1652893054.313826)  can0  1E5   [8]  1C FE 42 30 00 00 01 C8
 (1652893054.318043)  can0  012   [8]  E8 03 10 00 00 00 00 00
 (1652893054.318557)  can0  014   [5]  33 50 03 10 27
 (1652893054.323820)  can0  1E5   [8]  1C FE 42 50 00 00 01 E8
 (1652893054.328048)  can0  012   [8]  E8 03 10 00 00 00 00 00
 (1652893054.328565)  can0  014   [5]  37 50 03 10 27
 (1652893054.334166)  can0  1E5   [8]  1C FE 42 70 00 00 02 08
 (1652893054.338049)  can0  012   [8]  E8 03 10 00 00 00 00 00
 (1652893054.338543)  can0  014   [5]  39 70 03 11 27
 (1652893054.343831)  can0  1E5   [8]  1C FE 42 10 00 00 01 A8
 (1652893054.348056)  can0  012   [8]  E8 03 10 00 00 00 00 00
 (1652893054.348550)  can0  014   [5]  37 60 03 0F 27
 (1652893054.353862)  can0  1E5   [8]  1C FE 42 30 00 00 01 C8
 (1652893054.358034)  can0  012   [8]  E8 03 10 00 00 00 00 00
 (1652893054.358562)  can0  014   [5]  38 70 03 10 27
 (1652893054.363849)  can0  1E5   [8]  1C FE 42 50 00 00 01 E8
 (1652893054.368534)  can0  012   [8]  E8 03 10 00 00 00 00 00
 (1652893054.368550)  can0  014   [5]  37 70 03 10 27
 (1652893054.373837)  can0  1E5   [8]  1C FE 42 70 00 00 02 08
 (1652893054.378045)  can0  012   [8]  E8 03 10 00 00 00 00 00
 (1652893054.378557)  can0  014   [5]  39 70 03 17 27
 (1652893054.383831)  can0  1E5   [8]  1C FE 42 10 00 00 01 A8
 (1652893054.388068)  can0  012   [8]  E8 03 10 00 00 00 00 00
 (1652893054.388557)  can0  014   [5]  35 60 03 09 27
 (1652893054.393848)  can0  1E5   [8]  1C FE 42 30 00 00 01 C8
 (1652893054.395656)  can0  010   [4]  39 8F 0C 01
 (1652893054.398209)  can0  012   [8]  E8 03 10 00 00 00 00 00
 (1652893054.398603)  can0  014   [5]  3A 80 03 18 27
 (1652893054.403843)  can0  1E5   [8]  1C FE 42 50 00 00 01 E8
 (1652893054.408043)  can0  012   [8]  E8 03 10 00 00 00 00 00
 (1652893054.408571)  can0  014   [5]  37 80 03 0E 27
 (1652893054.413852)  can0  1E5   [8]  1C FE 43 70 01 00 02 0A
 (1652893054.418218)  can0  012   [8]  E8 03 10 00 00 00 00 00
 (1652893054.418602)  can0  014   [5]  37 70 03 0A 27
 (1652893054.423805)  can0  1E5   [8]  1C FE 42 10 00 00 01 A8
 (1652893054.428214)  can0  012   [8]  E8 03 10 00 00 00 00 00
 (1652893054.428599)  can0  014   [5]  38 70 03 10 27
 (1652893054.433825)  can0  1E5   [8]  1C FE 42 30 00 00 01 C8
 (1652893054.438055)  can0  012   [8]  E8 03 10 00 00 00 00 00
 (1652893054.438580)  can0  014   [5]  36 70 03 10 27
 (1652893054.443818)  can0  1E5   [8]  1C FE 42 50 00 00 01 E8
 (1652893054.448204)  can0  012   [8]  E8 03 10 00 00 00 00 00
 (1652893054.448598)  can0  014   [5]  3A 70 03 10 27
 (1652893054.453883)  can0  1E5   [8]  1C FE 42 70 00 00 02 08
 (1652893054.458081)  can0  012   [8]  E8 03 10 00 00 00 00 00
 (1652893054.458557)  can0  014   [5]  37 80 03 13 27
 (1652893054.463824)  can0  1E5   [8]  1C FE 42 10 00 00 01 A8
 (1652893054.468041)  can0  012   [8]  E8 03 10 00 00 00 00 00
 (1652893054.468558)  can0  014   [5]  37 80 03 0D 27
 (1652893054.473825)  can0  1E5   [8]  1C FE 42 30 00 00 01 C8
 (1652893054.478032)  can0  012   [8]  E8 03 10 00 00 00 00 00
 (1652893054.478661)  can0  014   [5]  38 90 03 10 27
 (1652893054.483813)  can0  1E5   [8]  1C FE 42 50 00 00 01 E8
 (1652893054.488050)  can0  012   [8]  E8 03 10 00 00 00 00 00
 (1652893054.488564)  can0  014   [5]  36 80 03 10 27
 (1652893054.493824)  can0  1E5   [8]  1C FE 43 70 00 00 02 09
 (1652893054.495815)  can0  010   [4]  39 8F 0C 01
 (1652893054.498039)  can0  012   [8]  E8 03 10 00 00 00 00 00
 (1652893054.498550)  can0  014   [5]  37 80 03 13 27
 (1652893054.503819)  can0  1E5   [8]  1C FE 43 10 00 00 01 A9
 (1652893054.508030)  can0  012   [8]  E8 03 10 00 00 00 00 00
 (1652893054.508539)  can0  014   [5]  36 90 03 11 27
 (1652893054.514025)  can0  1E5   [8]  1C FE 45 30 01 00 01 CC
 (1652893054.518756)  can0  012   [8]  E8 03 10 00 00 00 00 00
 (1652893054.518764)  can0  014   [5]  39 80 03 0C 27
 (1652893054.523827)  can0  1E5   [8]  1C FE 46 50 02 00 01 EE
 (1652893054.528194)  can0  012   [8]  E8 03 10 00 00 00 00 00
 (1652893054.528556)  can0  014   [5]  39 90 03 10 27
 (1652893054.533880)  can0  1E5   [8]  1C FE 4A 70 04 00 02 14
 (1652893054.538056)  can0  012   [8]  E8 03 10 00 00 00 00 00
 (1652893054.538556)  can0  014   [5]  39 80 03 10 27
 (1652893054.543816)  can0  1E5   [8]  1C FE 4A 10 04 00 01 B4
 (1652893054.548204)  can0  012   [8]  E8 03 10 00 00 00 00 00
 (1652893054.548544)  can0  014   [5]  3B 60 03 10 27
 (1652893054.553804)  can0  1E5   [8]  1C FE 4A 30 04 00 01 D4
 (1652893054.558030)  can0  012   [8]  E8 03 10 00 00 00 00 00
 (1652893054.558606)  can0  014   [5]  3A A0 03 12 27
 (1652893054.563906)  can0  1E5   [8]  1C FE 4A 50 04 00 01 F4
 (1652893054.568651)  can0  012   [8]  E8 03 10 00 00 00 00 00
 (1652893054.568659)  can0  014   [5]  3B 80 03 0E 27
 (1652893054.573827)  can0  1E5   [8]  1C FE 4A 70 04 00 02 14
 (1652893054.578196)  can0  012   [8]  E8 03 10 00 00 00 00 00
 (1652893054.578550)  can0  014   [5]  39 B0 03 10 27
 (1652893054.583815)  can0  1E5   [8]  1C FE 4A 10 04 00 01 B4
 (1652893054.588004)  can0  012   [8]  E8 03 10 00 00 00 00 00
 (1652893054.588557)  can0  014   [5]  3B A0 03 10 27
 (1652893054.593834)  can0  1E5   [8]  1C FE 4A 30 04 00 01 D4
 (1652893054.595469)  can0  010   [4]  39 8F 0C 01
 (1652893054.598290)  can0  012   [8]  E8 03 10 00 00 00 00 00
 (1652893054.598600)  can0  014   [5]  3B B0 03 1A 27
 (1652893054.603831)  can0  1E5   [8]  1C FE 4B 50 05 00 01 F6
 (1652893054.608015)  can0  012   [8]  E8 03 10 00 00 00 00 00
 (1652893054.608587)  can0  014   [5]  39 A0 03 06 27
 (1652893054.613826)  can0  1E5   [8]  1C FE 4B 70 04 00 02 15
 (1652893054.618040)  can0  012   [8]  E8 03 10 00 00 00 00 00
 (1652893054.618632)  can0  014   [5]  3B A0 03 10 27
 (1652893054.623818)  can0  1E5   [8]  1C FE 4A 10 00 00 01 B0
 (1652893054.628044)  can0  012   [8]  E8 03 10 00 00 00 00 00
 (1652893054.628595)  can0  014   [5]  38 C0 03 10 27
 (1652893054.633842)  can0  1E5   [8]  1C FE 4B 30 00 00 01 D1
 (1652893054.638033)  can0  012   [8]  E8 03 10 00 00 00 00 00
 (1652893054.638551)  can0  014   [5]  3C A0 03 11 27
 (1652893054.643836)  can0  1E5   [8]  1C FE 4B 50 00 00 01 F1
 (1652893054.648064)  can0  012   [8]  E8 03 10 00 00 00 00 00
 (1652893054.648595)  can0  014   [5]  3A C0 03 0F 27
 (1652893054.653827)  can0  1E5   [8]  1C FE 4B 70 00 00 02 11
 (1652893054.658005)  can0  012   [8]  E8 03 10 00 00 00 00 00
 (1652893054.658164)  can0  0E3   [2]  50 00
 (1652893054.658585)  can0  014   [5]  3B B0 03 13 27
 (1652893054.663878)  can0  1E5   [8]  1C FE 4B 10 00 00 01 B1
 (1652893054.668042)  can0  012   [8]  E8 03 10 00 00 00 00 00
 (1652893054.668593)  can0  014   [5]  3B D0 03 11 27
 (1652893054.673816)  can0  1E5   [8]  1C FE 4B 30 00 00 01 D1
 (1652893054.678202)  can0  012   [8]  E8 03 10 00 00 00 00 00
 (1652893054.678550)  can0  014   [5]  3C B0 03 0C 27
 (1652893054.683811)  can0  1E5   [8]  1C FE 4B 50 00 00 01 F1
 (1652893054.688058)  can0  012   [8]  E8 03 10 00 00 00 00 00
 (1652893054.688567)  can0  014   [5]  3C C0 03 10 27
 (1652893054.693805)  can0  1E5   [8]  1C FE 4B 70 00 00 02 11
 (1652893054.695484)  can0  010   [4]  39 8F 0C 01
 (1652893054.695553)  can0  0E2   [2]  92 01
 (1652893054.698212)  can0  012   [8]  E8 03 10 00 00 00 00 00
 (1652893054.698563)  can0  014   [5]  3B C0 03 19 27
 (1652893054.703812)  can0  1E5   [8]  1C FE 4B 10 00 00 01 B1
 (1652893054.708010)  can0  012   [8]  E8 03 10 00 00 00 00 00
 (1652893054.708559)  can0  014   [5]  3C D0 03 0E 27
 (1652893054.713807)  can0  1E5   [8]  1C FE 4B 30 00 00 01 D1
 (1652893054.718193)  can0  012   [8]  E8 03 10 00 00 00 00 00
 (1652893054.718562)  can0  014   [5]  39 C0 03 09 27
 (1652893054.723813)  can0  1E5   [8]  1C FE 4B 50 00 00 01 F1
 (1652893054.728198)  can0  012   [8]  E8 03 10 00 00 00 00 00
 (1652893054.728549)  can0  014   [5]  3D C0 03 10 27
 (1652893054.733804)  can0  1E5   [8]  1C FE 4B 70 00 00 02 11
 (1652893054.738065)  can0  012   [8]  E8 03 10 00 00 00 00 00
 (1652893054.738562)  can0  014   [5]  3A E0 03 14 27
 (1652893054.743805)  can0  1E5   [8]  1C FE 4A 10 00 00 01 B0
 (1652893054.748038)  can0  012   [8]  E8 03 10 00 00 00 00 00
 (1652893054.748559)  can0  014   [5]  3D B0 03 11 27
 (1652893054.753807)  can0  1E5   [8]  1C FE 4A 30 00 00 01 D0
 (1652893054.758035)  can0  012   [8]  E8 03 10 00 00 00 00 00
 (1652893054.758546)  can0  014   [5]  3B D0 03 0E 27
 (1652893054.763860)  can0  1E5   [8]  1C FE 4A 50 00 00 01 F0
 (1652893054.768435)  can0  012   [8]  E8 03 10 00 00 00 00 00
 (1652893054.768561)  can0  014   [5]  3E E0 03 12 27
 (1652893054.773812)  can0  1E5   [8]  1C FE 4B 70 00 00 02 11
 (1652893054.778359)  can0  012   [8]  E8 03 10 00 00 00 00 00
 (1652893054.778585)  can0  014   [5]  3C E0 03 0B 27
 (1652893054.783828)  can0  1E5   [8]  1C FE 4B 10 00 00 01 B1
 (1652893054.788456)  can0  012   [8]  E8 03 10 00 00 00 00 00
 (1652893054.788593)  can0  014   [5]  3C D0 03 10 27
 (1652893054.793826)  can0  1E5   [8]  1C FE 4A 30 00 00 01 D0
 (1652893054.795642)  can0  010   [4]  39 8F 0C 01
 (1652893054.798396)  can0  012   [8]  E8 03 10 00 00 00 00 00
 (1652893054.798590)  can0  014   [5]  3E E0 03 13 27
 (1652893054.803825)  can0  1E5   [8]  1C FE 4B 50 00 00 01 F1
 (1652893054.808032)  can0  012   [8]  E8 03 10 00 00 00 00 00
 (1652893054.808580)  can0  014   [5]  3C E0 03 0D 27
 (1652893054.813813)  can0  1E5   [8]  1C FE 4B 70 00 00 02 11
 (1652893054.818538)  can0  012   [8]  E8 03 10 00 00 00 00 00
 (1652893054.818592)  can0  014   [5]  3E F0 03 12 27
 (1652893054.823815)  can0  1E5   [8]  1C FE 4B 10 00 00 01 B1
 (1652893054.828193)  can0  012   [8]  E8 03 10 00 00 00 00 00
 (1652893054.828539)  can0  014   [5]  3C D0 03 0E 27
 (1652893054.834153)  can0  1E5   [8]  1C FE 4B 30 00 00 01 D1
 (1652893054.838044)  can0  012   [8]  E8 03 10 00 00 00 00 00
 (1652893054.838549)  can0  014   [5]  3E E0 03 10 27
 (1652893054.843819)  can0  1E5   [8]  1C FE 4A 50 00 00 01 F0
 (1652893054.848197)  can0  012   [8]  E8 03 10 00 00 00 00 00
 (1652893054.848563)  can0  014   [5]  3D F0 03 13 27
 (1652893054.853819)  can0  1E5   [8]  1C FE 4B 70 00 00 02 11
 (1652893054.858031)  can0  012   [8]  E8 03 10 00 00 00 00 00
 (1652893054.858556)  can0  014   [5]  3D E0 03 0D 27
 (1652893054.863813)  can0  1E5   [8]  1C FE 4A 10 00 00 01 B0
 (1652893054.868053)  can0  012   [8]  E8 03 10 00 00 00 00 00
 (1652893054.868609)  can0  014   [5]  3E 00 04 14 27
 (1652893054.873802)  can0  1E5   [8]  1C FE 4B 30 00 00 01 D1
 (1652893054.878050)  can0  012   [8]  E8 03 10 00 00 00 00 00
 (1652893054.878589)  can0  014   [5]  3D D0 03 0C 27
 (1652893054.884231)  can0  1E5   [8]  1C FE 4A 50 00 00 01 F0
 (1652893054.888042)  can0  012   [8]  E8 03 10 00 00 00 00 00
 (1652893054.888561)  can0  014   [5]  3D F0 03 10 27
 (1652893054.893813)  can0  1E5   [8]  1C FE 4A 70 00 00 02 10
 (1652893054.895797)  can0  010   [4]  39 8F 0C 01
 (1652893054.898212)  can0  012   [8]  E8 03 10 00 00 00 00 00
 (1652893054.898562)  can0  014   [5]  3F F0 03 13 27
 (1652893054.903813)  can0  1E5   [8]  1C FE 4B 10 00 00 01 B1
 (1652893054.908041)  can0  012   [8]  E8 03 10 00 00 00 00 00
 (1652893054.908551)  can0  014   [5]  3A 00 04 0D 27
 (1652893054.908681)  can0  0E4   [2]  50 00
 (1652893054.913833)  can0  1E5   [8]  1C FE 4A 30 00 00 01 D0
 (1652893054.918213)  can0  012   [8]  E8 03 10 00 00 00 00 00
 (1652893054.918556)  can0  014   [5]  45 00 04 10 27
 (1652893054.923807)  can0  1E5   [8]  1C FE 4B 50 00 00 01 F1
 (1652893054.928197)  can0  012   [8]  E8 03 10 00 00 00 00 00
 (1652893054.928550)  can0  014   [5]  38 10 04 15 27
 (1652893054.933808)  can0  1E5   [8]  1C FE 4B 70 00 00 02 11
 (1652893054.938042)  can0  012   [8]  E8 03 10 00 00 00 00 00
 (1652893054.938540)  can0  014   [5]  3F 00 04 0B 27
 (1652893054.943807)  can0  1E5   [8]  1C FE 4B 10 00 00 01 B1
 (1652893054.948201)  can0  012   [8]  E8 03 10 00 00 00 00 00
 (1652893054.948556)  can0  014   [5]  40 10 04 11 27
 (1652893054.953819)  can0  1E5   [8]  1C FE 4A 30 00 00 01 D0
 (1652893054.958037)  can0  012   [8]  E8 03 10 00 00 00 00 00
 (1652893054.958591)  can0  014   [5]  40 10 04 12 27
 (1652893054.963822)  can0  1E5   [8]  1C FE 4A 50 00 00 01 F0
 (1652893054.968207)  can0  012   [8]  E8 03 10 00 00 00 00 00
 (1652893054.968591)  can0  014   [5]  3C 10 04 0D 27
 (1652893054.973818)  can0  1E5   [8]  1C FE 4B 70 00 00 02 11
 (1652893054.978031)  can0  012   [8]  E8 03 10 00 00 00 00 00
 (1652893054.978600)  can0  014   [5]  45 F0 03 13 27
 (1652893054.983833)  can0  1E5   [8]  1C FE 4B 10 00 00 01 B1
 (1652893054.988040)  can0  012   [8]  E8 03 10 00 00 00 00 00
 (1652893054.988610)  can0  014   [5]  3E E0 03 0D 27
 (1652893054.993805)  can0  1E5   [8]  1C FE 4B 30 00 00 01 D1
 (1652893054.995813)  can0  010   [4]  39 8F 0C 01
 (1652893054.998034)  can0  012   [8]  E8 03 10 00 00 00 00 00
 (1652893054.998559)  can0  014   [5]  43 10 04 13 27
 (1652893055.003801)  can0  1E5   [8]  1C FE 4B 50 00 00 01 F1
 (1652893055.008020)  can0  012   [8]  E8 03 10 00 00 00 00 00
 (1652893055.008568)  can0  014   [5]  41 30 04 15 27
 (1652893055.013822)  can0  1E5   [8]  1C FE 4B 70 00 00 02 11
 (1652893055.018407)  can0  012   [8]  E8 03 10 00 00 00 00 00
 (1652893055.018580)  can0  014   [5]  40 10 04 0B 27
 (1652893055.023803)  can0  1E5   [8]  1C FE 4A 10 00 00 01 B0
 (1652893055.028201)  can0  012   [8]  E8 03 10 00 00 00 00 00
 (1652893055.028597)  can0  014   [5]  43 20 04 0D 27
 (1652893055.033828)  can0  1E5   [8]  1C FE 4B 30 00 00 01 D1
 (1652893055.038037)  can0  012   [8]  E8 03 10 00 00 00 00 00
 (1652893055.038600)  can0  014   [5]  40 30 04 14 27
 (1652893055.044011)  can0  1E5   [8]  1C FE 4A 50 00 00 01 F0
 (1652893055.048195)  can0  012   [8]  E8 03 10 00 00 00 00 00
 (1652893055.048598)  can0  014   [5]  41 30 04 10 27
 (1652893055.053941)  can0  1E5   [8]  1C FE 4A 70 00 00 02 10
 (1652893055.058007)  can0  012   [8]  E8 03 10 00 00 00 00 00
 (1652893055.058591)  can0  014   [5]  41 30 04 13 27
 (1652893055.063825)  can0  1E5   [8]  1C FE 4A 10 00 00 01 B0
 (1652893055.068047)  can0  012   [8]  E8 03 10 00 00 00 00 00
 (1652893055.068590)  can0  014   [5]  42 20 04 09 27
 (1652893055.073849)  can0  1E5   [8]  1C FE 4A 30 00 00 01 D0
 (1652893055.078019)  can0  012   [8]  E8 03 10 00 00 00 00 00
 (1652893055.078543)  can0  014   [5]  3F 30 04 14 27
 (1652893055.083896)  can0  1E5   [8]  1C FE 4A 50 00 00 01 F0
 (1652893055.088041)  can0  012   [8]  E8 03 10 00 00 00 00 00
 (1652893055.088590)  can0  014   [5]  46 30 04 10 27
 (1652893055.093806)  can0  1E5   [8]  1C FE 4A 70 00 00 02 10
 (1652893055.095443)  can0  010   [4]  39 8F 0C 01
 (1652893055.098193)  can0  012   [8]  E8 03 10 00 00 00 00 00
 (1652893055.098591)  can0  014   [5]  43 30 04 13 27
 (1652893055.103837)  can0  1E5   [8]  1C FE 4A 10 00 00 01 B0
 (1652893055.108012)  can0  012   [8]  E8 03 10 00 00 00 00 00
 (1652893055.108549)  can0  014   [5]  42 30 04 09 27
 (1652893055.113795)  can0  1E5   [8]  1C FE 4A 30 00 00 01 D0
 (1652893055.118011)  can0  012   [8]  E8 03 10 00 00 00 00 00
 (1652893055.118548)  can0  014   [5]  44 30 04 12 27
 (1652893055.123784)  can0  1E5   [8]  1C FE 4A 50 00 00 01 F0
 (1652893055.128008)  can0  012   [8]  E8 03 10 00 00 00 00 00
 (1652893055.128594)  can0  014   [5]  42 30 04 0F 27
 (1652893055.133807)  can0  1E5   [8]  1C FE 4A 70 00 00 02 10
 (1652893055.138009)  can0  012   [8]  E8 03 10 00 00 00 00 00
 (1652893055.138544)  can0  014   [5]  44 30 04 12 27
 (1652893055.143802)  can0  1E5   [8]  1C FE 4B 10 00 00 01 B1
 (1652893055.148196)  can0  012   [8]  E8 03 10 00 00 00 00 00
 (1652893055.148556)  can0  014   [5]  43 40 04 0D 27
 (1652893055.153795)  can0  1E5   [8]  1C FE 4A 30 00 00 01 D0
 (1652893055.158011)  can0  012   [8]  E8 03 10 00 00 00 00 00
 (1652893055.158560)  can0  014   [5]  42 30 04 13 27
 (1652893055.163826)  can0  1E5   [8]  1C FE 4B 50 00 00 01 F1
 (1652893055.168299)  can0  012   [8]  E8 03 10 00 00 00 00 00
 (1652893055.168586)  can0  014   [5]  43 30 04 0D 27
 (1652893055.173795)  can0  1E5   [8]  1C FE 4A 70 00 00 02 10
 (1652893055.178057)  can0  012   [8]  E8 03 10 00 00 00 00 00
 (1652893055.178548)  can0  014   [5]  43 30 04 10 27
 (1652893055.183814)  can0  1E5   [8]  1C FE 4B 10 00 00 01 B1
 (1652893055.188044)  can0  012   [8]  E8 03 10 00 00 00 00 00
 (1652893055.188562)  can0  014   [5]  43 50 04 13 27
 (1652893055.193829)  can0  1E5   [8]  1C FE 4B 30 00 00 01 D1
 (1652893055.195610)  can0  010   [4]  39 8F 0C 01
 (1652893055.198191)  can0  012   [8]  E8 03 10 00 00 00 00 00
 (1652893055.198589)  can0  014   [5]  43 40 04 14 27
 (1652893055.203824)  can0  1E5   [8]  1C FE 4B 50 00 00 01 F1
 (1652893055.208007)  can0  012   [8]  E8 03 10 00 00 00 00 00
 (1652893055.208576)  can0  014   [5]  44 40 04 09 27
 (1652893055.213819)  can0  1E5   [8]  1C FE 4B 70 00 00 02 11
 (1652893055.218195)  can0  012   [8]  E8 03 10 00 00 00 00 00
 (1652893055.218544)  can0  014   [5]  45 40 04 10 27
 (1652893055.223792)  can0  1E5   [8]  1C FE 4B 10 00 00 01 B1
 (1652893055.228195)  can0  012   [8]  E8 03 10 00 00 00 00 00
 (1652893055.228597)  can0  014   [5]  44 50 04 13 27
 (1652893055.233824)  can0  1E5   [8]  1C FE 4B 30 00 00 01 D1
 (1652893055.238047)  can0  012   [8]  E8 03 10 00 00 00 00 00
 (1652893055.238583)  can0  014   [5]  46 40 04 0D 27
 (1652893055.243819)  can0  1E5   [8]  1C FE 4B 50 00 00 01 F1
 (1652893055.248246)  can0  012   [8]  E8 03 10 00 00 00 00 00
 (1652893055.248598)  can0  014   [5]  46 60 04 13 27
 (1652893055.253818)  can0  1E5   [8]  1C FE 4B 70 00 00 02 11
 (1652893055.258031)  can0  012   [8]  E8 03 10 00 00 00 00 00
 (1652893055.258641)  can0  014   [5]  45 50 04 10 27
 (1652893055.263820)  can0  1E5   [8]  1C FE 4B 10 00 00 01 B1
 (1652893055.268038)  can0  012   [8]  E8 03 10 00 00 00 00 00
 (1652893055.268559)  can0  014   [5]  46 70 04 0D 27
 (1652893055.273773)  can0  1E5   [8]  1C FE 4D 30 01 00 01 D4
 (1652893055.278043)  can0  012   [8]  E8 03 10 00 00 00 00 00
 (1652893055.278591)  can0  014   [5]  46 60 04 13 27
 (1652893055.284048)  can0  1E5   [8]  1C FE 4D 50 01 00 01 F4
 (1652893055.288038)  can0  012   [8]  E8 03 10 00 00 00 00 00
 (1652893055.288588)  can0  014   [5]  47 70 04 0D 27
 (1652893055.293815)  can0  1E5   [8]  1C FE 4D 70 01 00 02 14
 (1652893055.295636)  can0  010   [4]  39 8F 0C 01
 (1652893055.298194)  can0  012   [8]  E8 03 10 00 00 00 00 00
 (1652893055.298595)  can0  014   [5]  45 70 04 13 27
 (1652893055.303805)  can0  1E5   [8]  1C FE 4D 10 01 00 01 B4
 (1652893055.308010)  can0  012   [8]  E8 03 10 00 00 00 00 00
 (1652893055.308598)  can0  014   [5]  47 70 04 0D 27
 (1652893055.313825)  can0  1E5   [8]  1C FE 4E 30 02 00 01 D6
 (1652893055.318418)  can0  012   [8]  E8 03 10 00 00 00 00 00
 (1652893055.318585)  can0  014   [5]  43 70 04 10 27
 (1652893055.323816)  can0  1E5   [8]  1C FE 4E 50 02 00 01 F6
 (1652893055.328380)  can0  012   [8]  E8 03 10 00 00 00 00 00
 (1652893055.328588)  can0  014   [5]  47 80 04 10 27
 (1652893055.333940)  can0  1E5   [8]  1C FE 4E 70 02 00 02 16
 (1652893055.338051)  can0  012   [8]  E8 03 10 00 00 00 00 00
 (1652893055.338556)  can0  014   [5]  45 70 04 10 27
 (1652893055.343785)  can0  1E5   [8]  1C FE 4E 10 02 00 01 B6
 (1652893055.348193)  can0  012   [8]  E8 03 10 00 00 00 00 00
 (1652893055.348545)  can0  014   [5]  41 70 04 10 27
 (1652893055.353802)  can0  1E5   [8]  1C FE 4E 30 02 00 01 D6
 (1652893055.358009)  can0  012   [8]  E8 03 10 00 00 00 00 00
 (1652893055.358575)  can0  014   [5]  49 60 04 10 27
 (1652893055.363791)  can0  1E5   [8]  1C FE 4E 50 02 00 01 F6
 (1652893055.368426)  can0  012   [8]  E8 03 10 00 00 00 00 00
 (1652893055.368555)  can0  014   [5]  47 70 04 15 27
 (1652893055.373787)  can0  1E5   [8]  1C FE 50 70 02 00 02 18
 (1652893055.378053)  can0  012   [8]  E8 03 10 00 00 00 00 00
 (1652893055.378588)  can0  014   [5]  48 50 04 0F 27
 (1652893055.383829)  can0  1E5   [8]  1C FE 50 10 02 00 01 B8
 (1652893055.388012)  can0  012   [8]  E8 03 10 00 00 00 00 00
 (1652893055.388586)  can0  014   [5]  47 70 04 0C 27
 (1652893055.393817)  can0  1E5   [8]  1C FE 52 30 03 00 01 DB
 (1652893055.395691)  can0  010   [4]  39 8F 0C 01
 (1652893055.398012)  can0  012   [8]  E8 03 10 00 00 00 00 00
 (1652893055.398566)  can0  014   [5]  4A 70 04 17 27
 (1652893055.403818)  can0  1E5   [8]  1C FE 52 50 03 00 01 FB
 (1652893055.408008)  can0  012   [8]  E8 03 10 00 00 00 00 00
 (1652893055.408554)  can0  014   [5]  45 70 04 0C 27
 (1652893055.413815)  can0  1E5   [8]  1C FE 53 70 03 00 02 1C
 (1652893055.418563)  can0  012   [8]  E8 03 10 00 00 00 00 00
 (1652893055.418571)  can0  014   [5]  47 80 04 0D 27
 (1652893055.423805)  can0  1E5   [8]  1C FE 55 10 04 00 01 BF
 (1652893055.428213)  can0  012   [8]  E8 03 10 00 00 00 00 00
 (1652893055.428587)  can0  014   [5]  45 70 04 14 27
 (1652893055.433824)  can0  1E5   [8]  1C FE 56 30 05 00 01 E1
 (1652893055.438041)  can0  012   [8]  E8 03 10 00 00 00 00 00
 (1652893055.438595)  can0  014   [5]  48 70 04 0D 27
 (1652893055.443813)  can0  1E5   [8]  1C FE 5A 50 07 00 02 07
 (1652893055.448203)  can0  012   [8]  E8 03 10 00 00 00 00 00
 (1652893055.448597)  can0  014   [5]  46 70 04 0F 27
 (1652893055.453803)  can0  1E5   [8]  1C FE 5D 70 09 00 02 2C
 (1652893055.458015)  can0  012   [8]  E8 03 10 00 00 00 00 00
 (1652893055.458549)  can0  014   [5]  49 90 04 13 27
 (1652893055.463810)  can0  1E5   [8]  1C FE 60 10 0B 00 01 D1
 (1652893055.468208)  can0  012   [8]  E8 03 10 00 00 00 00 00
 (1652893055.468585)  can0  014   [5]  47 90 04 14 27
 (1652893055.473821)  can0  1E5   [8]  1C FE 63 30 0C 00 01 F5
 (1652893055.478052)  can0  012   [8]  E8 03 10 00 00 00 00 00
 (1652893055.478579)  can0  014   [5]  49 90 04 0C 27
 (1652893055.483793)  can0  1E5   [8]  1C FE 68 50 0F 00 02 1D
 (1652893055.488030)  can0  012   [8]  E8 03 10 00 00 00 00 00
 (1652893055.488604)  can0  014   [5]  49 90 04 11 27
 (1652893055.494028)  can0  1E5   [8]  1C FE 6D 70 11 00 02 44
 (1652893055.495474)  can0  010   [4]  39 8F 0C 01
 (1652893055.498198)  can0  012   [8]  E8 03 10 00 00 00 00 00
 (1652893055.498586)  can0  014   [5]  4A 90 04 0F 27
 (1652893055.503812)  can0  1E5   [8]  1C FE 70 10 13 00 01 E9
 (1652893055.508038)  can0  012   [8]  E8 03 10 00 00 00 00 00
 (1652893055.508577)  can0  014   [5]  4B A0 04 0D 27
 (1652893055.513803)  can0  1E5   [8]  1C FE 73 30 14 00 02 0D
 (1652893055.518028)  can0  012   [8]  E8 03 10 00 00 00 00 00
 (1652893055.518599)  can0  014   [5]  4A A0 04 10 27
 (1652893055.523776)  can0  1E5   [8]  1C FE 76 50 15 00 02 31
 (1652893055.528021)  can0  012   [8]  E8 03 10 00 00 00 00 00
 (1652893055.528595)  can0  014   [5]  4C B0 04 14 27
 (1652893055.533828)  can0  1E5   [8]  1C FE 7A 70 16 00 02 56
 (1652893055.538049)  can0  012   [8]  E8 03 10 00 00 00 00 00
 (1652893055.538581)  can0  014   [5]  4A 90 04 0C 27
 (1652893055.544042)  can0  1E5   [8]  1C FE 7E 10 17 00 01 FB
 (1652893055.548184)  can0  012   [8]  E8 03 10 00 00 00 00 00
 (1652893055.548579)  can0  014   [5]  4B B0 04 10 27
 (1652893055.553796)  can0  1E5   [8]  1C FE 80 30 16 00 02 1C
 (1652893055.558039)  can0  012   [8]  E8 03 10 00 00 00 00 00
 (1652893055.558652)  can0  014   [5]  49 B0 04 10 27
 (1652893055.563834)  can0  1E5   [8]  1C FE 83 50 16 00 02 3F
 (1652893055.568202)  can0  012   [8]  E8 03 10 00 00 00 00 00
 (1652893055.568590)  can0  014   [5]  4C A0 04 10 27
 (1652893055.573776)  can0  1E5   [8]  1C FE 86 70 16 00 02 62
 (1652893055.578196)  can0  012   [8]  E8 03 10 00 00 00 00 00
 (1652893055.578544)  can0  014   [5]  49 B0 04 10 27
 (1652893055.583794)  can0  1E5   [8]  1C FE 86 10 13 00 01 FF
 (1652893055.588031)  can0  012   [8]  E8 03 10 00 00 00 00 00
 (1652893055.588542)  can0  014   [5]  4A B0 04 10 27
 (1652893055.593789)  can0  1E5   [8]  1C FE 8A 30 12 00 02 22
 (1652893055.595620)  can0  010   [4]  39 8F 0C 01
 (1652893055.598203)  can0  012   [8]  E8 03 10 00 00 00 00 00
 (1652893055.598551)  can0  014   [5]  4B C0 04 13 27
 (1652893055.603818)  can0  1E5   [8]  1C FE 8A 50 10 00 02 40
 (1652893055.608006)  can0  012   [8]  E8 03 10 00 00 00 00 00
 (1652893055.608540)  can0  014   [5]  4A A0 04 11 27
 (1652893055.613794)  can0  1E5   [8]  1C FE 8B 70 0F 00 02 60
 (1652893055.618630)  can0  012   [8]  E8 03 10 00 00 00 00 00
 (1652893055.618638)  can0  014   [5]  4A B0 04 0C 27
 (1652893055.623769)  can0  1E5   [8]  1C FE 8B 10 0D 00 01 FE
 (1652893055.628182)  can0  012   [8]  E8 03 10 00 00 00 00 00
 (1652893055.628565)  can0  014   [5]  49 B0 04 10 27
 (1652893055.633788)  can0  1E5   [8]  1C FE 8B 30 0B 00 02 1C
 (1652893055.638043)  can0  012   [8]  E8 03 10 00 00 00 00 00
 (1652893055.638567)  can0  014   [5]  4C D0 04 11 27
 (1652893055.643831)  can0  1E5   [8]  1C FE 8B 50 08 00 02 39
 (1652893055.648024)  can0  012   [8]  E8 03 10 00 00 00 00 00
 (1652893055.648547)  can0  014   [5]  4A B0 04 0F 27
 (1652893055.653777)  can0  1E5   [8]  1C FE 8B 70 07 00 02 58
 (1652893055.658038)  can0  012   [8]  E8 03 10 00 00 00 00 00
 (1652893055.658215)  can0  0E3   [2]  78 00
 (1652893055.658598)  can0  014   [5]  4C D0 04 16 27
 (1652893055.663801)  can0  1E5   [8]  1C FE 8B 10 05 00 01 F6
 (1652893055.668040)  can0  012   [8]  E8 03 10 00 00 00 00 00
 (1652893055.668591)  can0  014   [5]  4B D0 04 0A 27
 (1652893055.673803)  can0  1E5   [8]  1C FE 8B 30 03 00 02 14
 (1652893055.678191)  can0  012   [8]  E8 03 10 00 00 00 00 00
 (1652893055.678588)  can0  014   [5]  4D E0 04 11 27
 (1652893055.683790)  can0  1E5   [8]  1C FE 8A 50 00 00 02 30
 (1652893055.688044)  can0  012   [8]  E8 03 10 00 00 00 00 00
 (1652893055.688567)  can0  014   [5]  4C E0 04 13 27
 (1652893055.693816)  can0  1E5   [8]  1C FE 8A 70 00 00 02 50
 (1652893055.695612)  can0  010   [4]  39 8F 0C 01
 (1652893055.695620)  can0  0E2   [2]  BA 01
 (1652893055.698200)  can0  012   [8]  E8 03 10 00 00 00 00 00
 (1652893055.698603)  can0  014   [5]  4C B0 04 12 27
 (1652893055.703813)  can0  1E5   [8]  1C FE 88 1F FF 00 02 FC
 (1652893055.708045)  can0  012   [8]  E8 03 10 00 00 00 00 00
 (1652893055.708552)  can0  014   [5]  49 F0 04 0E 27
 (1652893055.713786)  can0  1E5   [8]  1C FE 88 3F FF 00 03 1C
 (1652893055.718450)  can0  012   [8]  E8 03 10 00 00 00 00 00
 (1652893055.718545)  can0  014   [5]  4D D0 04 0D 27
 (1652893055.723775)  can0  1E5   [8]  1C FE 88 5F FF 00 03 3C
 (1652893055.728193)  can0  012   [8]  E8 03 10 00 00 00 00 00
 (1652893055.728592)  can0  014   [5]  4C D0 04 0F 27
 (1652893055.733815)  can0  1E5   [8]  1C FE 88 7F FF 00 03 5C
 (1652893055.738030)  can0  012   [8]  E8 03 10 00 00 00 00 00
 (1652893055.738560)  can0  014   [5]  4C A0 04 15 27
 (1652893055.743788)  can0  1E5   [8]  1C FE 88 1F FF 00 02 FC
 (1652893055.748036)  can0  012   [8]  E8 03 10 00 00 00 00 00
 (1652893055.748555)  can0  014   [5]  4C D0 04 0E 27
 (1652893055.753785)  can0  1E5   [8]  1C FE 86 3F FE 00 03 19
 (1652893055.758007)  can0  012   [8]  E8 03 10 00 00 00 00 00
 (1652893055.758542)  can0  014   [5]  4C F0 04 0D 27
 (1652893055.763780)  can0  1E5   [8]  1C FE 86 5F FE 00 03 39
 (1652893055.768015)  can0  012   [8]  E8 03 10 00 00 00 00 00
 (1652893055.768601)  can0  014   [5]  4D E0 04 13 27
 (1652893055.773809)  can0  1E5   [8]  1C FE 86 7F FE 00 03 59
 (1652893055.778012)  can0  012   [8]  E8 03 10 00 00 00 00 00
 (1652893055.778559)  can0  014   [5]  4D F0 04 0E 27
 (1652893055.783808)  can0  1E5   [8]  1C FE 88 10 00 00 01 EE
 (1652893055.788357)  can0  012   [8]  E8 03 10 00 00 00 00 00
 (1652893055.788583)  can0  014   [5]  4E F0 04 0F 27
 (1652893055.793821)  can0  1E5   [8]  1C FE 86 30 00 00 02 0C
 (1652893055.795470)  can0  010   [4]  39 8F 0C 01
 (1652893055.798209)  can0  012   [8]  E8 03 10 00 00 00 00 00
 (1652893055.798599)  can0  014   [5]  4D 00 05 17 27
 (1652893055.803800)  can0  1E5   [8]  1C FE 86 50 00 00 02 2C
 (1652893055.808013)  can0  012   [8]  E8 03 10 00 00 00 00 00
 (1652893055.808545)  can0  014   [5]  4F 00 05 0C 27
 (1652893055.813848)  can0  1E5   [8]  1C FE 88 70 00 00 02 4E
 (1652893055.818456)  can0  012   [8]  E8 03 10 00 00 00 00 00
 (1652893055.818565)  can0  014   [5]  4F F0 04 0D 27
 (1652893055.823805)  can0  1E5   [8]  1C FE 88 10 00 00 01 EE
 (1652893055.828051)  can0  012   [8]  E8 03 10 00 00 00 00 00
 (1652893055.828579)  can0  014   [5]  4E 10 05 10 27
 (1652893055.833795)  can0  1E5   [8]  1C FE 88 30 00 00 02 0E
 (1652893055.838167)  can0  012   [8]  E8 03 10 00 00 00 00 00
 (1652893055.838635)  can0  014   [5]  4F 00 05 10 27
 (1652893055.843789)  can0  1E5   [8]  1C FE 88 50 00 00 02 2E
 (1652893055.848054)  can0  012   [8]  E8 03 10 00 00 00 00 00
 (1652893055.848587)  can0  014   [5]  4F 00 05 10 27
 (1652893055.853780)  can0  1E5   [8]  1C FE 8A 70 01 00 02 51
 (1652893055.858013)  can0  012   [8]  E8 03 10 00 00 00 00 00
 (1652893055.858546)  can0  014   [5]  4D 00 05 10 27
 (1652893055.863800)  can0  1E5   [8]  1C FE 8A 10 01 00 01 F1
 (1652893055.868183)  can0  012   [8]  E8 03 10 00 00 00 00 00
 (1652893055.868561)  can0  014   [5]  4B F0 04 13 27
 (1652893055.873769)  can0  1E5   [8]  1C FE 8A 30 01 00 02 11
 (1652893055.878188)  can0  012   [8]  E8 03 10 00 00 00 00 00
 (1652893055.878602)  can0  014   [5]  50 10 05 11 27
 (1652893055.884172)  can0  1E5   [8]  1C FE 8A 50 01 00 02 31
 (1652893055.888040)  can0  012   [8]  E8 03 10 00 00 00 00 00
 (1652893055.888553)  can0  014   [5]  51 D0 04 0D 27
 (1652893055.893781)  can0  1E5   [8]  1C FE 8A 70 01 00 02 51
 (1652893055.895438)  can0  010   [4]  39 8F 0C 01
 (1652893055.898183)  can0  012   [8]  E8 03 10 00 00 00 00 00
 (1652893055.898585)  can0  014   [5]  4D 00 05 12 27
 (1652893055.903778)  can0  1E5   [8]  1C FE 8B 10 02 00 01 F3
 (1652893055.908029)  can0  012   [8]  E8 03 10 00 00 00 00 00
 (1652893055.908556)  can0  014   [5]  4E 00 05 10 27
 (1652893055.908672)  can0  0E4   [2]  78 00
 (1652893055.913801)  can0  1E5   [8]  1C FE 8B 30 02 00 02 13
 (1652893055.918025)  can0  012   [8]  E8 03 10 00 00 00 00 00
 (1652893055.918539)  can0  014   [5]  52 F0 04 0D 27
 (1652893055.923765)  can0  1E5   [8]  1C FE 8B 50 02 00 02 33
 (1652893055.928025)  can0  012   [8]  E8 03 10 00 00 00 00 00
