 (1652893154.626180)  can0  012   [8]  E8 03 10 00 00 00 00 00
 (1652893154.627014)  can0  014   [5]  00 00 00 10 27
 (1652893154.629200)  can0  1E5   [8]  1C FF 7B 30 00 00 02 02
 (1652893154.636181)  can0  012   [8]  E8 03 10 00 00 00 00 00
 (1652893154.637032)  can0  014   [5]  00 00 00 10 27
 (1652893154.639059)  can0  1E5   [8]  1C FF 7B 50 00 00 02 22
 (1652893154.646335)  can0  012   [8]  E8 03 10 00 00 00 00 00
 (1652893154.647014)  can0  014   [5]  FF FF FF 10 27
 (1652893154.649402)  can0  1E5   [8]  1C FF 7B 70 00 00 02 42
 (1652893154.656370)  can0  012   [8]  E8 03 10 00 00 00 00 00
 (1652893154.657043)  can0  014   [5]  00 00 00 10 27
 (1652893154.659019)  can0  1E5   [8]  1C FF 7B 10 00 00 01 E2
 (1652893154.666344)  can0  012   [8]  E8 03 10 00 00 00 00 00
 (1652893154.666451)  can0  010   [4]  26 73 00 00
 (1652893154.667032)  can0  014   [5]  00 00 00 13 27
 (1652893154.669204)  can0  1E5   [8]  1C FF 7A 3F FF 00 03 0F
 (1652893154.676354)  can0  012   [8]  E8 03 10 00 00 00 00 00
 (1652893154.677011)  can0  014   [5]  FF FF FF 0D 27
 (1652893154.679208)  can0  1E5   [8]  1C FF 7A 5F FF 00 03 2F
 (1652893154.686336)  can0  012   [8]  E8 03 10 00 00 00 00 00
 (1652893154.687019)  can0  014   [5]  00 00 00 10 27
 (1652893154.689206)  can0  1E5   [8]  1C FF 7A 7F FF 00 03 4F
 (1652893154.696358)  can0  012   [8]  E8 03 10 00 00 00 00 00
 (1652893154.697029)  can0  014   [5]  00 00 00 10 27
 (1652893154.699200)  can0  1E5   [8]  1C FF 7A 1F FF 00 02 EF
 (1652893154.706368)  can0  012   [8]  E8 03 10 00 00 00 00 00
 (1652893154.707042)  can0  014   [5]  FF FF FF 10 27
 (1652893154.709200)  can0  1E5   [8]  1C FF 7A 3F FF 00 03 0F
 (1652893154.716361)  can0  012   [8]  E8 03 10 00 00 00 00 00
 (1652893154.717003)  can0  014   [5]  00 00 00 10 27
 (1652893154.719046)  can0  1E5   [8]  1C FF 7B 50 00 00 02 22
 (1652893154.726348)  can0  012   [8]  E8 03 10 00 00 00 00 00
 (1652893154.727005)  can0  014   [5]  00 00 00 10 27
 (1652893154.729208)  can0  1E5   [8]  1C FF 7B 70 00 00 02 42
 (1652893154.736350)  can0  012   [8]  E8 03 10 00 00 00 00 00
 (1652893154.737014)  can0  014   [5]  FF 0F 00 10 27
 (1652893154.739205)  can0  1E5   [8]  1C FF 7B 10 00 00 01 E2
 (1652893154.746350)  can0  012   [8]  E8 03 10 00 00 00 00 00
 (1652893154.747019)  can0  014   [5]  00 F0 FF 10 27
 (1652893154.749202)  can0  1E5   [8]  1C FF 7A 30 00 00 02 01
 (1652893154.756372)  can0  012   [8]  E8 03 10 00 00 00 00 00
 (1652893154.757033)  can0  014   [5]  00 00 00 10 27
 (1652893154.759205)  can0  1E5   [8]  1C FF 7A 50 00 00 02 21
 (1652893154.766344)  can0  012   [8]  E8 03 10 00 00 00 00 00
 (1652893154.766438)  can0  010   [4]  26 73 00 00
 (1652893154.767013)  can0  014   [5]  00 F0 FF 13 27
 (1652893154.769207)  can0  1E5   [8]  1C FF 7A 70 00 00 02 41
 (1652893154.776343)  can0  012   [8]  E8 03 10 00 00 00 00 00
 (1652893154.777008)  can0  014   [5]  FF 0F 00 0D 27
 (1652893154.779213)  can0  1E5   [8]  1C FF 7A 10 00 00 01 E1
 (1652893154.786342)  can0  012   [8]  E8 03 10 00 00 00 00 00
 (1652893154.787003)  can0  014   [5]  00 00 00 10 27
 (1652893154.789198)  can0  1E5   [8]  1C FF 7A 30 00 00 02 01
 (1652893154.796359)  can0  012   [8]  E8 03 10 00 00 00 00 00
 (1652893154.797022)  can0  014   [5]  00 00 00 10 27
 (1652893154.799212)  can0  1E5   [8]  1C FF 7A 50 00 00 02 21
 (1652893154.806365)  can0  012   [8]  E8 03 10 00 00 00 00 00
 (1652893154.807017)  can0  014   [5]  FF FF FF 10 27
 (1652893154.809202)  can0  1E5   [8]  1C FF 7A 70 00 00 02 41
 (1652893154.816342)  can0  012   [8]  E8 03 10 00 00 00 00 00
 (1652893154.817027)  can0  014   [5]  00 00 00 10 27
 (1652893154.819194)  can0  1E5   [8]  1C FF 7A 10 00 00 01 E1
 (1652893154.826380)  can0  012   [8]  E8 03 10 00 00 00 00 00
 (1652893154.827002)  can0  014   [5]  FF 0F 00 10 27
 (1652893154.829194)  can0  1E5   [8]  1C FF 7A 30 00 00 02 01
 (1652893154.836332)  can0  012   [8]  E8 03 10 00 00 00 00 00
 (1652893154.837002)  can0  014   [5]  00 F0 FF 10 27
 (1652893154.839196)  can0  1E5   [8]  1C FF 7A 50 00 00 02 21
 (1652893154.846334)  can0  012   [8]  E8 03 10 00 00 00 00 00
 (1652893154.847008)  can0  014   [5]  00 00 00 10 27
 (1652893154.849211)  can0  1E5   [8]  1C FF 7A 70 00 00 02 41
 (1652893154.856374)  can0  012   [8]  E8 03 10 00 00 00 00 00
 (1652893154.856990)  can0  014   [5]  FF 0F 00 10 27
 (1652893154.859210)  can0  1E5   [8]  1C FF 7A 10 00 00 01 E1
 (1652893154.866341)  can0  012   [8]  E8 03 10 00 00 00 00 00
 (1652893154.866350)  can0  0E3   [2]  50 00
 (1652893154.866451)  can0  010   [4]  26 73 00 00
 (1652893154.866564)  can0  0E2   [2]  50 00
 (1652893154.866999)  can0  014   [5]  00 F0 FF 19 27
 (1652893154.867125)  can0  0E4   [2]  50 00
 (1652893154.869020)  can0  1E5   [8]  1C FF 7A 30 00 00 02 01
 (1652893154.876342)  can0  012   [8]  E8 03 10 00 00 00 00 00
 (1652893154.877014)  can0  014   [5]  00 00 00 07 27
 (1652893154.879194)  can0  1E5   [8]  1C FF 7A 50 00 00 02 21
 (1652893154.886346)  can0  012   [8]  E8 03 10 00 00 00 00 00
 (1652893154.887010)  can0  014   [5]  00 00 00 10 27
 (1652893154.889204)  can0  1E5   [8]  1C FF 7A 70 00 00 02 41
 (1652893154.896357)  can0  012   [8]  E8 03 10 00 00 00 00 00
 (1652893154.897014)  can0  014   [5]  FF FF FF 10 27
 (1652893154.899209)  can0  1E5   [8]  1C FF 7A 10 00 00 01 E1
 (1652893154.906371)  can0  012   [8]  E8 03 10 00 00 00 00 00
 (1652893154.907033)  can0  014   [5]  00 00 00 10 27
 (1652893154.909199)  can0  1E5   [8]  1C FF 78 3F FF 00 03 0D
 (1652893154.916339)  can0  012   [8]  E8 03 10 00 00 00 00 00
 (1652893154.917003)  can0  014   [5]  00 00 00 10 27
 (1652893154.919190)  can0  1E5   [8]  1C FF 78 5F FF 00 03 2D
 (1652893154.926172)  can0  012   [8]  E8 03 10 00 00 00 00 00
 (1652893154.926997)  can0  014   [5]  FF 0F 00 10 27
 (1652893154.929205)  can0  1E5   [8]  1C FF 78 7F FF 00 03 4D
 (1652893154.936345)  can0  012   [8]  E8 03 10 00 00 00 00 00
 (1652893154.937007)  can0  014   [5]  00 F0 FF 10 27
 (1652893154.939203)  can0  1E5   [8]  1C FF 78 1F FF 00 02 ED
 (1652893154.946343)  can0  012   [8]  E8 03 10 00 00 00 00 00
 (1652893154.947007)  can0  014   [5]  00 00 00 10 27
 (1652893154.949194)  can0  1E5   [8]  1C FF 78 3F FF 00 03 0D
 (1652893154.956393)  can0  012   [8]  E8 03 10 00 00 00 00 00
 (1652893154.957002)  can0  014   [5]  FF 0F 00 10 27
 (1652893154.959197)  can0  1E5   [8]  1C FF 78 5F FF 00 03 2D
 (1652893154.966342)  can0  012   [8]  E8 03 10 00 00 00 00 00
 (1652893154.966432)  can0  010   [4]  26 73 00 00
 (1652893154.967014)  can0  014   [5]  00 00 00 13 27
 (1652893154.969191)  can0  1E5   [8]  1C FF 76 7F FE 00 03 4A
 (1652893154.976354)  can0  012   [8]  E8 03 10 00 00 00 00 00
 (1652893154.977016)  can0  014   [5]  00 F0 FF 0D 27
 (1652893154.979189)  can0  1E5   [8]  1C FF 76 1F FE 00 02 EA
 (1652893154.986376)  can0  012   [8]  E8 03 10 00 00 00 00 00
 (1652893154.986999)  can0  014   [5]  00 00 00 10 27
 (1652893154.989210)  can0  1E5   [8]  1C FF 76 3F FE 00 03 0A
 (1652893154.996354)  can0  012   [8]  E8 03 10 00 00 00 00 00
 (1652893154.996994)  can0  014   [5]  FF 0F 00 10 27
 (1652893154.999212)  can0  1E5   [8]  1C FF 76 5F FE 00 03 2A
 (1652893155.006366)  can0  012   [8]  E8 03 10 00 00 00 00 00
 (1652893155.007001)  can0  014   [5]  00 00 00 10 27
 (1652893155.009219)  can0  1E5   [8]  1C FF 76 7F FF 00 03 4B
 (1652893155.016372)  can0  012   [8]  E8 03 10 00 00 00 00 00
 (1652893155.017039)  can0  014   [5]  00 F0 FF 10 27
 (1652893155.019234)  can0  1E5   [8]  1C FF 76 1F FF 00 02 EB
 (1652893155.026334)  can0  012   [8]  E8 03 10 00 00 00 00 00
 (1652893155.027004)  can0  014   [5]  00 00 00 10 27
 (1652893155.029265)  can0  1E5   [8]  1C FF 76 3F FF 00 03 0B
 (1652893155.036386)  can0  012   [8]  E8 03 10 00 00 00 00 00
 (1652893155.036997)  can0  014   [5]  00 00 00 10 27
 (1652893155.039277)  can0  1E5   [8]  1C FF 76 5F FF 00 03 2B
 (1652893155.046344)  can0  012   [8]  E8 03 10 00 00 00 00 00
 (1652893155.047010)  can0  014   [5]  FF FF FF 10 27
 (1652893155.049296)  can0  1E5   [8]  1C FF 76 7F FF 00 03 4B
 (1652893155.056498)  can0  012   [8]  E8 03 10 00 00 00 00 00
 (1652893155.057001)  can0  014   [5]  00 00 00 10 27
 (1652893155.059315)  can0  1E5   [8]  1C FF 76 1F FF 00 02 EB
 (1652893155.066453)  can0  012   [8]  E8 03 10 00 00 00 00 00
 (1652893155.066461)  can0  010   [4]  26 73 00 00
 (1652893155.066995)  can0  014   [5]  00 00 00 13 27
 (1652893155.069327)  can0  1E5   [8]  1C FF 78 30 00 00 01 FF
 (1652893155.076351)  can0  012   [8]  E8 03 10 00 00 00 00 00
 (1652893155.077011)  can0  014   [5]  00 00 00 0D 27
 (1652893155.079202)  can0  1E5   [8]  1C FF 76 50 00 00 02 1D
 (1652893155.086363)  can0  012   [8]  E8 03 10 00 00 00 00 00
 (1652893155.087021)  can0  014   [5]  FF 0F 00 10 27
 (1652893155.089199)  can0  1E5   [8]  1C FF 76 70 00 00 02 3D
 (1652893155.096381)  can0  012   [8]  E8 03 10 00 00 00 00 00
 (1652893155.096997)  can0  014   [5]  00 F0 FF 10 27
 (1652893155.099198)  can0  1E5   [8]  1C FF 76 10 00 00 01 DD
 (1652893155.106425)  can0  012   [8]  E8 03 10 00 00 00 00 00
 (1652893155.107008)  can0  014   [5]  00 00 00 10 27
 (1652893155.109194)  can0  1E5   [8]  1C FF 76 30 00 00 01 FD
 (1652893155.116427)  can0  012   [8]  E8 03 10 00 00 00 00 00
 (1652893155.117004)  can0  014   [5]  00 00 00 10 27
 (1652893155.119202)  can0  1E5   [8]  1C FF 76 50 00 00 02 1D
 (1652893155.126175)  can0  012   [8]  E8 03 10 00 00 00 00 00
 (1652893155.127032)  can0  014   [5]  FF 0F 00 10 27
 (1652893155.129026)  can0  1E5   [8]  1C FF 76 70 00 00 02 3D
 (1652893155.136148)  can0  012   [8]  E8 03 10 00 00 00 00 00
 (1652893155.137016)  can0  014   [5]  00 00 00 10 27
 (1652893155.139019)  can0  1E5   [8]  1C FF 76 10 00 00 01 DD
 (1652893155.146183)  can0  012   [8]  E8 03 10 00 00 00 00 00
 (1652893155.146998)  can0  014   [5]  00 00 00 10 27
 (1652893155.149024)  can0  1E5   [8]  1C FF 76 30 00 00 01 FD
 (1652893155.156203)  can0  012   [8]  E8 03 10 00 00 00 00 00
 (1652893155.157032)  can0  014   [5]  00 F0 FF 10 27
 (1652893155.159017)  can0  1E5   [8]  1C FF 76 50 00 00 02 1D
 (1652893155.166352)  can0  012   [8]  E8 03 10 00 00 00 00 00
 (1652893155.166439)  can0  010   [4]  26 73 00 00
 (1652893155.167027)  can0  014   [5]  00 00 00 13 27
 (1652893155.169196)  can0  1E5   [8]  1C FF 76 70 00 00 02 3D
 (1652893155.176170)  can0  012   [8]  E8 03 10 00 00 00 00 00
 (1652893155.177012)  can0  014   [5]  00 00 00 0D 27
 (1652893155.179198)  can0  1E5   [8]  1C FF 76 10 00 00 01 DD
 (1652893155.186343)  can0  012   [8]  E8 03 10 00 00 00 00 00
 (1652893155.187016)  can0  014   [5]  FF 0F 00 10 27
 (1652893155.189190)  can0  1E5   [8]  1C FF 76 30 00 00 01 FD
 (1652893155.196265)  can0  012   [8]  E8 03 10 00 00 00 00 00
 (1652893155.197075)  can0  014   [5]  00 00 00 10 27
 (1652893155.199185)  can0  1E5   [8]  1C FF 76 50 00 00 02 1D
 (1652893155.206373)  can0  012   [8]  E8 03 10 00 00 00 00 00
 (1652893155.207042)  can0  014   [5]  00 00 00 10 27
 (1652893155.209184)  can0  1E5   [8]  1C FF 76 70 00 00 02 3D
 (1652893155.216344)  can0  012   [8]  E8 03 10 00 00 00 00 00
 (1652893155.217008)  can0  014   [5]  00 00 00 10 27
 (1652893155.219192)  can0  1E5   [8]  1C FF 76 10 00 00 01 DD
 (1652893155.226334)  can0  012   [8]  E8 03 10 00 00 00 00 00
 (1652893155.227002)  can0  014   [5]  00 F0 FF 10 27
 (1652893155.229032)  can0  1E5   [8]  1C FF 76 30 00 00 01 FD
 (1652893155.236346)  can0  012   [8]  E8 03 10 00 00 00 00 00
 (1652893155.237000)  can0  014   [5]  00 00 00 10 27
 (1652893155.239193)  can0  1E5   [8]  1C FF 76 50 00 00 02 1D
 (1652893155.246332)  can0  012   [8]  E8 03 10 00 00 00 00 00
 (1652893155.246995)  can0  014   [5]  00 00 00 10 27
 (1652893155.249189)  can0  1E5   [8]  1C FF 76 70 00 00 02 3D
 (1652893155.256372)  can0  012   [8]  E8 03 10 00 00 00 00 00
 (1652893155.257035)  can0  014   [5]  FF 0F 00 10 27
 (1652893155.259185)  can0  1E5   [8]  1C FF 76 10 00 00 01 DD
 (1652893155.266337)  can0  012   [8]  E8 03 10 00 00 00 00 00
 (1652893155.266440)  can0  010   [4]  26 73 00 00
 (1652893155.267008)  can0  014   [5]  00 F0 FF 13 27
 (1652893155.269195)  can0  1E5   [8]  1C FF 76 30 00 00 01 FD
 (1652893155.276330)  can0  012   [8]  E8 03 10 00 00 00 00 00
 (1652893155.276999)  can0  014   [5]  00 00 00 0D 27
 (1652893155.279191)  can0  1E5   [8]  1C FF 76 50 00 00 02 1D
 (1652893155.286328)  can0  012   [8]  E8 03 10 00 00 00 00 00
 (1652893155.286997)  can0  014   [5]  00 00 00 10 27
 (1652893155.289182)  can0  1E5   [8]  1C FF 76 70 00 00 02 3D
 (1652893155.296349)  can0  012   [8]  E8 03 10 00 00 00 00 00
 (1652893155.297008)  can0  014   [5]  00 00 00 10 27
 (1652893155.299183)  can0  1E5   [8]  1C FF 75 1F FF 00 02 EA
 (1652893155.306364)  can0  012   [8]  E8 03 10 00 00 00 00 00
 (1652893155.307032)  can0  014   [5]  00 00 00 10 27
 (1652893155.309179)  can0  1E5   [8]  1C FF 75 3F FF 00 03 0A
 (1652893155.316341)  can0  012   [8]  E8 03 10 00 00 00 00 00
 (1652893155.317006)  can0  014   [5]  FF 0F 00 10 27
 (1652893155.319172)  can0  1E5   [8]  1C FF 75 5F FF 00 03 2A
 (1652893155.326226)  can0  012   [8]  E8 03 10 00 00 00 00 00
 (1652893155.327005)  can0  014   [5]  00 F0 FF 10 27
 (1652893155.329189)  can0  1E5   [8]  1C FF 75 7F FF 00 03 4A
 (1652893155.336326)  can0  012   [8]  E8 03 10 00 00 00 00 00
 (1652893155.336992)  can0  014   [5]  00 00 00 10 27
 (1652893155.339185)  can0  1E5   [8]  1C FF 73 1F FE 00 02 E7
 (1652893155.346380)  can0  012   [8]  E8 03 10 00 00 00 00 00
 (1652893155.346998)  can0  014   [5]  FF 0F 00 10 27
 (1652893155.349183)  can0  1E5   [8]  1C FF 73 3F FE 00 03 07
 (1652893155.356360)  can0  012   [8]  E8 03 10 00 00 00 00 00
 (1652893155.357028)  can0  014   [5]  00 00 00 10 27
 (1652893155.359018)  can0  1E5   [8]  1C FF 73 5F FE 00 03 27
 (1652893155.366337)  can0  012   [8]  E8 03 10 00 00 00 00 00
 (1652893155.366440)  can0  010   [4]  26 73 00 00
 (1652893155.367040)  can0  014   [5]  00 00 00 13 27
 (1652893155.369187)  can0  1E5   [8]  1C FF 73 7F FE 00 03 47
 (1652893155.376334)  can0  012   [8]  E8 03 10 00 00 00 00 00
 (1652893155.376999)  can0  014   [5]  00 F0 FF 0D 27
 (1652893155.379191)  can0  1E5   [8]  1C FF 73 1F FE 00 02 E7
 (1652893155.386272)  can0  012   [8]  E8 03 10 00 00 00 00 00
 (1652893155.386999)  can0  014   [5]  00 00 00 10 27
 (1652893155.389186)  can0  1E5   [8]  1C FF 73 3F FE 00 03 07
 (1652893155.396354)  can0  012   [8]  E8 03 10 00 00 00 00 00
 (1652893155.397019)  can0  014   [5]  FF 0F 00 10 27
 (1652893155.399185)  can0  1E5   [8]  1C FF 73 5F FF 00 03 28
 (1652893155.406363)  can0  012   [8]  E8 03 10 00 00 00 00 00
 (1652893155.407040)  can0  014   [5]  00 00 00 10 27
 (1652893155.409179)  can0  1E5   [8]  1C FF 73 7F FF 00 03 48
 (1652893155.416346)  can0  012   [8]  E8 03 10 00 00 00 00 00
 (1652893155.417017)  can0  014   [5]  00 00 00 10 27
 (1652893155.419200)  can0  1E5   [8]  1C FF 73 1F FF 00 02 E8
 (1652893155.426328)  can0  012   [8]  E8 03 10 00 00 00 00 00
 (1652893155.426999)  can0  014   [5]  00 F0 FF 10 27
 (1652893155.429186)  can0  1E5   [8]  1C FF 73 3F FF 00 03 08
 (1652893155.436346)  can0  012   [8]  E8 03 10 00 00 00 00 00
 (1652893155.437008)  can0  014   [5]  00 00 00 10 27
 (1652893155.439186)  can0  1E5   [8]  1C FF 73 50 00 00 02 1A
 (1652893155.446357)  can0  012   [8]  E8 03 10 00 00 00 00 00
 (1652893155.447001)  can0  014   [5]  FF 0F 00 10 27
 (1652893155.449179)  can0  1E5   [8]  1C FF 73 70 00 00 02 3A
 (1652893155.456363)  can0  012   [8]  E8 03 10 00 00 00 00 00
 (1652893155.457033)  can0  014   [5]  00 F0 FF 10 27
 (1652893155.459175)  can0  1E5   [8]  1C FF 73 10 00 00 01 DA
 (1652893155.466171)  can0  012   [8]  E8 03 10 00 00 00 00 00
 (1652893155.466428)  can0  010   [4]  26 73 00 00
 (1652893155.467024)  can0  014   [5]  00 00 00 13 27
 (1652893155.469191)  can0  1E5   [8]  1C FF 73 30 00 00 01 FA
 (1652893155.476372)  can0  012   [8]  E8 03 10 00 00 00 00 00
 (1652893155.476994)  can0  014   [5]  00 00 00 0D 27
 (1652893155.479194)  can0  1E5   [8]  1C FF 73 50 00 00 02 1A
 (1652893155.486354)  can0  012   [8]  E8 03 10 00 00 00 00 00
 (1652893155.487018)  can0  014   [5]  FF 0F 00 10 27
 (1652893155.489024)  can0  1E5   [8]  1C FF 73 70 00 00 02 3A
 (1652893155.496337)  can0  012   [8]  E8 03 10 00 00 00 00 00
 (1652893155.497008)  can0  014   [5]  00 00 00 10 27
 (1652893155.499187)  can0  1E5   [8]  1C FF 73 10 00 00 01 DA
 (1652893155.506364)  can0  012   [8]  E8 03 10 00 00 00 00 00
 (1652893155.506992)  can0  014   [5]  00 F0 FF 10 27
 (1652893155.509181)  can0  1E5   [8]  1C FF 73 30 00 00 01 FA
 (1652893155.516334)  can0  012   [8]  E8 03 10 00 00 00 00 00
 (1652893155.516994)  can0  014   [5]  FF 0F 00 10 27
 (1652893155.519200)  can0  1E5   [8]  1C FF 73 50 00 00 02 1A
 (1652893155.526352)  can0  012   [8]  E8 03 10 00 00 00 00 00
 (1652893155.527014)  can0  014   [5]  00 00 00 10 27
 (1652893155.529234)  can0  1E5   [8]  1C FF 73 70 00 00 02 3A
 (1652893155.536348)  can0  012   [8]  E8 03 10 00 00 00 00 00
 (1652893155.537008)  can0  014   [5]  00 00 00 10 27
 (1652893155.539242)  can0  1E5   [8]  1C FF 73 10 00 00 01 DA
 (1652893155.546421)  can0  012   [8]  E8 03 10 00 00 00 00 00
 (1652893155.547003)  can0  014   [5]  00 F0 FF 10 27
 (1652893155.549261)  can0  1E5   [8]  1C FF 73 30 00 00 01 FA
 (1652893155.556484)  can0  012   [8]  E8 03 10 00 00 00 00 00
 (1652893155.556991)  can0  014   [5]  FF 0F 00 10 27
 (1652893155.559267)  can0  1E5   [8]  1C FF 73 50 00 00 02 1A
 (1652893155.566344)  can0  012   [8]  E8 03 10 00 00 00 00 00
 (1652893155.566420)  can0  010   [4]  26 73 00 00
 (1652893155.567016)  can0  014   [5]  00 00 00 13 27
 (1652893155.569301)  can0  1E5   [8]  1C FF 73 70 00 00 02 3A
 (1652893155.576342)  can0  012   [8]  E8 03 10 00 00 00 00 00
 (1652893155.577004)  can0  014   [5]  00 00 00 0D 27
 (1652893155.579004)  can0  1E5   [8]  1C FF 73 10 00 00 01 DA
 (1652893155.586328)  can0  012   [8]  E8 03 10 00 00 00 00 00
 (1652893155.587009)  can0  014   [5]  00 F0 FF 10 27
 (1652893155.589189)  can0  1E5   [8]  1C FF 73 30 00 00 01 FA
 (1652893155.596342)  can0  012   [8]  E8 03 10 00 00 00 00 00
 (1652893155.597010)  can0  014   [5]  00 00 00 10 27
 (1652893155.599182)  can0  1E5   [8]  1C FF 73 50 00 00 02 1A
 (1652893155.606387)  can0  012   [8]  E8 03 10 00 00 00 00 00
 (1652893155.606992)  can0  014   [5]  FF 0F 00 10 27
 (1652893155.609178)  can0  1E5   [8]  1C FF 73 70 00 00 02 3A
 (1652893155.616520)  can0  012   [8]  E8 03 10 00 00 00 00 00
 (1652893155.616987)  can0  014   [5]  00 F0 FF 10 27
 (1652893155.618982)  can0  1E5   [8]  1C FF 73 10 00 00 01 DA
 (1652893155.626414)  can0  012   [8]  E8 03 10 00 00 00 00 00
 (1652893155.627036)  can0  014   [5]  00 00 00 10 27
 (1652893155.629193)  can0  1E5   [8]  1C FF 73 30 00 00 01 FA
 (1652893155.636522)  can0  012   [8]  E8 03 10 00 00 00 00 00
 (1652893155.637033)  can0  014   [5]  00 00 00 10 27
 (1652893155.639185)  can0  1E5   [8]  1C FF 73 50 00 00 02 1A
 (1652893155.646454)  can0  012   [8]  E8 03 10 00 00 00 00 00
 (1652893155.647032)  can0  014   [5]  FF 0F 00 10 27
 (1652893155.649173)  can0  1E5   [8]  1C FF 73 70 00 00 02 3A
 (1652893155.656398)  can0  012   [8]  E8 03 10 00 00 00 00 00
 (1652893155.657024)  can0  014   [5]  00 F0 FF 10 27
 (1652893155.659171)  can0  1E5   [8]  1C FF 73 10 00 00 01 DA
 (1652893155.666346)  can0  012   [8]  E8 03 10 00 00 00 00 00
 (1652893155.666438)  can0  010   [4]  26 73 00 00
 (1652893155.667037)  can0  014   [5]  00 00 00 13 27
 (1652893155.669185)  can0  1E5   [8]  1C FF 73 30 00 00 01 FA
 (1652893155.676346)  can0  012   [8]  E8 03 10 00 00 00 00 00
 (1652893155.677017)  can0  014   [5]  FF 0F 00 0D 27
 (1652893155.679174)  can0  1E5   [8]  1C FF 73 50 00 00 02 1A
 (1652893155.686341)  can0  012   [8]  E8 03 10 00 00 00 00 00
 (1652893155.687027)  can0  014   [5]  00 00 00 10 27
 (1652893155.689166)  can0  1E5   [8]  1C FF 72 7F FF 00 03 47
 (1652893155.696338)  can0  012   [8]  E8 03 10 00 00 00 00 00
 (1652893155.697023)  can0  014   [5]  00 00 00 10 27
 (1652893155.699176)  can0  1E5   [8]  1C FF 72 1F FF 00 02 E7
 (1652893155.706358)  can0  012   [8]  E8 03 10 00 00 00 00 00
 (1652893155.707017)  can0  014   [5]  00 F0 FF 10 27
 (1652893155.709189)  can0  1E5   [8]  1C FF 72 3F FF 00 03 07
 (1652893155.716203)  can0  012   [8]  E8 03 10 00 00 00 00 00
 (1652893155.717036)  can0  014   [5]  FF 0F 00 10 27
 (1652893155.719180)  can0  1E5   [8]  1C FF 72 5F FF 00 03 27
 (1652893155.726338)  can0  012   [8]  E8 03 10 00 00 00 00 00
 (1652893155.727025)  can0  014   [5]  00 00 00 10 27
 (1652893155.729181)  can0  1E5   [8]  1C FF 72 7F FF 00 03 47
 (1652893155.736332)  can0  012   [8]  E8 03 10 00 00 00 00 00
 (1652893155.737027)  can0  014   [5]  00 F0 FF 10 27
 (1652893155.739167)  can0  1E5   [8]  1C FF 72 1F FF 00 02 E7
 (1652893155.746191)  can0  012   [8]  E8 03 10 00 00 00 00 00
 (1652893155.747139)  can0  014   [5]  FF 0F 00 10 27
 (1652893155.749015)  can0  1E5   [8]  1C FF 72 3F FF 00 03 07
 (1652893155.756361)  can0  012   [8]  E8 03 10 00 00 00 00 00
 (1652893155.757043)  can0  014   [5]  00 00 00 10 27
 (1652893155.759202)  can0  1E5   [8]  1C FF 72 5F FF 00 03 27
 (1652893155.766338)  can0  012   [8]  E8 03 10 00 00 00 00 00
 (1652893155.766445)  can0  010   [4]  26 73 00 00
 (1652893155.767034)  can0  014   [5]  00 F0 FF 13 27
 (1652893155.769179)  can0  1E5   [8]  1C FF 72 7F FF 00 03 47
 (1652893155.776335)  can0  012   [8]  E8 03 10 00 00 00 00 00
 (1652893155.777029)  can0  014   [5]  00 00 00 0D 27
 (1652893155.779159)  can0  1E5   [8]  1C FF 72 1F FF 00 02 E7
 (1652893155.786328)  can0  012   [8]  E8 03 10 00 00 00 00 00
 (1652893155.787020)  can0  014   [5]  FF 0F 00 10 27
 (1652893155.789182)  can0  1E5   [8]  1C FF 72 30 00 00 01 F9
 (1652893155.796346)  can0  012   [8]  E8 03 10 00 00 00 00 00
 (1652893155.797012)  can0  014   [5]  00 00 00 10 27
 (1652893155.799169)  can0  1E5   [8]  1C FF 72 50 00 00 02 19
 (1652893155.806367)  can0  012   [8]  E8 03 10 00 00 00 00 00
 (1652893155.806992)  can0  014   [5]  00 F0 FF 10 27
 (1652893155.809173)  can0  1E5   [8]  1C FF 72 70 00 00 02 39
 (1652893155.816331)  can0  012   [8]  E8 03 10 00 00 00 00 00
 (1652893155.816995)  can0  014   [5]  FF 0F 00 10 27
 (1652893155.819165)  can0  1E5   [8]  1C FF 72 10 00 00 01 D9
 (1652893155.826335)  can0  012   [8]  E8 03 10 00 00 00 00 00
 (1652893155.827007)  can0  014   [5]  00 00 00 10 27
 (1652893155.829177)  can0  1E5   [8]  1C FF 72 30 00 00 01 F9
 (1652893155.836342)  can0  012   [8]  E8 03 10 00 00 00 00 00
 (1652893155.837007)  can0  014   [5]  00 F0 FF 10 27
 (1652893155.839178)  can0  1E5   [8]  1C FF 73 50 00 00 02 1A
 (1652893155.846264)  can0  012   [8]  E8 03 10 00 00 00 00 00
 (1652893155.847052)  can0  014   [5]  FF 0F 00 10 27
 (1652893155.849170)  can0  1E5   [8]  1C FF 72 70 00 00 02 39
 (1652893155.856351)  can0  012   [8]  E8 03 10 00 00 00 00 00
 (1652893155.857018)  can0  014   [5]  00 00 00 10 27
 (1652893155.859162)  can0  1E5   [8]  1C FF 73 10 00 00 01 DA
 (1652893155.866376)  can0  012   [8]  E8 03 10 00 00 00 00 00
 (1652893155.866385)  can0  0E3   [2]  78 00
 (1652893155.866465)  can0  010   [4]  26 73 00 00
 (1652893155.866561)  can0  0E2   [2]  78 00
 (1652893155.867004)  can0  014   [5]  00 00 00 19 27
 (1652893155.867128)  can0  0E4   [2]  78 00
 (1652893155.869170)  can0  1E5   [8]  1C FF 73 30 00 00 01 FA
 (1652893155.876343)  can0  012   [8]  E8 03 10 00 00 00 00 00
 (1652893155.877006)  can0  014   [5]  00 F0 FF 07 27
 (1652893155.879001)  can0  1E5   [8]  1C FF 73 50 00 00 02 1A
 (1652893155.886351)  can0  012   [8]  E8 03 10 00 00 00 00 00
 (1652893155.887014)  can0  014   [5]  FF 0F 00 10 27
 (1652893155.889164)  can0  1E5   [8]  1C FF 73 70 00 00 02 3A
 (1652893155.896337)  can0  012   [8]  E8 03 10 00 00 00 00 00
 (1652893155.897008)  can0  014   [5]  00 F0 FF 10 27
 (1652893155.899164)  can0  1E5   [8]  1C FF 73 10 00 00 01 DA
 (1652893155.906357)  can0  012   [8]  E8 03 10 00 00 00 00 00
 (1652893155.907018)  can0  014   [5]  00 00 00 10 27
 (1652893155.909173)  can0  1E5   [8]  1C FF 73 30 00 00 01 FA
 (1652893155.916329)  can0  012   [8]  E8 03 10 00 00 00 00 00
 (1652893155.916999)  can0  014   [5]  FF 0F 00 10 27
 (1652893155.919166)  can0  1E5   [8]  1C FF 73 50 00 00 02 1A
 (1652893155.926340)  can0  012   [8]  E8 03 10 00 00 00 00 00
 (1652893155.927009)  can0  014   [5]  00 00 00 10 27
 (1652893155.929164)  can0  1E5   [8]  1C FF 72 70 00 00 02 39
 (1652893155.936183)  can0  012   [8]  E8 03 10 00 00 00 00 00
 (1652893155.936987)  can0  014   [5]  00 F0 FF 10 27
 (1652893155.939163)  can0  1E5   [8]  1C FF 73 10 00 00 01 DA
 (1652893155.946551)  can0  012   [8]  E8 03 10 00 00 00 00 00
 (1652893155.946993)  can0  014   [5]  FF 0F 00 10 27
 (1652893155.949172)  can0  1E5   [8]  1C FF 73 30 00 00 01 FA
 (1652893155.956348)  can0  012   [8]  E8 03 10 00 00 00 00 00
 (1652893155.957020)  can0  014   [5]  00 00 00 10 27
 (1652893155.959178)  can0  1E5   [8]  1C FF 73 50 00 00 02 1A
 (1652893155.966350)  can0  012   [8]  E8 03 10 00 00 00 00 00
 (1652893155.966421)  can0  010   [4]  26 73 00 00
 (1652893155.967006)  can0  014   [5]  00 00 00 13 27
 (1652893155.969159)  can0  1E5   [8]  1C FF 73 70 00 00 02 3A
 (1652893155.976325)  can0  012   [8]  E8 03 10 00 00 00 00 00
 (1652893155.976991)  can0  014   [5]  00 F0 FF 0D 27
 (1652893155.979160)  can0  1E5   [8]  1C FF 73 10 00 00 01 DA
 (1652893155.986148)  can0  012   [8]  E8 03 10 00 00 00 00 00
 (1652893155.987010)  can0  014   [5]  FF 0F 00 10 27
 (1652893155.989181)  can0  1E5   [8]  1C FF 73 30 00 00 01 FA
 (1652893155.996343)  can0  012   [8]  E8 03 10 00 00 00 00 00
 (1652893155.997028)  can0  014   [5]  00 00 00 10 27
 (1652893155.999112)  can0  1E5   [8]  1C FF 73 50 00 00 02 1A
 (1652893156.006366)  can0  012   [8]  E8 03 10 00 00 00 00 00
 (1652893156.006990)  can0  014   [5]  00 00 00 10 27
 (1652893156.008959)  can0  1E5   [8]  1C FF 72 70 00 00 02 39
 (1652893156.016327)  can0  012   [8]  E8 03 10 00 00 00 00 00
 (1652893156.017040)  can0  014   [5]  00 F0 FF 10 27
 (1652893156.019171)  can0  1E5   [8]  1C FF 73 10 00 00 01 DA
 (1652893156.026344)  can0  012   [8]  E8 03 10 00 00 00 00 00
 (1652893156.027008)  can0  014   [5]  FF 0F 00 10 27
 (1652893156.029186)  can0  1E5   [8]  1C FF 73 30 00 00 01 FA
 (1652893156.036440)  can0  012   [8]  E8 03 10 00 00 00 00 00
 (1652893156.037000)  can0  014   [5]  00 00 00 10 27
 (1652893156.039212)  can0  1E5   [8]  1C FF 73 50 00 00 02 1A
 (1652893156.046410)  can0  012   [8]  E8 03 10 00 00 00 00 00
 (1652893156.047001)  can0  014   [5]  00 F0 FF 10 27
 (1652893156.049223)  can0  1E5   [8]  1C FF 72 70 00 00 02 39
 (1652893156.056413)  can0  012   [8]  E8 03 10 00 00 00 00 00
 (1652893156.057007)  can0  014   [5]  00 00 00 10 27
 (1652893156.059257)  can0  1E5   [8]  1C FF 72 10 00 00 01 D9
 (1652893156.066388)  can0  012   [8]  E8 03 10 00 00 00 00 00
 (1652893156.066457)  can0  010   [4]  26 73 00 00
 (1652893156.066999)  can0  014   [5]  FF 0F 00 13 27
 (1652893156.069272)  can0  1E5   [8]  1C FF 72 30 00 00 01 F9
 (1652893156.076379)  can0  012   [8]  E8 03 10 00 00 00 00 00
 (1652893156.076998)  can0  014   [5]  00 00 00 0D 27
 (1652893156.079284)  can0  1E5   [8]  1C FF 72 50 00 00 02 19
 (1652893156.086341)  can0  012   [8]  E8 03 10 00 00 00 00 00
 (1652893156.087004)  can0  014   [5]  00 F0 FF 10 27
 (1652893156.089294)  can0  1E5   [8]  1C FF 72 70 00 00 02 39
 (1652893156.096340)  can0  012   [8]  E8 03 10 00 00 00 00 00
 (1652893156.096997)  can0  014   [5]  FF 0F 00 10 27
 (1652893156.099314)  can0  1E5   [8]  1C FF 72 10 00 00 01 D9
 (1652893156.106234)  can0  012   [8]  E8 03 10 00 00 00 00 00
 (1652893156.107002)  can0  014   [5]  00 00 00 10 27
 (1652893156.109171)  can0  1E5   [8]  1C FF 72 30 00 00 01 F9
 (1652893156.116353)  can0  012   [8]  E8 03 10 00 00 00 00 00
 (1652893156.117013)  can0  014   [5]  00 00 00 10 27
 (1652893156.119163)  can0  1E5   [8]  1C FF 72 50 00 00 02 19
 (1652893156.126373)  can0  012   [8]  E8 03 10 00 00 00 00 00
 (1652893156.127032)  can0  014   [5]  00 00 00 10 27
 (1652893156.129062)  can0  1E5   [8]  1C FF 72 70 00 00 02 39
 (1652893156.136202)  can0  012   [8]  E8 03 10 00 00 00 00 00
 (1652893156.136993)  can0  014   [5]  00 F0 FF 10 27
 (1652893156.139148)  can0  1E5   [8]  1C FF 72 10 00 00 01 D9
 (1652893156.146466)  can0  012   [8]  E8 03 10 00 00 00 00 00
 (1652893156.146986)  can0  014   [5]  FF 0F 00 10 27
 (1652893156.149177)  can0  1E5   [8]  1C FF 72 30 00 00 01 F9
 (1652893156.156516)  can0  012   [8]  E8 03 10 00 00 00 00 00
 (1652893156.157034)  can0  014   [5]  00 00 00 10 27
 (1652893156.159163)  can0  1E5   [8]  1C FF 72 50 00 00 02 19
 (1652893156.166451)  can0  012   [8]  E8 03 10 00 00 00 00 00
 (1652893156.166459)  can0  010   [4]  26 73 00 00
 (1652893156.167031)  can0  014   [5]  00 00 00 13 27
 (1652893156.168993)  can0  1E5   [8]  1C FF 72 70 00 00 02 39
 (1652893156.176501)  can0  012   [8]  E8 03 10 00 00 00 00 00
 (1652893156.177007)  can0  014   [5]  00 00 00 0D 27
 (1652893156.179173)  can0  1E5   [8]  1C FF 72 10 00 00 01 D9
 (1652893156.186333)  can0  012   [8]  E8 03 10 00 00 00 00 00
 (1652893156.187018)  can0  014   [5]  00 F0 FF 10 27
 (1652893156.189175)  can0  1E5   [8]  1C FF 73 30 00 00 01 FA
 (1652893156.196337)  can0  012   [8]  E8 03 10 00 00 00 00 00
 (1652893156.197027)  can0  014   [5]  FF 0F 00 10 27
 (1652893156.199171)  can0  1E5   [8]  1C FF 72 50 00 00 02 19
 (1652893156.206355)  can0  012   [8]  E8 03 10 00 00 00 00 00
 (1652893156.207031)  can0  014   [5]  00 00 00 10 27
 (1652893156.209177)  can0  1E5   [8]  1C FF 72 70 00 00 02 39
 (1652893156.216345)  can0  012   [8]  E8 03 10 00 00 00 00 00
 (1652893156.217024)  can0  014   [5]  00 00 00 10 27
 (1652893156.219164)  can0  1E5   [8]  1C FF 72 10 00 00 01 D9
 (1652893156.226332)  can0  012   [8]  E8 03 10 00 00 00 00 00
 (1652893156.226998)  can0  014   [5]  00 00 00 10 27
 (1652893156.229153)  can0  1E5   [8]  1C FF 72 30 00 00 01 F9
 (1652893156.236182)  can0  012   [8]  E8 03 10 00 00 00 00 00
 (1652893156.237019)  can0  014   [5]  00 F0 FF 10 27
 (1652893156.239173)  can0  1E5   [8]  1C FF 72 50 00 00 02 19
 (1652893156.246325)  can0  012   [8]  E8 03 10 00 00 00 00 00
 (1652893156.246991)  can0  014   [5]  00 00 00 10 27
 (1652893156.249160)  can0  1E5   [8]  1C FF 72 70 00 00 02 39
 (1652893156.256363)  can0  012   [8]  E8 03 10 00 00 00 00 00
 (1652893156.257025)  can0  014   [5]  FF 0F 00 10 27
 (1652893156.259169)  can0  1E5   [8]  1C FF 72 10 00 00 01 D9
 (1652893156.266337)  can0  012   [8]  E8 03 10 00 00 00 00 00
 (1652893156.266433)  can0  010   [4]  26 73 00 00
 (1652893156.267009)  can0  014   [5]  00 00 00 13 27
 (1652893156.269151)  can0  1E5   [8]  1C FF 72 30 00 00 01 F9
 (1652893156.276328)  can0  012   [8]  E8 03 10 00 00 00 00 00
 (1652893156.277036)  can0  014   [5]  00 00 00 0D 27
 (1652893156.279148)  can0  1E5   [8]  1C FF 72 50 00 00 02 19
 (1652893156.286331)  can0  012   [8]  E8 03 10 00 00 00 00 00
 (1652893156.286996)  can0  014   [5]  00 F0 FF 10 27
 (1652893156.289161)  can0  1E5   [8]  1C FF 72 70 00 00 02 39
 (1652893156.296327)  can0  012   [8]  E8 03 10 00 00 00 00 00
 (1652893156.296993)  can0  014   [5]  FF 0F 00 10 27
 (1652893156.299176)  can0  1E5   [8]  1C FF 72 10 00 00 01 D9
 (1652893156.306371)  can0  012   [8]  E8 03 10 00 00 00 00 00
 (1652893156.307032)  can0  014   [5]  00 00 00 10 27
 (1652893156.309168)  can0  1E5   [8]  1C FF 72 30 00 00 01 F9
 (1652893156.316340)  can0  012   [8]  E8 03 10 00 00 00 00 00
 (1652893156.317007)  can0  014   [5]  00 00 00 10 27
 (1652893156.319163)  can0  1E5   [8]  1C FF 73 50 00 00 02 1A
 (1652893156.326325)  can0  012   [8]  E8 03 10 00 00 00 00 00
 (1652893156.326990)  can0  014   [5]  00 00 00 10 27
 (1652893156.329151)  can0  1E5   [8]  1C FF 73 70 00 00 02 3A
 (1652893156.336319)  can0  012   [8]  E8 03 10 00 00 00 00 00
 (1652893156.336985)  can0  014   [5]  00 00 00 10 27
 (1652893156.339162)  can0  1E5   [8]  1C FF 72 10 00 00 01 D9
 (1652893156.346343)  can0  012   [8]  E8 03 10 00 00 00 00 00
 (1652893156.347001)  can0  014   [5]  00 F0 FF 10 27
 (1652893156.349168)  can0  1E5   [8]  1C FF 72 30 00 00 01 F9
 (1652893156.356358)  can0  012   [8]  E8 03 10 00 00 00 00 00
 (1652893156.357018)  can0  014   [5]  FF 0F 00 10 27
 (1652893156.359163)  can0  1E5   [8]  1C FF 72 50 00 00 02 19
 (1652893156.366198)  can0  012   [8]  E8 03 10 00 00 00 00 00
 (1652893156.366431)  can0  010   [4]  26 73 00 00
 (1652893156.366985)  can0  014   [5]  00 00 00 13 27
 (1652893156.369148)  can0  1E5   [8]  1C FF 72 70 00 00 02 39
 (1652893156.376337)  can0  012   [8]  E8 03 10 00 00 00 00 00
 (1652893156.377002)  can0  014   [5]  00 00 00 0D 27
 (1652893156.379153)  can0  1E5   [8]  1C FF 72 10 00 00 01 D9
 (1652893156.386348)  can0  012   [8]  E8 03 10 00 00 00 00 00
 (1652893156.387010)  can0  014   [5]  00 00 00 10 27
 (1652893156.389172)  can0  1E5   [8]  1C FF 73 30 00 00 01 FA
 (1652893156.396337)  can0  012   [8]  E8 03 10 00 00 00 00 00
 (1652893156.397010)  can0  014   [5]  00 00 00 10 27
 (1652893156.398984)  can0  1E5   [8]  1C FF 73 50 00 00 02 1A
 (1652893156.406356)  can0  012   [8]  E8 03 10 00 00 00 00 00
 (1652893156.407028)  can0  014   [5]  00 00 00 10 27
 (1652893156.409158)  can0  1E5   [8]  1C FF 72 70 00 00 02 39
 (1652893156.416328)  can0  012   [8]  E8 03 10 00 00 00 00 00
 (1652893156.416991)  can0  014   [5]  00 F0 FF 10 27
 (1652893156.419152)  can0  1E5   [8]  1C FF 72 10 00 00 01 D9
 (1652893156.426340)  can0  012   [8]  E8 03 10 00 00 00 00 00
 (1652893156.427009)  can0  014   [5]  FF 0F 00 10 27
 (1652893156.429167)  can0  1E5   [8]  1C FF 72 30 00 00 01 F9
 (1652893156.436335)  can0  012   [8]  E8 03 10 00 00 00 00 00
 (1652893156.436997)  can0  014   [5]  00 00 00 10 27
 (1652893156.439167)  can0  1E5   [8]  1C FF 72 50 00 00 02 19
 (1652893156.446328)  can0  012   [8]  E8 03 10 00 00 00 00 00
 (1652893156.446996)  can0  014   [5]  00 00 00 10 27
 (1652893156.449149)  can0  1E5   [8]  1C FF 72 70 00 00 02 39
 (1652893156.456352)  can0  012   [8]  E8 03 10 00 00 00 00 00
 (1652893156.457022)  can0  014   [5]  00 00 00 10 27
 (1652893156.458979)  can0  1E5   [8]  1C FF 72 10 00 00 01 D9
 (1652893156.466182)  can0  012   [8]  E8 03 10 00 00 00 00 00
 (1652893156.466463)  can0  010   [4]  26 73 00 00
 (1652893156.467016)  can0  014   [5]  00 F0 FF 13 27
 (1652893156.468994)  can0  1E5   [8]  1C FF 72 30 00 00 01 F9
 (1652893156.476173)  can0  012   [8]  E8 03 10 00 00 00 00 00
 (1652893156.477027)  can0  014   [5]  00 00 00 0D 27
 (1652893156.478990)  can0  1E5   [8]  1C FF 72 50 00 00 02 19
 (1652893156.486333)  can0  012   [8]  E8 03 10 00 00 00 00 00
 (1652893156.487029)  can0  014   [5]  FF 0F 00 10 27
 (1652893156.489149)  can0  1E5   [8]  1C FF 72 70 00 00 02 39
 (1652893156.496183)  can0  012   [8]  E8 03 10 00 00 00 00 00
 (1652893156.497024)  can0  014   [5]  00 00 00 10 27
 (1652893156.499153)  can0  1E5   [8]  1C FF 72 10 00 00 01 D9
 (1652893156.506366)  can0  012   [8]  E8 03 10 00 00 00 00 00
 (1652893156.507032)  can0  014   [5]  00 00 00 10 27
 (1652893156.509144)  can0  1E5   [8]  1C FF 72 30 00 00 01 F9
 (1652893156.516341)  can0  012   [8]  E8 03 10 00 00 00 00 00
 (1652893156.517004)  can0  014   [5]  00 00 00 10 27
 (1652893156.519154)  can0  1E5   [8]  1C FF 72 50 00 00 02 19
 (1652893156.526332)  can0  012   [8]  E8 03 10 00 00 00 00 00
 (1652893156.526993)  can0  014   [5]  00 F0 FF 10 27
 (1652893156.528999)  can0  1E5   [8]  1C FF 72 70 00 00 02 39
 (1652893156.536337)  can0  012   [8]  E8 03 10 00 00 00 00 00
 (1652893156.537002)  can0  014   [5]  FF 0F 00 10 27
 (1652893156.539164)  can0  1E5   [8]  1C FF 72 10 00 00 01 D9
 (1652893156.546327)  can0  012   [8]  E8 03 10 00 00 00 00 00
 (1652893156.546993)  can0  014   [5]  00 00 00 10 27
 (1652893156.549185)  can0  1E5   [8]  1C FF 72 30 00 00 01 F9
 (1652893156.556354)  can0  012   [8]  E8 03 10 00 00 00 00 00
 (1652893156.557015)  can0  014   [5]  00 00 00 10 27
 (1652893156.559206)  can0  1E5   [8]  1C FF 72 50 00 00 02 19
 (1652893156.566357)  can0  012   [8]  E8 03 10 00 00 00 00 00
 (1652893156.566428)  can0  010   [4]  26 73 00 00
 (1652893156.566984)  can0  014   [5]  00 00 00 13 27
 (1652893156.569220)  can0  1E5   [8]  1C FF 72 70 00 00 02 39
 (1652893156.576431)  can0  012   [8]  E8 03 10 00 00 00 00 00
 (1652893156.576991)  can0  014   [5]  00 00 00 0D 27
 (1652893156.579234)  can0  1E5   [8]  1C FF 72 10 00 00 01 D9
 (1652893156.586354)  can0  012   [8]  E8 03 10 00 00 00 00 00
 (1652893156.586991)  can0  014   [5]  00 00 00 10 27
 (1652893156.589233)  can0  1E5   [8]  1C FF 73 30 00 00 01 FA
 (1652893156.596336)  can0  012   [8]  E8 03 10 00 00 00 00 00
 (1652893156.597005)  can0  014   [5]  FF FF FF 10 27
 (1652893156.599271)  can0  1E5   [8]  1C FF 72 50 00 00 02 19
 (1652893156.606470)  can0  012   [8]  E8 03 10 00 00 00 00 00
 (1652893156.606998)  can0  014   [5]  00 00 00 10 27
 (1652893156.608942)  can0  1E5   [8]  1C FF 72 70 00 00 02 39
 (1652893156.616343)  can0  012   [8]  E8 03 10 00 00 00 00 00
 (1652893156.617021)  can0  014   [5]  00 00 00 10 27
 (1652893156.619157)  can0  1E5   [8]  1C FF 72 10 00 00 01 D9
 (1652893156.626167)  can0  012   [8]  E8 03 10 00 00 00 00 00
 (1652893156.626998)  can0  014   [5]  00 00 00 10 27
 (1652893156.628980)  can0  1E5   [8]  1C FF 72 30 00 00 01 F9
 (1652893156.636174)  can0  012   [8]  E8 03 10 00 00 00 00 00
 (1652893156.637036)  can0  014   [5]  00 00 00 10 27
 (1652893156.638965)  can0  1E5   [8]  1C FF 72 50 00 00 02 19
 (1652893156.646173)  can0  012   [8]  E8 03 10 00 00 00 00 00
 (1652893156.647022)  can0  014   [5]  00 00 00 10 27
 (1652893156.648978)  can0  1E5   [8]  1C FF 72 70 00 00 02 39
 (1652893156.656194)  can0  012   [8]  E8 03 10 00 00 00 00 00
 (1652893156.657032)  can0  014   [5]  00 00 00 10 27
 (1652893156.658986)  can0  1E5   [8]  1C FF 72 10 00 00 01 D9
 (1652893156.666166)  can0  012   [8]  E8 03 10 00 00 00 00 00
 (1652893156.666508)  can0  010   [4]  26 73 00 00
 (1652893156.667026)  can0  014   [5]  00 F0 FF 13 27
 (1652893156.668981)  can0  1E5   [8]  1C FF 72 30 00 00 01 F9
 (1652893156.676178)  can0  012   [8]  E8 03 10 00 00 00 00 00
 (1652893156.677026)  can0  014   [5]  FF 0F 00 0D 27
 (1652893156.678982)  can0  1E5   [8]  1C FF 72 50 00 00 02 19
 (1652893156.686178)  can0  012   [8]  E8 03 10 00 00 00 00 00
 (1652893156.686981)  can0  014   [5]  00 00 00 10 27
 (1652893156.688982)  can0  1E5   [8]  1C FF 72 70 00 00 02 39
 (1652893156.696176)  can0  012   [8]  E8 03 10 00 00 00 00 00
 (1652893156.697037)  can0  014   [5]  00 00 00 10 27
 (1652893156.698976)  can0  1E5   [8]  1C FF 72 10 00 00 01 D9
 (1652893156.706196)  can0  012   [8]  E8 03 10 00 00 00 00 00
 (1652893156.707031)  can0  014   [5]  00 00 00 10 27
 (1652893156.708988)  can0  1E5   [8]  1C FF 72 30 00 00 01 F9
 (1652893156.716178)  can0  012   [8]  E8 03 10 00 00 00 00 00
 (1652893156.717026)  can0  014   [5]  00 F0 FF 10 27
 (1652893156.718983)  can0  1E5   [8]  1C FF 72 50 00 00 02 19
 (1652893156.726178)  can0  012   [8]  E8 03 10 00 00 00 00 00
 (1652893156.727033)  can0  014   [5]  00 00 00 10 27
 (1652893156.728982)  can0  1E5   [8]  1C FF 72 70 00 00 02 39
 (1652893156.736176)  can0  012   [8]  E8 03 10 00 00 00 00 00
 (1652893156.737039)  can0  014   [5]  FF 0F 00 10 27
 (1652893156.739027)  can0  1E5   [8]  1C FF 72 10 00 00 01 D9
 (1652893156.746172)  can0  012   [8]  E8 03 10 00 00 00 00 00
 (1652893156.747030)  can0  014   [5]  00 00 00 10 27
 (1652893156.748969)  can0  1E5   [8]  1C FF 72 30 00 00 01 F9
 (1652893156.756187)  can0  012   [8]  E8 03 10 00 00 00 00 00
 (1652893156.757019)  can0  014   [5]  00 00 00 10 27
 (1652893156.758985)  can0  1E5   [8]  1C FF 72 50 00 00 02 19
 (1652893156.766161)  can0  012   [8]  E8 03 10 00 00 00 00 00
 (1652893156.766415)  can0  010   [4]  26 73 00 00
 (1652893156.767028)  can0  014   [5]  00 00 00 13 27
 (1652893156.768979)  can0  1E5   [8]  1C FF 72 70 00 00 02 39
 (1652893156.776173)  can0  012   [8]  E8 03 10 00 00 00 00 00
 (1652893156.777003)  can0  014   [5]  00 00 00 0D 27
 (1652893156.778972)  can0  1E5   [8]  1C FF 72 10 00 00 01 D9
 (1652893156.786168)  can0  012   [8]  E8 03 10 00 00 00 00 00
 (1652893156.787021)  can0  014   [5]  00 F0 FF 10 27
 (1652893156.788976)  can0  1E5   [8]  1C FF 72 30 00 00 01 F9
 (1652893156.796167)  can0  012   [8]  E8 03 10 00 00 00 00 00
 (1652893156.797023)  can0  014   [5]  FF 0F 00 10 27
 (1652893156.798968)  can0  1E5   [8]  1C FF 72 50 00 00 02 19
 (1652893156.806184)  can0  012   [8]  E8 03 10 00 00 00 00 00
 (1652893156.807046)  can0  014   [5]  00 00 00 10 27
 (1652893156.808980)  can0  1E5   [8]  1C FF 73 70 00 00 02 3A
 (1652893156.816173)  can0  012   [8]  E8 03 10 00 00 00 00 00
 (1652893156.816998)  can0  014   [5]  00 00 00 10 27
 (1652893156.818965)  can0  1E5   [8]  1C FF 73 10 00 00 01 DA
 (1652893156.826168)  can0  012   [8]  E8 03 10 00 00 00 00 00
 (1652893156.827019)  can0  014   [5]  00 00 00 10 27
 (1652893156.828985)  can0  1E5   [8]  1C FF 75 30 01 00 01 FD
 (1652893156.836161)  can0  012   [8]  E8 03 10 00 00 00 00 00
 (1652893156.837011)  can0  014   [5]  00 00 00 10 27
 (1652893156.838978)  can0  1E5   [8]  1C FF 75 50 01 00 02 1D
 (1652893156.846161)  can0  012   [8]  E8 03 10 00 00 00 00 00
 (1652893156.847031)  can0  014   [5]  00 00 00 10 27
 (1652893156.848980)  can0  1E5   [8]  1C FF 75 70 01 00 02 3D
 (1652893156.856195)  can0  012   [8]  E8 03 10 00 00 00 00 00
 (1652893156.857021)  can0  014   [5]  00 00 00 10 27
 (1652893156.858967)  can0  1E5   [8]  1C FF 75 10 01 00 01 DD
 (1652893156.866167)  can0  012   [8]  E8 03 10 00 00 00 00 00
 (1652893156.866252)  can0  0E3   [2]  A0 00
 (1652893156.866427)  can0  010   [4]  26 73 00 00
 (1652893156.866558)  can0  0E2   [2]  A0 00
 (1652893156.866997)  can0  014   [5]  00 F0 FF 19 27
 (1652893156.867127)  can0  0E4   [2]  A0 00
 (1652893156.868974)  can0  1E5   [8]  1C FF 75 30 01 00 01 FD
 (1652893156.876166)  can0  012   [8]  E8 03 10 00 00 00 00 00
 (1652893156.877022)  can0  014   [5]  00 00 00 07 27
 (1652893156.878968)  can0  1E5   [8]  1C FF 75 50 01 00 02 1D
 (1652893156.886167)  can0  012   [8]  E8 03 10 00 00 00 00 00
 (1652893156.887027)  can0  014   [5]  FF 0F 00 10 27
 (1652893156.888968)  can0  1E5   [8]  1C FF 75 70 01 00 02 3D
 (1652893156.896160)  can0  012   [8]  E8 03 10 00 00 00 00 00
 (1652893156.897041)  can0  014   [5]  00 00 00 10 27
 (1652893156.898980)  can0  1E5   [8]  1C FF 75 10 01 00 01 DD
 (1652893156.906194)  can0  012   [8]  E8 03 10 00 00 00 00 00
 (1652893156.907024)  can0  014   [5]  00 00 00 10 27
 (1652893156.908972)  can0  1E5   [8]  1C FF 75 30 01 00 01 FD
 (1652893156.916167)  can0  012   [8]  E8 03 10 00 00 00 00 00
 (1652893156.917056)  can0  014   [5]  00 00 00 10 27
 (1652893156.918968)  can0  1E5   [8]  1C FF 75 50 01 00 02 1D
 (1652893156.926161)  can0  012   [8]  E8 03 10 00 00 00 00 00
 (1652893156.927015)  can0  014   [5]  00 00 00 10 27
 (1652893156.928980)  can0  1E5   [8]  1C FF 75 70 00 00 02 3C
 (1652893156.936075)  can0  0F0   [1]  01
 (1652893156.936139)  can0  012   [8]  E8 03 10 00 00 00 00 00
 (1652893156.937027)  can0  014   [5]  00 00 00 17 27
 (1652893156.937345)  can0  011   [2]  0F 01
 (1652893156.938952)  can0  1E5   [8]  1C FF 75 10 00 00 01 DC
 (1652893156.946326)  can0  012   [8]  E8 03 10 00 00 00 00 00
 (1652893156.947036)  can0  014   [5]  00 00 00 0C 27
 (1652893156.949303)  can0  1E5   [8]  1C FF 75 30 00 00 01 FC
 (1652893156.956192)  can0  012   [8]  E8 03 10 00 00 00 00 00
 (1652893156.956981)  can0  014   [5]  00 00 00 0D 27
 (1652893156.958943)  can0  1E5   [8]  1C FF 75 50 00 00 02 1C
 (1652893156.966335)  can0  012   [8]  E8 03 10 00 00 00 00 00
 (1652893156.966427)  can0  010   [4]  3D 96 0E 00
 (1652893156.967018)  can0  014   [5]  00 F0 FF 13 27
 (1652893156.968942)  can0  1E5   [8]  1C FF 75 70 00 00 02 3C
 (1652893156.976309)  can0  012   [8]  E8 03 10 00 00 00 00 00
 (1652893156.976993)  can0  014   [5]  FF 0F 00 0D 27
 (1652893156.978936)  can0  1E5   [8]  1C FF 75 10 00 00 01 DC
 (1652893156.986155)  can0  012   [8]  E8 03 10 00 00 00 00 00
 (1652893156.987005)  can0  014   [5]  00 00 00 10 27
 (1652893156.988966)  can0  1E5   [8]  1C FF 75 30 00 00 01 FC
 (1652893156.996174)  can0  012   [8]  E8 03 10 00 00 00 00 00
 (1652893156.997048)  can0  014   [5]  00 00 00 10 27
 (1652893156.999817)  can0  1E5   [8]  1C FF 75 50 00 00 02 1C
 (1652893157.006143)  can0  012   [8]  E8 03 10 00 00 00 00 00
 (1652893157.007024)  can0  014   [5]  00 00 00 10 27
 (1652893157.009124)  can0  1E5   [8]  1C FF 75 70 00 00 02 3C
 (1652893157.016330)  can0  012   [8]  E8 03 10 00 00 00 00 00
 (1652893157.016995)  can0  014   [5]  00 00 00 10 27
 (1652893157.018981)  can0  1E5   [8]  1C FF 75 10 00 00 01 DC
 (1652893157.026329)  can0  012   [8]  E8 03 10 00 00 00 00 00
 (1652893157.027003)  can0  014   [5]  00 00 00 10 27
 (1652893157.029172)  can0  1E5   [8]  1C FF 75 30 00 00 01 FC
 (1652893157.036168)  can0  012   [8]  E8 03 10 00 00 00 00 00
 (1652893157.037018)  can0  014   [5]  00 F0 FF 10 27
 (1652893157.039013)  can0  1E5   [8]  1C FF 75 50 00 00 02 1C
 (1652893157.046313)  can0  012   [8]  E8 03 10 00 00 00 00 00
 (1652893157.046992)  can0  014   [5]  00 00 00 10 27
 (1652893157.049212)  can0  1E5   [8]  1C FF 73 70 00 00 02 3A
 (1652893157.056170)  can0  012   [8]  E8 03 10 00 00 00 00 00
 (1652893157.057032)  can0  014   [5]  00 00 00 10 27
 (1652893157.058954)  can0  1E5   [8]  1C FF 73 10 00 00 01 DA
 (1652893157.066217)  can0  012   [8]  E8 03 10 00 00 00 00 00
 (1652893157.066432)  can0  010   [4]  3D 96 0E 00
 (1652893157.066991)  can0  014   [5]  FF 0F 00 13 27
 (1652893157.068971)  can0  1E5   [8]  1C FF 73 30 00 00 01 FA
 (1652893157.076316)  can0  012   [8]  E8 03 10 00 00 00 00 00
 (1652893157.076992)  can0  014   [5]  00 00 00 0D 27
 (1652893157.079265)  can0  1E5   [8]  1C FF 73 50 00 00 02 1A
 (1652893157.086306)  can0  012   [8]  E8 03 10 00 00 00 00 00
 (1652893157.086995)  can0  014   [5]  00 00 00 10 27
 (1652893157.088927)  can0  1E5   [8]  1C FF 73 70 00 00 02 3A
 (1652893157.096330)  can0  012   [8]  E8 03 10 00 00 00 00 00
 (1652893157.096989)  can0  014   [5]  00 00 00 10 27
 (1652893157.098939)  can0  1E5   [8]  1C FF 72 1F FF 00 02 E7
 (1652893157.106191)  can0  012   [8]  E8 03 10 00 00 00 00 00
 (1652893157.106997)  can0  014   [5]  00 F0 FF 10 27
 (1652893157.108970)  can0  1E5   [8]  1C FF 73 30 00 00 01 FA
 (1652893157.116345)  can0  012   [8]  E8 03 10 00 00 00 00 00
 (1652893157.117024)  can0  014   [5]  FF 0F 00 10 27
 (1652893157.118965)  can0  1E5   [8]  1C FF 73 50 00 00 02 1A
 (1652893157.126188)  can0  012   [8]  E8 03 10 00 00 00 00 00
 (1652893157.127013)  can0  014   [5]  00 00 00 10 27
 (1652893157.129130)  can0  1E5   [8]  1C FF 73 70 00 00 02 3A
 (1652893157.136167)  can0  012   [8]  E8 03 10 00 00 00 00 00
 (1652893157.137038)  can0  014   [5]  00 00 00 10 27
 (1652893157.138931)  can0  1E5   [8]  1C FF 73 10 00 00 01 DA
 (1652893157.146375)  can0  012   [8]  E8 03 10 00 00 00 00 00
 (1652893157.147029)  can0  014   [5]  00 00 00 10 27
 (1652893157.149314)  can0  1E5   [8]  1C FF 73 30 00 00 01 FA
 (1652893157.156172)  can0  012   [8]  E8 03 10 00 00 00 00 00
 (1652893157.157039)  can0  014   [5]  00 00 00 10 27
 (1652893157.159111)  can0  1E5   [8]  1C FF 73 50 00 00 02 1A
 (1652893157.166358)  can0  012   [8]  E8 03 10 00 00 00 00 00
 (1652893157.166425)  can0  010   [4]  3D 96 0E 00
 (1652893157.167028)  can0  014   [5]  00 F0 FF 13 27
 (1652893157.168973)  can0  1E5   [8]  1C FF 73 70 00 00 02 3A
 (1652893157.176460)  can0  012   [8]  E8 03 10 00 00 00 00 00
 (1652893157.176993)  can0  014   [5]  FF 0F 00 0D 27
 (1652893157.179117)  can0  1E5   [8]  1C FF 73 10 00 00 01 DA
 (1652893157.186167)  can0  012   [8]  E8 03 10 00 00 00 00 00
 (1652893157.187019)  can0  014   [5]  00 00 00 10 27
 (1652893157.188973)  can0  1E5   [8]  1C FF 73 30 00 00 01 FA
 (1652893157.196153)  can0  012   [8]  E8 03 10 00 00 00 00 00
 (1652893157.196995)  can0  014   [5]  00 00 00 10 27
 (1652893157.199196)  can0  1E5   [8]  1C FF 75 50 01 00 02 1D
 (1652893157.206183)  can0  012   [8]  E8 03 10 00 00 00 00 00
 (1652893157.207056)  can0  014   [5]  00 00 00 10 27
 (1652893157.208958)  can0  1E5   [8]  1C FF 75 70 01 00 02 3D
 (1652893157.216513)  can0  012   [8]  E8 03 10 00 00 00 00 00
 (1652893157.216996)  can0  014   [5]  00 00 00 10 27
 (1652893157.218963)  can0  1E5   [8]  1C FF 75 10 01 00 01 DD
 (1652893157.226313)  can0  012   [8]  E8 03 10 00 00 00 00 00
 (1652893157.226972)  can0  014   [5]  00 F0 FF 10 27
 (1652893157.228956)  can0  1E5   [8]  1C FF 75 30 01 00 01 FD
 (1652893157.236172)  can0  012   [8]  E8 03 10 00 00 00 00 00
 (1652893157.237025)  can0  014   [5]  FF 0F 00 10 27
 (1652893157.238994)  can0  1E5   [8]  1C FF 75 50 01 00 02 1D
 (1652893157.246323)  can0  012   [8]  E8 03 10 00 00 00 00 00
 (1652893157.246997)  can0  014   [5]  00 00 00 10 27
 (1652893157.248949)  can0  1E5   [8]  1C FF 75 70 01 00 02 3D
 (1652893157.256191)  can0  012   [8]  E8 03 10 00 00 00 00 00
 (1652893157.256990)  can0  014   [5]  00 00 00 10 27
 (1652893157.258970)  can0  1E5   [8]  1C FF 75 10 01 00 01 DD
 (1652893157.266631)  can0  012   [8]  E8 03 10 00 00 00 00 00
 (1652893157.266640)  can0  010   [4]  3D 96 0E 00
 (1652893157.266998)  can0  014   [5]  00 F0 FF 13 27
 (1652893157.268945)  can0  1E5   [8]  1C FF 75 30 01 00 01 FD
 (1652893157.276337)  can0  012   [8]  E8 03 10 00 00 00 00 00
 (1652893157.277008)  can0  014   [5]  00 00 00 0D 27
 (1652893157.279098)  can0  1E5   [8]  1C FF 75 50 01 00 02 1D
 (1652893157.286156)  can0  012   [8]  E8 03 10 00 00 00 00 00
 (1652893157.287017)  can0  014   [5]  00 00 00 10 27
 (1652893157.288958)  can0  1E5   [8]  1C FF 75 70 01 00 02 3D
 (1652893157.296316)  can0  012   [8]  E8 03 10 00 00 00 00 00
 (1652893157.296988)  can0  014   [5]  FF 0F 00 10 27
 (1652893157.299399)  can0  1E5   [8]  1C FF 75 10 00 00 01 DC
 (1652893157.306171)  can0  012   [8]  E8 03 10 00 00 00 00 00
 (1652893157.307010)  can0  014   [5]  00 00 00 10 27
 (1652893157.309109)  can0  1E5   [8]  1C FF 75 30 00 00 01 FC
 (1652893157.316339)  can0  012   [8]  E8 03 10 00 00 00 00 00
 (1652893157.317014)  can0  014   [5]  00 00 00 10 27
 (1652893157.318952)  can0  1E5   [8]  1C FF 73 50 00 00 02 1A
 (1652893157.326167)  can0  012   [8]  E8 03 10 00 00 00 00 00
 (1652893157.327010)  can0  014   [5]  00 00 00 10 27
 (1652893157.328947)  can0  1E5   [8]  1C FF 73 70 00 00 02 3A
 (1652893157.336155)  can0  012   [8]  E8 03 10 00 00 00 00 00
 (1652893157.337042)  can0  014   [5]  00 00 00 10 27
 (1652893157.338972)  can0  1E5   [8]  1C FF 73 10 00 00 01 DA
 (1652893157.346136)  can0  012   [8]  E8 03 10 00 00 00 00 00
 (1652893157.347024)  can0  014   [5]  00 F0 FF 10 27
 (1652893157.349106)  can0  1E5   [8]  1C FF 73 30 00 00 01 FA
 (1652893157.356134)  can0  012   [8]  E8 03 10 00 00 00 00 00
 (1652893157.357004)  can0  014   [5]  00 00 00 10 27
 (1652893157.358956)  can0  1E5   [8]  1C FF 72 5F FF 00 03 27
 (1652893157.366141)  can0  012   [8]  E8 03 10 00 00 00 00 00
 (1652893157.366420)  can0  010   [4]  3D 96 0E 00
 (1652893157.366992)  can0  014   [5]  FF 0F 00 13 27
 (1652893157.368919)  can0  1E5   [8]  1C FF 72 7F FF 00 03 47
 (1652893157.376170)  can0  012   [8]  E8 03 10 00 00 00 00 00
 (1652893157.377027)  can0  014   [5]  00 00 00 0D 27
 (1652893157.378914)  can0  1E5   [8]  1C FF 72 1F FF 00 02 E7
 (1652893157.386170)  can0  012   [8]  E8 03 10 00 00 00 00 00
 (1652893157.387009)  can0  014   [5]  00 00 00 10 27
 (1652893157.388910)  can0  1E5   [8]  1C FF 72 3F FF 00 03 07
 (1652893157.396162)  can0  012   [8]  E8 03 10 00 00 00 00 00
 (1652893157.397000)  can0  014   [5]  00 00 00 10 27
 (1652893157.399554)  can0  1E5   [8]  1C FF 72 5F FF 00 03 27
 (1652893157.406140)  can0  012   [8]  E8 03 10 00 00 00 00 00
 (1652893157.407038)  can0  014   [5]  00 00 00 10 27
 (1652893157.408957)  can0  1E5   [8]  1C FF 72 7F FF 00 03 47
 (1652893157.416158)  can0  012   [8]  E8 03 10 00 00 00 00 00
 (1652893157.417026)  can0  014   [5]  00 00 00 10 27
 (1652893157.419121)  can0  1E5   [8]  1C FF 72 1F FF 00 02 E7
 (1652893157.426315)  can0  012   [8]  E8 03 10 00 00 00 00 00
 (1652893157.426988)  can0  014   [5]  00 00 00 10 27
 (1652893157.429107)  can0  1E5   [8]  1C FF 73 30 00 00 01 FA
 (1652893157.436153)  can0  012   [8]  E8 03 10 00 00 00 00 00
 (1652893157.437055)  can0  014   [5]  00 00 00 10 27
 (1652893157.438914)  can0  1E5   [8]  1C FF 73 50 00 00 02 1A
 (1652893157.446156)  can0  012   [8]  E8 03 10 00 00 00 00 00
 (1652893157.447013)  can0  014   [5]  00 F0 FF 10 27
 (1652893157.448966)  can0  1E5   [8]  1C FF 75 70 01 00 02 3D
 (1652893157.456166)  can0  012   [8]  E8 03 10 00 00 00 00 00
 (1652893157.456996)  can0  014   [5]  00 00 00 10 27
 (1652893157.458954)  can0  1E5   [8]  1C FF 75 10 01 00 01 DD
 (1652893157.466190)  can0  012   [8]  E8 03 10 00 00 00 00 00
 (1652893157.466417)  can0  010   [4]  3D 96 0E 00
 (1652893157.466997)  can0  014   [5]  00 00 00 13 27
 (1652893157.468966)  can0  1E5   [8]  1C FF 76 30 02 00 01 FF
 (1652893157.476312)  can0  012   [8]  E8 03 10 00 00 00 00 00
 (1652893157.477046)  can0  014   [5]  FF 0F 00 0D 27
 (1652893157.479101)  can0  1E5   [8]  1C FF 78 50 03 00 02 22
 (1652893157.486170)  can0  012   [8]  E8 03 10 00 00 00 00 00
 (1652893157.487034)  can0  014   [5]  00 00 00 10 27
 (1652893157.488960)  can0  1E5   [8]  1C FF 7A 70 04 00 02 45
 (1652893157.496314)  can0  012   [8]  E8 03 10 00 00 00 00 00
 (1652893157.496993)  can0  014   [5]  00 00 00 10 27
 (1652893157.498928)  can0  1E5   [8]  1C FF 7B 10 05 00 01 E7
 (1652893157.506148)  can0  012   [8]  E8 03 10 00 00 00 00 00
 (1652893157.507015)  can0  014   [5]  00 00 00 10 27
 (1652893157.508906)  can0  1E5   [8]  1C FF 7D 30 06 00 02 0A
 (1652893157.516332)  can0  012   [8]  E8 03 10 00 00 00 00 00
 (1652893157.517000)  can0  014   [5]  00 00 00 10 27
 (1652893157.519211)  can0  1E5   [8]  1C FF 7D 50 06 00 02 2A
 (1652893157.526304)  can0  012   [8]  E8 03 10 00 00 00 00 00
 (1652893157.527016)  can0  014   [5]  00 00 00 10 27
 (1652893157.528950)  can0  1E5   [8]  1C FF 7E 70 07 00 02 4C
 (1652893157.536162)  can0  012   [8]  E8 03 10 00 00 00 00 00
 (1652893157.537008)  can0  014   [5]  00 00 00 10 27
 (1652893157.538910)  can0  1E5   [8]  1C FF 80 10 08 00 01 EF
 (1652893157.546172)  can0  012   [8]  E8 03 10 00 00 00 00 00
 (1652893157.547024)  can0  014   [5]  00 00 00 10 27
 (1652893157.548945)  can0  1E5   [8]  1C FF 80 30 07 00 02 0E
 (1652893157.556172)  can0  012   [8]  E8 03 10 00 00 00 00 00
 (1652893157.557016)  can0  014   [5]  00 F0 FF 10 27
 (1652893157.558955)  can0  1E5   [8]  1C FF 82 50 08 00 02 31
 (1652893157.566158)  can0  012   [8]  E8 03 10 00 00 00 00 00
 (1652893157.566459)  can0  010   [4]  3D 96 0E 00
 (1652893157.567035)  can0  014   [5]  00 00 00 13 27
 (1652893157.568968)  can0  1E5   [8]  1C FF 82 70 07 00 02 50
 (1652893157.576170)  can0  012   [8]  E8 03 10 00 00 00 00 00
 (1652893157.576980)  can0  014   [5]  00 00 00 0D 27
 (1652893157.578963)  can0  1E5   [8]  1C FF 82 10 06 00 01 EF
 (1652893157.586145)  can0  012   [8]  E8 03 10 00 00 00 00 00
 (1652893157.587034)  can0  014   [5]  FF 0F 00 10 27
 (1652893157.588912)  can0  1E5   [8]  1C FF 82 30 05 00 02 0E
 (1652893157.596166)  can0  012   [8]  E8 03 10 00 00 00 00 00
 (1652893157.597027)  can0  014   [5]  00 00 00 10 27
 (1652893157.599179)  can0  1E5   [8]  1C FF 82 50 04 00 02 2D
 (1652893157.606145)  can0  012   [8]  E8 03 10 00 00 00 00 00
 (1652893157.607020)  can0  014   [5]  00 00 00 10 27
 (1652893157.609264)  can0  1E5   [8]  1C FF 82 70 03 00 02 4C
 (1652893157.616155)  can0  012   [8]  E8 03 10 00 00 00 00 00
 (1652893157.617004)  can0  014   [5]  00 00 00 10 27
 (1652893157.618946)  can0  1E5   [8]  1C FF 82 10 03 00 01 EC
 (1652893157.626317)  can0  012   [8]  E8 03 10 00 00 00 00 00
 (1652893157.627002)  can0  014   [5]  00 F0 FF 10 27
 (1652893157.628948)  can0  1E5   [8]  1C FF 82 30 02 00 02 0B
 (1652893157.636208)  can0  012   [8]  E8 03 10 00 00 00 00 00
 (1652893157.637015)  can0  014   [5]  00 00 00 10 27
 (1652893157.638978)  can0  1E5   [8]  1C FF 82 50 01 00 02 2A
 (1652893157.646354)  can0  012   [8]  E8 03 10 00 00 00 00 00
 (1652893157.647018)  can0  014   [5]  00 00 00 10 27
 (1652893157.649097)  can0  1E5   [8]  1C FF 82 70 01 00 02 4A
 (1652893157.656142)  can0  012   [8]  E8 03 10 00 00 00 00 00
 (1652893157.657039)  can0  014   [5]  00 00 00 10 27
 (1652893157.658946)  can0  1E5   [8]  1C FF 82 10 00 00 01 E9
 (1652893157.666376)  can0  012   [8]  E8 03 10 00 00 00 00 00
 (1652893157.666433)  can0  010   [4]  3D 96 0E 00
 (1652893157.667035)  can0  014   [5]  00 00 00 13 27
 (1652893157.668958)  can0  1E5   [8]  1C FF 82 30 00 00 02 09
 (1652893157.676398)  can0  012   [8]  E8 03 10 00 00 00 00 00
 (1652893157.677020)  can0  014   [5]  FF 0F 00 0D 27
 (1652893157.679106)  can0  1E5   [8]  1C FF 82 50 00 00 02 29
 (1652893157.686172)  can0  012   [8]  E8 03 10 00 00 00 00 00
 (1652893157.687023)  can0  014   [5]  00 00 00 10 27
 (1652893157.688935)  can0  1E5   [8]  1C FF 82 70 00 00 02 49
 (1652893157.696152)  can0  012   [8]  E8 03 10 00 00 00 00 00
 (1652893157.697030)  can0  014   [5]  00 00 00 10 27
 (1652893157.699106)  can0  1E5   [8]  1C FF 82 10 00 00 01 E9
 (1652893157.706147)  can0  012   [8]  E8 03 10 00 00 00 00 00
 (1652893157.707015)  can0  014   [5]  00 00 00 10 27
 (1652893157.708948)  can0  1E5   [8]  1C FF 82 30 00 00 02 09
 (1652893157.716158)  can0  012   [8]  E8 03 10 00 00 00 00 00
 (1652893157.717037)  can0  014   [5]  00 00 00 10 27
 (1652893157.718951)  can0  1E5   [8]  1C FF 82 50 00 00 02 29
 (1652893157.726143)  can0  012   [8]  E8 03 10 00 00 00 00 00
 (1652893157.727008)  can0  014   [5]  00 00 00 10 27
 (1652893157.728923)  can0  1E5   [8]  1C FF 82 70 00 00 02 49
 (1652893157.736164)  can0  012   [8]  E8 03 10 00 00 00 00 00
 (1652893157.737005)  can0  014   [5]  00 F0 FF 10 27
 (1652893157.738913)  can0  1E5   [8]  1C FF 82 10 00 00 01 E9
 (1652893157.746320)  can0  012   [8]  E8 03 10 00 00 00 00 00
 (1652893157.746989)  can0  014   [5]  00 00 00 10 27
 (1652893157.748941)  can0  1E5   [8]  1C FF 82 30 00 00 02 09
 (1652893157.756169)  can0  012   [8]  E8 03 10 00 00 00 00 00
 (1652893157.756999)  can0  014   [5]  00 00 00 10 27
 (1652893157.758922)  can0  1E5   [8]  1C FF 82 50 00 00 02 29
 (1652893157.766388)  can0  012   [8]  E8 03 10 00 00 00 00 00
 (1652893157.766443)  can0  010   [4]  3D 96 0E 00
 (1652893157.767015)  can0  014   [5]  FF 0F 00 13 27
 (1652893157.768942)  can0  1E5   [8]  1C FF 82 70 00 00 02 49
 (1652893157.776311)  can0  012   [8]  E8 03 10 00 00 00 00 00
 (1652893157.777010)  can0  014   [5]  00 00 00 0D 27
 (1652893157.778940)  can0  1E5   [8]  1C FF 83 10 01 00 01 EB
 (1652893157.786165)  can0  012   [8]  E8 03 10 00 00 00 00 00
 (1652893157.787007)  can0  014   [5]  00 00 00 10 27
 (1652893157.788935)  can0  1E5   [8]  1C FF 83 30 01 00 02 0B
 (1652893157.796125)  can0  012   [8]  E8 03 10 00 00 00 00 00
 (1652893157.797029)  can0  014   [5]  00 00 00 10 27
 (1652893157.799087)  can0  1E5   [8]  1C FF 83 50 01 00 02 2B
 (1652893157.806153)  can0  012   [8]  E8 03 10 00 00 00 00 00
 (1652893157.807059)  can0  014   [5]  00 00 00 10 27
 (1652893157.808934)  can0  1E5   [8]  1C FF 83 70 01 00 02 4B
 (1652893157.816392)  can0  012   [8]  E8 03 10 00 00 00 00 00
 (1652893157.817018)  can0  014   [5]  00 00 00 10 27
 (1652893157.818949)  can0  1E5   [8]  1C FF 85 10 02 00 01 EE
 (1652893157.826157)  can0  012   [8]  E8 03 10 00 00 00 00 00
 (1652893157.827000)  can0  014   [5]  00 00 00 10 27
 (1652893157.829098)  can0  1E5   [8]  1C FF 83 30 00 00 02 0A
 (1652893157.836145)  can0  012   [8]  E8 03 10 00 00 00 00 00
 (1652893157.837003)  can0  014   [5]  00 F0 FF 10 27
 (1652893157.839015)  can0  1E5   [8]  1C FF 85 50 00 00 02 2C
 (1652893157.846165)  can0  012   [8]  E8 03 10 00 00 00 00 00
 (1652893157.847029)  can0  014   [5]  00 00 00 10 27
 (1652893157.849442)  can0  1E5   [8]  1C FF 85 70 00 00 02 4C
 (1652893157.856146)  can0  012   [8]  E8 03 10 00 00 00 00 00
 (1652893157.856998)  can0  014   [5]  00 00 00 10 27
 (1652893157.859097)  can0  1E5   [8]  1C FF 85 10 00 00 01 EC
 (1652893157.866759)  can0  012   [8]  E8 03 10 00 00 00 00 00
 (1652893157.866768)  can0  0E3   [2]  CA 00
 (1652893157.866771)  can0  010   [4]  3D 96 0E 00
 (1652893157.866775)  can0  0E2   [2]  CA 00
 (1652893157.867027)  can0  014   [5]  00 00 00 19 27
 (1652893157.867130)  can0  0E4   [2]  CA 00
 (1652893157.868941)  can0  1E5   [8]  1C FF 85 30 00 00 02 0C
 (1652893157.876325)  can0  012   [8]  E8 03 10 00 00 00 00 00
 (1652893157.877022)  can0  014   [5]  FF 0F 00 07 27
 (1652893157.878947)  can0  1E5   [8]  1C FF 85 50 00 00 02 2C
 (1652893157.886160)  can0  012   [8]  E8 03 10 00 00 00 00 00
 (1652893157.887012)  can0  014   [5]  00 00 00 10 27
 (1652893157.888919)  can0  1E5   [8]  1C FF 85 70 00 00 02 4C
 (1652893157.896301)  can0  012   [8]  E8 03 10 00 00 00 00 00
 (1652893157.896974)  can0  014   [5]  00 00 00 10 27
 (1652893157.899551)  can0  1E5   [8]  1C FF 85 10 00 00 01 EC
 (1652893157.906166)  can0  012   [8]  E8 03 10 00 00 00 00 00
 (1652893157.907021)  can0  014   [5]  00 00 00 10 27
 (1652893157.909088)  can0  1E5   [8]  1C FF 85 30 00 00 02 0C
 (1652893157.916162)  can0  012   [8]  E8 03 10 00 00 00 00 00
 (1652893157.917027)  can0  014   [5]  00 00 00 10 27
 (1652893157.918955)  can0  1E5   [8]  1C FF 85 50 00 00 02 2C
 (1652893157.926166)  can0  012   [8]  E8 03 10 00 00 00 00 00
 (1652893157.927036)  can0  014   [5]  00 00 00 10 27
 (1652893157.928935)  can0  1E5   [8]  1C FF 85 70 00 00 02 4C
 (1652893157.936167)  can0  012   [8]  E8 03 10 00 00 00 00 00
 (1652893157.936989)  can0  014   [5]  00 F0 FF 10 27
 (1652893157.938945)  can0  1E5   [8]  1C FF 85 10 00 00 01 EC
 (1652893157.946311)  can0  012   [8]  E8 03 10 00 00 00 00 00
 (1652893157.947015)  can0  014   [5]  00 00 00 10 27
 (1652893157.949158)  can0  1E5   [8]  1C FF 85 30 00 00 02 0C
 (1652893157.956177)  can0  012   [8]  E8 03 10 00 00 00 00 00
 (1652893157.957011)  can0  014   [5]  00 00 00 10 27
 (1652893157.959090)  can0  1E5   [8]  1C FF 85 50 00 00 02 2C
 (1652893157.966156)  can0  012   [8]  E8 03 10 00 00 00 00 00
 (1652893157.966420)  can0  010   [4]  3D 96 0E 01
 (1652893157.966995)  can0  014   [5]  00 00 00 13 27
 (1652893157.968943)  can0  1E5   [8]  1C FF 85 70 00 00 02 4C
 (1652893157.976156)  can0  012   [8]  E8 03 10 00 00 00 00 00
 (1652893157.976985)  can0  014   [5]  FF 0F 00 0D 27
 (1652893157.979098)  can0  1E5   [8]  1C FF 86 10 01 00 01 EE
 (1652893157.986159)  can0  012   [8]  E8 03 10 00 00 00 00 00
 (1652893157.986994)  can0  014   [5]  00 00 00 10 27
 (1652893157.988949)  can0  1E5   [8]  1C FF 86 30 01 00 02 0E
 (1652893157.996310)  can0  012   [8]  E8 03 10 00 00 00 00 00
 (1652893157.997074)  can0  014   [5]  00 00 00 10 27
 (1652893157.999267)  can0  1E5   [8]  1C FF 86 50 01 00 02 2E
 (1652893158.006168)  can0  012   [8]  E8 03 10 00 00 00 00 00
 (1652893158.006968)  can0  014   [5]  00 00 00 10 27
 (1652893158.008939)  can0  1E5   [8]  1C FF 86 70 01 00 02 4E
 (1652893158.016757)  can0  012   [8]  E8 03 10 00 00 00 00 00
 (1652893158.017028)  can0  014   [5]  00 F0 FF 10 27
 (1652893158.018923)  can0  1E5   [8]  1C FF 86 10 01 00 01 EE
 (1652893158.026317)  can0  012   [8]  E8 03 10 00 00 00 00 00
 (1652893158.027024)  can0  014   [5]  00 00 00 10 27
 (1652893158.028900)  can0  1E5   [8]  1C FF 86 30 01 00 02 0E
 (1652893158.036159)  can0  012   [8]  E8 03 10 00 00 00 00 00
 (1652893158.037034)  can0  014   [5]  00 00 00 10 27
 (1652893158.038915)  can0  1E5   [8]  1C FF 86 50 01 00 02 2E
 (1652893158.046234)  can0  012   [8]  E8 03 10 00 00 00 00 00
 (1652893158.047000)  can0  014   [5]  00 00 00 10 27
 (1652893158.048898)  can0  1E5   [8]  1C FF 86 70 01 00 02 4E
 (1652893158.056148)  can0  012   [8]  E8 03 10 00 00 00 00 00
 (1652893158.057003)  can0  014   [5]  00 00 00 10 27
 (1652893158.058956)  can0  1E5   [8]  1C FF 88 10 02 00 01 F1
 (1652893158.066316)  can0  012   [8]  E8 03 10 00 00 00 00 00
 (1652893158.066414)  can0  010   [4]  3D 96 0E 01
 (1652893158.067020)  can0  014   [5]  00 00 00 13 27
 (1652893158.069172)  can0  1E5   [8]  1C FF 88 30 02 00 02 11
 (1652893158.076317)  can0  012   [8]  E8 03 10 00 00 00 00 00
 (1652893158.077026)  can0  014   [5]  00 00 00 0D 27
 (1652893158.078923)  can0  1E5   [8]  1C FF 88 50 01 00 02 30
 (1652893158.086145)  can0  012   [8]  E8 03 10 00 00 00 00 00
 (1652893158.087014)  can0  014   [5]  00 00 00 10 27
 (1652893158.088921)  can0  1E5   [8]  1C FF 88 70 01 00 02 50
 (1652893158.096303)  can0  012   [8]  E8 03 10 00 00 00 00 00
 (1652893158.096999)  can0  014   [5]  00 00 00 10 27
 (1652893158.099111)  can0  1E5   [8]  1C FF 88 10 01 00 01 F0
 (1652893158.106139)  can0  012   [8]  E8 03 10 00 00 00 00 00
 (1652893158.107064)  can0  014   [5]  00 00 00 10 27
 (1652893158.108948)  can0  1E5   [8]  1C FF 8A 30 02 00 02 13
 (1652893158.116118)  can0  012   [8]  E8 03 10 00 00 00 00 00
 (1652893158.117028)  can0  014   [5]  00 F0 FF 10 27
 (1652893158.118934)  can0  1E5   [8]  1C FF 8A 50 02 00 02 33
 (1652893158.126311)  can0  012   [8]  E8 03 10 00 00 00 00 00
 (1652893158.127015)  can0  014   [5]  00 00 00 10 27
 (1652893158.129268)  can0  1E5   [8]  1C FF 8A 70 02 00 02 53
 (1652893158.136160)  can0  012   [8]  E8 03 10 00 00 00 00 00
 (1652893158.136993)  can0  014   [5]  00 00 00 10 27
 (1652893158.138946)  can0  1E5   [8]  1C FF 8A 10 02 00 01 F3
 (1652893158.146312)  can0  012   [8]  E8 03 10 00 00 00 00 00
 (1652893158.146981)  can0  014   [5]  00 F0 FF 10 27
 (1652893158.148907)  can0  1E5   [8]  1C FF 8A 30 02 00 02 13
 (1652893158.156149)  can0  012   [8]  E8 03 10 00 00 00 00 00
 (1652893158.157000)  can0  014   [5]  00 00 00 10 27
 (1652893158.158895)  can0  1E5   [8]  1C FF 8A 50 01 00 02 32
 (1652893158.166331)  can0  012   [8]  E8 03 10 00 00 00 00 00
 (1652893158.166408)  can0  010   [4]  3D 96 0E 01
 (1652893158.166985)  can0  014   [5]  00 F0 FF 13 27
 (1652893158.168931)  can0  1E5   [8]  1C FF 8A 70 01 00 02 52
 (1652893158.176375)  can0  012   [8]  E8 03 10 00 00 00 00 00
 (1652893158.177028)  can0  014   [5]  FF FF FF 0D 27
 (1652893158.179089)  can0  1E5   [8]  1C FF 8A 10 01 00 01 F2
 (1652893158.186277)  can0  012   [8]  E8 03 10 00 00 00 00 00
 (1652893158.186984)  can0  014   [5]  00 F0 FF 10 27
 (1652893158.188917)  can0  1E5   [8]  1C FF 8A 30 01 00 02 12
 (1652893158.196398)  can0  012   [8]  E8 03 10 00 00 00 00 00
 (1652893158.196976)  can0  014   [5]  00 00 00 10 27
 (1652893158.198887)  can0  1E5   [8]  1C FF 8A 50 01 00 02 32
 (1652893158.206137)  can0  012   [8]  E8 03 10 00 00 00 00 00
 (1652893158.207051)  can0  014   [5]  01 10 00 10 27
 (1652893158.209091)  can0  1E5   [8]  1C FF 8A 70 00 00 02 51
 (1652893158.216487)  can0  012   [8]  E8 03 10 00 00 00 00 00
 (1652893158.217015)  can0  014   [5]  01 20 00 10 27
 (1652893158.218934)  can0  1E5   [8]  1C FF 8A 10 00 00 01 F1
 (1652893158.226160)  can0  012   [8]  E8 03 10 00 00 00 00 00
 (1652893158.227024)  can0  014   [5]  02 10 00 10 27
 (1652893158.228926)  can0  1E5   [8]  1C FF 8A 30 00 00 02 11
 (1652893158.236147)  can0  012   [8]  E8 03 10 00 00 00 00 00
 (1652893158.236992)  can0  014   [5]  02 10 00 10 27
 (1652893158.239004)  can0  1E5   [8]  1C FF 8A 50 00 00 02 31
 (1652893158.246120)  can0  012   [8]  E8 03 10 00 00 00 00 00
 (1652893158.247032)  can0  014   [5]  02 10 00 10 27
 (1652893158.249086)  can0  1E5   [8]  1C FF 8A 70 00 00 02 51
 (1652893158.256166)  can0  012   [8]  E8 03 10 00 00 00 00 00
 (1652893158.257000)  can0  014   [5]  01 10 00 10 27
 (1652893158.258934)  can0  1E5   [8]  1C FF 8A 10 00 00 01 F1
 (1652893158.266461)  can0  012   [8]  E8 03 10 00 00 00 00 00
 (1652893158.266469)  can0  010   [4]  3D 96 0E 01
 (1652893158.266988)  can0  014   [5]  01 10 00 13 27
 (1652893158.268928)  can0  1E5   [8]  1C FF 8A 30 00 00 02 11
 (1652893158.276318)  can0  012   [8]  E8 03 10 00 00 00 00 00
 (1652893158.276983)  can0  014   [5]  01 00 00 0D 27
 (1652893158.278899)  can0  1E5   [8]  1C FF 8A 50 00 00 02 31
 (1652893158.286162)  can0  012   [8]  E8 03 10 00 00 00 00 00
 (1652893158.287018)  can0  014   [5]  01 10 00 10 27
 (1652893158.288929)  can0  1E5   [8]  1C FF 8A 70 00 00 02 51
 (1652893158.296310)  can0  012   [8]  E8 03 10 00 00 00 00 00
 (1652893158.297012)  can0  014   [5]  00 00 00 10 27
 (1652893158.299092)  can0  1E5   [8]  1C FF 8A 10 00 00 01 F1
 (1652893158.306130)  can0  012   [8]  E8 03 10 00 00 00 00 00
 (1652893158.307110)  can0  014   [5]  00 00 00 10 27
 (1652893158.309092)  can0  1E5   [8]  1C FF 88 30 00 00 02 0F
 (1652893158.316534)  can0  012   [8]  E8 03 10 00 00 00 00 00
 (1652893158.316988)  can0  014   [5]  FF 0F 00 10 27
 (1652893158.318924)  can0  1E5   [8]  1C FF 8A 50 00 00 02 31
 (1652893158.326308)  can0  012   [8]  E8 03 10 00 00 00 00 00
 (1652893158.326987)  can0  014   [5]  00 00 00 10 27
 (1652893158.329073)  can0  1E5   [8]  1C FF 8A 70 00 00 02 51
 (1652893158.336119)  can0  012   [8]  E8 03 10 00 00 00 00 00
 (1652893158.336994)  can0  014   [5]  01 00 00 10 27
 (1652893158.338954)  can0  1E5   [8]  1C FF 8A 10 00 00 01 F1
 (1652893158.346300)  can0  012   [8]  E8 03 10 00 00 00 00 00
 (1652893158.346999)  can0  014   [5]  00 00 00 10 27
 (1652893158.349398)  can0  1E5   [8]  1C FF 8A 30 00 00 02 11
 (1652893158.356147)  can0  012   [8]  E8 03 10 00 00 00 00 00
 (1652893158.356991)  can0  014   [5]  01 10 00 10 27
 (1652893158.359081)  can0  1E5   [8]  1C FF 8A 50 00 00 02 31
 (1652893158.366197)  can0  012   [8]  E8 03 10 00 00 00 00 00
 (1652893158.366426)  can0  010   [4]  3D 96 0E 01
 (1652893158.367021)  can0  014   [5]  01 10 00 13 27
 (1652893158.369027)  can0  1E5   [8]  1C FF 8A 70 00 00 02 51
 (1652893158.376157)  can0  012   [8]  E8 03 10 00 00 00 00 00
 (1652893158.377024)  can0  014   [5]  01 10 00 0D 27
 (1652893158.379077)  can0  1E5   [8]  1C FF 8A 10 00 00 01 F1
 (1652893158.386175)  can0  012   [8]  E8 03 10 00 00 00 00 00
 (1652893158.386976)  can0  014   [5]  02 10 00 10 27
 (1652893158.388974)  can0  1E5   [8]  1C FF 8A 30 00 00 02 11
 (1652893158.396310)  can0  012   [8]  E8 03 10 00 00 00 00 00
 (1652893158.397022)  can0  014   [5]  01 10 00 10 27
 (1652893158.399476)  can0  1E5   [8]  1C FF 8A 50 00 00 02 31
 (1652893158.406156)  can0  012   [8]  E8 03 10 00 00 00 00 00
 (1652893158.407022)  can0  014   [5]  02 10 00 10 27
 (1652893158.409090)  can0  1E5   [8]  1C FF 8A 70 00 00 02 51
 (1652893158.416315)  can0  012   [8]  E8 03 10 00 00 00 00 00
 (1652893158.417027)  can0  014   [5]  01 20 00 10 27
 (1652893158.418932)  can0  1E5   [8]  1C FF 8A 10 00 00 01 F1
 (1652893158.426313)  can0  012   [8]  E8 03 10 00 00 00 00 00
 (1652893158.427021)  can0  014   [5]  02 10 00 10 27
 (1652893158.429065)  can0  1E5   [8]  1C FF 8A 30 00 00 02 11
 (1652893158.436149)  can0  012   [8]  E8 03 10 00 00 00 00 00
 (1652893158.437043)  can0  014   [5]  01 10 00 10 27
 (1652893158.438897)  can0  1E5   [8]  1C FF 8A 50 00 00 02 31
 (1652893158.446303)  can0  012   [8]  E8 03 10 00 00 00 00 00
 (1652893158.447030)  can0  014   [5]  02 10 00 10 27
 (1652893158.449597)  can0  1E5   [8]  1C FF 8A 70 00 00 02 51
 (1652893158.456159)  can0  012   [8]  E8 03 10 00 00 00 00 00
 (1652893158.456992)  can0  014   [5]  01 10 00 10 27
 (1652893158.458925)  can0  1E5   [8]  1C FF 8A 10 00 00 01 F1
 (1652893158.466148)  can0  012   [8]  E8 03 10 00 00 00 00 00
 (1652893158.466437)  can0  010   [4]  3D 96 0E 01
 (1652893158.467021)  can0  014   [5]  02 20 00 13 27
 (1652893158.468924)  can0  1E5   [8]  1C FF 8A 30 00 00 02 11
 (1652893158.476124)  can0  012   [8]  E8 03 10 00 00 00 00 00
 (1652893158.477023)  can0  014   [5]  01 10 00 0D 27
 (1652893158.478888)  can0  1E5   [8]  1C FF 8A 50 00 00 02 31
 (1652893158.486119)  can0  012   [8]  E8 03 10 00 00 00 00 00
 (1652893158.487015)  can0  014   [5]  01 10 00 10 27
 (1652893158.488925)  can0  1E5   [8]  1C FF 8A 70 00 00 02 51
 (1652893158.496317)  can0  012   [8]  E8 03 10 00 00 00 00 00
 (1652893158.496988)  can0  014   [5]  02 10 00 10 27
 (1652893158.498912)  can0  1E5   [8]  1C FF 8A 10 00 00 01 F1
 (1652893158.506132)  can0  012   [8]  E8 03 10 00 00 00 00 00
 (1652893158.507002)  can0  014   [5]  02 20 00 10 27
 (1652893158.508931)  can0  1E5   [8]  1C FF 8A 30 00 00 02 11
 (1652893158.516326)  can0  012   [8]  E8 03 10 00 00 00 00 00
 (1652893158.517013)  can0  014   [5]  02 10 00 10 27
 (1652893158.518921)  can0  1E5   [8]  1C FF 8A 50 00 00 02 31
 (1652893158.526163)  can0  012   [8]  E8 03 10 00 00 00 00 00
 (1652893158.527019)  can0  014   [5]  01 20 00 10 27
 (1652893158.529079)  can0  1E5   [8]  1C FF 8A 70 00 00 02 51
 (1652893158.536140)  can0  012   [8]  E8 03 10 00 00 00 00 00
 (1652893158.537050)  can0  014   [5]  02 10 00 10 27
 (1652893158.538894)  can0  1E5   [8]  1C FF 8A 10 00 00 01 F1
 (1652893158.546152)  can0  012   [8]  E8 03 10 00 00 00 00 00
 (1652893158.547034)  can0  014   [5]  02 20 00 10 27
 (1652893158.549079)  can0  1E5   [8]  1C FF 8A 30 00 00 02 11
 (1652893158.556125)  can0  012   [8]  E8 03 10 00 00 00 00 00
 (1652893158.557018)  can0  014   [5]  03 20 00 10 27
 (1652893158.559092)  can0  1E5   [8]  1C FF 8A 50 00 00 02 31
 (1652893158.566328)  can0  012   [8]  E8 03 10 00 00 00 00 00
 (1652893158.566426)  can0  010   [4]  3D 96 0E 01
 (1652893158.567015)  can0  014   [5]  01 20 00 13 27
 (1652893158.568925)  can0  1E5   [8]  1C FF 8A 70 00 00 02 51
 (1652893158.576325)  can0  012   [8]  E8 03 10 00 00 00 00 00
 (1652893158.577024)  can0  014   [5]  03 20 00 0D 27
 (1652893158.579114)  can0  1E5   [8]  1C FF 8A 10 00 00 01 F1
 (1652893158.586123)  can0  012   [8]  E8 03 10 00 00 00 00 00
 (1652893158.587123)  can0  014   [5]  02 20 00 10 27
 (1652893158.588905)  can0  1E5   [8]  1C FF 8A 30 00 00 02 11
 (1652893158.596121)  can0  012   [8]  E8 03 10 00 00 00 00 00
 (1652893158.597024)  can0  014   [5]  02 20 00 10 27
 (1652893158.599164)  can0  1E5   [8]  1C FF 8B 50 01 00 02 33
 (1652893158.606136)  can0  012   [8]  E8 03 10 00 00 00 00 00
 (1652893158.606986)  can0  014   [5]  02 20 00 10 27
 (1652893158.609208)  can0  1E5   [8]  1C FF 8B 70 01 00 02 53
 (1652893158.616333)  can0  012   [8]  E8 03 10 00 00 00 00 00
 (1652893158.616976)  can0  014   [5]  02 20 00 10 27
 (1652893158.618923)  can0  1E5   [8]  1C FF 8B 10 01 00 01 F3
 (1652893158.626169)  can0  012   [8]  E8 03 10 00 00 00 00 00
 (1652893158.626972)  can0  014   [5]  02 20 00 10 27
 (1652893158.628879)  can0  1E5   [8]  1C FF 8B 30 01 00 02 13
 (1652893158.636145)  can0  012   [8]  E8 03 10 00 00 00 00 00
 (1652893158.637054)  can0  014   [5]  03 20 00 10 27
 (1652893158.638910)  can0  1E5   [8]  1C FF 8B 50 01 00 02 33
 (1652893158.646301)  can0  012   [8]  E8 03 10 00 00 00 00 00
 (1652893158.647030)  can0  014   [5]  02 20 00 10 27
 (1652893158.648894)  can0  1E5   [8]  1C FF 8B 70 01 00 02 53
 (1652893158.656165)  can0  012   [8]  E8 03 10 00 00 00 00 00
 (1652893158.656976)  can0  014   [5]  02 30 00 10 27
 (1652893158.659065)  can0  1E5   [8]  1C FF 8B 10 01 00 01 F3
 (1652893158.666136)  can0  012   [8]  E8 03 10 00 00 00 00 00
 (1652893158.666408)  can0  010   [4]  3D 96 0E 01
 (1652893158.667028)  can0  014   [5]  03 20 00 13 27
 (1652893158.668936)  can0  1E5   [8]  1C FF 8B 30 01 00 02 13
 (1652893158.676353)  can0  012   [8]  E8 03 10 00 00 00 00 00
 (1652893158.677026)  can0  014   [5]  02 20 00 0D 27
 (1652893158.679083)  can0  1E5   [8]  1C FF 8B 50 01 00 02 33
 (1652893158.686124)  can0  012   [8]  E8 03 10 00 00 00 00 00
 (1652893158.686987)  can0  014   [5]  03 30 00 10 27
 (1652893158.688880)  can0  1E5   [8]  1C FF 8D 70 02 00 02 56
 (1652893158.696365)  can0  012   [8]  E8 03 10 00 00 00 00 00
 (1652893158.697028)  can0  014   [5]  02 30 00 10 27
 (1652893158.699070)  can0  1E5   [8]  1C FF 8D 10 01 00 01 F5
 (1652893158.706114)  can0  012   [8]  E8 03 10 00 00 00 00 00
 (1652893158.706984)  can0  014   [5]  03 20 00 10 27
 (1652893158.708885)  can0  1E5   [8]  1C FF 8D 30 01 00 02 15
 (1652893158.716144)  can0  012   [8]  E8 03 10 00 00 00 00 00
 (1652893158.717003)  can0  014   [5]  03 30 00 10 27
 (1652893158.718873)  can0  1E5   [8]  1C FF 8D 50 01 00 02 35
 (1652893158.726130)  can0  012   [8]  E8 03 10 00 00 00 00 00
 (1652893158.727013)  can0  014   [5]  03 30 00 10 27
 (1652893158.729066)  can0  1E5   [8]  1C FF 8E 70 02 00 02 57
 (1652893158.736126)  can0  012   [8]  E8 03 10 00 00 00 00 00
 (1652893158.736976)  can0  014   [5]  02 40 00 10 27
 (1652893158.738917)  can0  1E5   [8]  1C FF 8E 10 02 00 01 F7
 (1652893158.746455)  can0  012   [8]  E8 03 10 00 00 00 00 00
 (1652893158.746996)  can0  014   [5]  03 20 00 10 27
 (1652893158.748871)  can0  1E5   [8]  1C FF 8E 30 02 00 02 17
 (1652893158.756132)  can0  012   [8]  E8 03 10 00 00 00 00 00
 (1652893158.756990)  can0  014   [5]  04 40 00 10 27
 (1652893158.758877)  can0  1E5   [8]  1C FF 90 50 03 00 02 3A
 (1652893158.766443)  can0  012   [8]  E8 03 10 00 00 00 00 00
 (1652893158.766452)  can0  010   [4]  3D 96 0E 01
 (1652893158.766977)  can0  014   [5]  03 30 00 13 27
 (1652893158.768877)  can0  1E5   [8]  1C FF 90 70 03 00 02 5A
 (1652893158.776491)  can0  012   [8]  E8 03 10 00 00 00 00 00
 (1652893158.777021)  can0  014   [5]  03 30 00 0D 27
 (1652893158.779061)  can0  1E5   [8]  1C FF 92 10 04 00 01 FD
 (1652893158.786115)  can0  012   [8]  E8 03 10 00 00 00 00 00
 (1652893158.787068)  can0  014   [5]  03 30 00 10 27
 (1652893158.788879)  can0  1E5   [8]  1C FF 92 30 03 00 02 1C
 (1652893158.796309)  can0  012   [8]  E8 03 10 00 00 00 00 00
 (1652893158.797022)  can0  014   [5]  04 30 00 10 27
 (1652893158.799355)  can0  1E5   [8]  1C FF 93 50 04 00 02 3E
 (1652893158.806138)  can0  012   [8]  E8 03 10 00 00 00 00 00
 (1652893158.807006)  can0  014   [5]  04 40 00 10 27
 (1652893158.809055)  can0  1E5   [8]  1C FF 93 70 04 00 02 5E
 (1652893158.816158)  can0  012   [8]  E8 03 10 00 00 00 00 00
 (1652893158.816987)  can0  014   [5]  03 30 00 10 27
 (1652893158.818875)  can0  1E5   [8]  1C FF 95 10 05 00 02 01
 (1652893158.826303)  can0  012   [8]  E8 03 10 00 00 00 00 00
 (1652893158.827009)  can0  014   [5]  04 40 00 10 27
 (1652893158.828926)  can0  1E5   [8]  1C FF 96 30 05 00 02 22
 (1652893158.836154)  can0  012   [8]  E8 03 10 00 00 00 00 00
 (1652893158.836996)  can0  014   [5]  04 40 00 10 27
 (1652893158.838879)  can0  1E5   [8]  1C FF 98 50 06 00 02 45
 (1652893158.846126)  can0  012   [8]  E8 03 10 00 00 00 00 00
 (1652893158.846996)  can0  014   [5]  04 30 00 10 27
 (1652893158.849057)  can0  1E5   [8]  1C FF 9A 70 07 00 02 68
 (1652893158.856115)  can0  012   [8]  E8 03 10 00 00 00 00 00
 (1652893158.856971)  can0  014   [5]  04 40 00 10 27
 (1652893158.859052)  can0  1E5   [8]  1C FF 9B 10 07 00 02 09
 (1652893158.866582)  can0  012   [8]  E8 03 10 00 00 00 00 00
 (1652893158.866590)  can0  0E3   [2]  F2 00
 (1652893158.866594)  can0  010   [4]  3D 96 0E 01
 (1652893158.866598)  can0  0E2   [2]  F2 00
 (1652893158.866993)  can0  014   [5]  04 40 00 19 27
 (1652893158.867109)  can0  0E4   [2]  F2 00
 (1652893158.868902)  can0  1E5   [8]  1C FF 9E 30 09 00 02 2E
 (1652893158.876323)  can0  012   [8]  E8 03 10 00 00 00 00 00
 (1652893158.877010)  can0  014   [5]  04 40 00 07 27
 (1652893158.878921)  can0  1E5   [8]  1C FF A0 50 09 00 02 50
 (1652893158.886134)  can0  012   [8]  E8 03 10 00 00 00 00 00
 (1652893158.886999)  can0  014   [5]  04 40 00 10 27
 (1652893158.888871)  can0  1E5   [8]  1C FF A3 70 0B 00 02 75
 (1652893158.896317)  can0  012   [8]  E8 03 10 00 00 00 00 00
 (1652893158.897021)  can0  014   [5]  05 40 00 10 27
 (1652893158.899450)  can0  1E5   [8]  1C FF A5 10 0B 00 02 17
 (1652893158.906166)  can0  012   [8]  E8 03 10 00 00 00 00 00
 (1652893158.906988)  can0  014   [5]  04 40 00 10 27
 (1652893158.908864)  can0  1E5   [8]  1C FF A6 30 0C 00 02 39
 (1652893158.916318)  can0  012   [8]  E8 03 10 00 00 00 00 00
 (1652893158.917026)  can0  014   [5]  04 40 00 10 27
 (1652893158.918908)  can0  1E5   [8]  1C FF AA 50 0D 00 02 5E
 (1652893158.926311)  can0  012   [8]  E8 03 10 00 00 00 00 00
 (1652893158.927018)  can0  014   [5]  05 50 00 10 27
 (1652893158.929057)  can0  1E5   [8]  1C FF AB 70 0D 00 02 7F
 (1652893158.936120)  can0  012   [8]  E8 03 10 00 00 00 00 00
 (1652893158.937029)  can0  014   [5]  05 40 00 10 27
 (1652893158.938868)  can0  1E5   [8]  1C FF AD 10 0D 00 02 21
 (1652893158.946305)  can0  012   [8]  E8 03 10 00 00 00 00 00
 (1652893158.947026)  can0  014   [5]  05 50 00 10 27
 (1652893158.948918)  can0  1E5   [8]  1C FF B0 30 0E 00 02 45
 (1652893158.956155)  can0  012   [8]  E8 03 10 00 00 00 00 00
 (1652893158.957002)  can0  014   [5]  05 50 00 10 27
 (1652893158.959070)  can0  1E5   [8]  1C FF B3 50 0F 00 02 69
 (1652893158.966335)  can0  012   [8]  E8 03 10 00 00 00 00 00
 (1652893158.966417)  can0  010   [4]  3D 96 0E 01
 (1652893158.967005)  can0  014   [5]  04 50 00 13 27
 (1652893158.968900)  can0  1E5   [8]  1C FF B8 70 10 00 02 8F
 (1652893158.976145)  can0  012   [8]  E8 03 10 00 00 00 00 00
 (1652893158.976984)  can0  014   [5]  06 50 00 0D 27
 (1652893158.979054)  can0  1E5   [8]  1C FF BB 10 11 00 02 33
 (1652893158.986155)  can0  012   [8]  E8 03 10 00 00 00 00 00
 (1652893158.986982)  can0  014   [5]  05 50 00 10 27
 (1652893158.988919)  can0  1E5   [8]  1C FF BE 30 11 00 02 56
 (1652893158.996302)  can0  012   [8]  E8 03 10 00 00 00 00 00
 (1652893158.997000)  can0  014   [5]  05 50 00 10 27
 (1652893158.998912)  can0  1E5   [8]  1C FF C2 50 12 00 02 7B
 (1652893159.006152)  can0  012   [8]  E8 03 10 00 00 00 00 00
 (1652893159.006988)  can0  014   [5]  05 50 00 10 27
 (1652893159.008916)  can0  1E5   [8]  1C FF C6 70 14 00 02 A1
 (1652893159.016670)  can0  012   [8]  E8 03 10 00 00 00 00 00
 (1652893159.016973)  can0  014   [5]  06 60 00 10 27
 (1652893159.018908)  can0  1E5   [8]  1C FF CA 10 14 00 02 45
 (1652893159.026304)  can0  012   [8]  E8 03 10 00 00 00 00 00
 (1652893159.026982)  can0  014   [5]  05 50 00 10 27
 (1652893159.028918)  can0  1E5   [8]  1C FF CE 30 16 00 02 6B
 (1652893159.036149)  can0  012   [8]  E8 03 10 00 00 00 00 00
 (1652893159.036986)  can0  014   [5]  05 60 00 10 27
 (1652893159.038893)  can0  1E5   [8]  1C FF D2 50 17 00 02 90
 (1652893159.046380)  can0  012   [8]  E8 03 10 00 00 00 00 00
 (1652893159.047028)  can0  014   [5]  06 50 00 10 27
 (1652893159.049069)  can0  1E5   [8]  1C FF D6 70 18 00 02 B5
 (1652893159.056145)  can0  012   [8]  E8 03 10 00 00 00 00 00
 (1652893159.057026)  can0  014   [5]  05 60 00 10 27
 (1652893159.059072)  can0  1E5   [8]  1C FF DA 10 18 00 02 59
 (1652893159.066879)  can0  012   [8]  E8 03 10 00 00 00 00 00
 (1652893159.066888)  can0  010   [4]  3D 96 0E 01
 (1652893159.067010)  can0  014   [5]  06 60 00 12 27
 (1652893159.068883)  can0  1E5   [8]  1C FF DE 30 18 00 02 7D
 (1652893159.076316)  can0  012   [8]  E8 03 10 00 00 00 00 00
 (1652893159.077018)  can0  014   [5]  06 60 00 12 27
 (1652893159.079097)  can0  1E5   [8]  1C FF E2 50 18 00 02 A1
 (1652893159.086144)  can0  012   [8]  E8 03 10 00 00 00 00 00
 (1652893159.086986)  can0  014   [5]  06 50 00 0C 27
 (1652893159.088915)  can0  1E5   [8]  1C FF E6 70 19 00 02 C6
 (1652893159.096405)  can0  012   [8]  E8 03 10 00 00 00 00 00
 (1652893159.096991)  can0  014   [5]  06 60 00 10 27
 (1652893159.099139)  can0  1E5   [8]  1C FF EA 10 19 00 02 6A
 (1652893159.106154)  can0  012   [8]  E8 03 10 00 00 00 00 00
 (1652893159.106981)  can0  014   [5]  07 60 00 10 27
 (1652893159.109137)  can0  1E5   [8]  1C FF EE 30 19 00 02 8E
 (1652893159.116319)  can0  012   [8]  E8 03 10 00 00 00 00 00
 (1652893159.116994)  can0  014   [5]  06 60 00 10 27
 (1652893159.118896)  can0  1E5   [8]  1C FF F3 50 1A 00 02 B4
 (1652893159.126162)  can0  012   [8]  E8 03 10 00 00 00 00 00
 (1652893159.127005)  can0  014   [5]  07 70 00 10 27
 (1652893159.129179)  can0  1E5   [8]  1C FF F6 70 19 00 02 D6
 (1652893159.136134)  can0  012   [8]  E8 03 10 00 00 00 00 00
 (1652893159.137051)  can0  014   [5]  06 60 00 10 27
 (1652893159.138875)  can0  1E5   [8]  1C FF FA 10 19 00 02 7A
 (1652893159.146307)  can0  012   [8]  E8 03 10 00 00 00 00 00
 (1652893159.146987)  can0  014   [5]  07 70 00 14 27
 (1652893159.149117)  can0  1E5   [8]  1C FF FD 30 18 00 02 9C
 (1652893159.156191)  can0  012   [8]  E8 03 10 00 00 00 00 00
 (1652893159.157050)  can0  014   [5]  07 60 00 0C 27
 (1652893159.158906)  can0  1E5   [8]  1C 00 01 50 19 00 00 C2
 (1652893159.167001)  can0  012   [8]  E8 03 10 00 00 00 00 00
 (1652893159.167010)  can0  010   [4]  3D 96 0E 01
 (1652893159.167013)  can0  014   [5]  07 70 00 13 27
 (1652893159.168919)  can0  1E5   [8]  1C 00 04 70 18 00 00 E4
 (1652893159.176309)  can0  012   [8]  E8 03 10 00 00 00 00 00
 (1652893159.176983)  can0  014   [5]  08 80 00 0D 27
 (1652893159.179067)  can0  1E5   [8]  1C 00 07 10 18 00 00 87
 (1652893159.186206)  can0  012   [8]  E8 03 10 00 00 00 00 00
 (1652893159.187040)  can0  014   [5]  07 70 00 10 27
 (1652893159.188908)  can0  1E5   [8]  1C 00 0A 30 17 00 00 A9
 (1652893159.196337)  can0  012   [8]  E8 03 10 00 00 00 00 00
 (1652893159.197018)  can0  014   [5]  08 70 00 10 27
 (1652893159.199051)  can0  1E5   [8]  1C 00 0F 50 18 00 00 CF
 (1652893159.206160)  can0  012   [8]  E8 03 10 00 00 00 00 00
 (1652893159.206993)  can0  014   [5]  07 80 00 10 27
 (1652893159.209058)  can0  1E5   [8]  1C 00 12 70 17 00 00 F1
 (1652893159.216301)  can0  012   [8]  E8 03 10 00 00 00 00 00
 (1652893159.216999)  can0  014   [5]  08 70 00 10 27
 (1652893159.218857)  can0  1E5   [8]  1C 00 15 10 16 00 00 93
 (1652893159.226166)  can0  012   [8]  E8 03 10 00 00 00 00 00
 (1652893159.226995)  can0  014   [5]  07 80 00 10 27
 (1652893159.229059)  can0  1E5   [8]  1C 00 19 30 16 00 00 B7
 (1652893159.236126)  can0  012   [8]  E8 03 10 00 00 00 00 00
 (1652893159.237008)  can0  014   [5]  08 80 00 10 27
 (1652893159.238868)  can0  1E5   [8]  1C 00 1C 50 16 00 00 DA
 (1652893159.246401)  can0  012   [8]  E8 03 10 00 00 00 00 00
 (1652893159.246996)  can0  014   [5]  08 80 00 10 27
 (1652893159.249461)  can0  1E5   [8]  1C 00 1F 70 16 00 00 FD
 (1652893159.256142)  can0  012   [8]  E8 03 10 00 00 00 00 00
 (1652893159.256984)  can0  014   [5]  08 80 00 10 27
 (1652893159.258901)  can0  1E5   [8]  1C 00 22 10 15 00 00 9F
 (1652893159.266346)  can0  012   [8]  E8 03 10 00 00 00 00 00
 (1652893159.266415)  can0  010   [4]  3D 96 0E 01
 (1652893159.266983)  can0  014   [5]  08 80 00 13 27
 (1652893159.268863)  can0  1E5   [8]  1C 00 25 30 15 00 00 C2
 (1652893159.276466)  can0  012   [8]  E8 03 10 00 00 00 00 00
 (1652893159.277007)  can0  014   [5]  08 80 00 0D 27
 (1652893159.278869)  can0  1E5   [8]  1C 00 29 50 15 00 00 E6
 (1652893159.286131)  can0  012   [8]  E8 03 10 00 00 00 00 00
 (1652893159.287078)  can0  014   [5]  09 80 00 10 27
 (1652893159.288853)  can0  1E5   [8]  1C 00 2C 70 15 00 01 09
 (1652893159.296526)  can0  012   [8]  E8 03 10 00 00 00 00 00
 (1652893159.297026)  can0  014   [5]  0A 90 00 10 27
 (1652893159.299504)  can0  1E5   [8]  1C 00 31 10 15 00 00 AE
 (1652893159.306141)  can0  012   [8]  E8 03 10 00 00 00 00 00
 (1652893159.306997)  can0  014   [5]  09 80 00 10 27
 (1652893159.308864)  can0  1E5   [8]  1C 00 34 30 15 00 00 D1
 (1652893159.316321)  can0  012   [8]  E8 03 10 00 00 00 00 00
 (1652893159.317013)  can0  014   [5]  0A A0 00 10 27
 (1652893159.318891)  can0  1E5   [8]  1C 00 37 50 15 00 00 F4
 (1652893159.326297)  can0  012   [8]  E8 03 10 00 00 00 00 00
 (1652893159.327031)  can0  014   [5]  09 90 00 10 27
 (1652893159.329049)  can0  1E5   [8]  1C 00 3A 70 15 00 01 17
 (1652893159.336295)  can0  012   [8]  E8 03 10 00 00 00 00 00
 (1652893159.336982)  can0  014   [5]  0A 90 00 10 27
 (1652893159.338894)  can0  1E5   [8]  1C 00 3D 10 15 00 00 BA
 (1652893159.346307)  can0  012   [8]  E8 03 10 00 00 00 00 00
 (1652893159.346981)  can0  014   [5]  0A A0 00 10 27
 (1652893159.349056)  can0  1E5   [8]  1C 00 42 30 16 00 00 E0
 (1652893159.356116)  can0  012   [8]  E8 03 10 00 00 00 00 00
 (1652893159.357000)  can0  014   [5]  09 A0 00 10 27
 (1652893159.359071)  can0  1E5   [8]  1C 00 45 50 16 00 01 03
 (1652893159.366137)  can0  012   [8]  E8 03 10 00 00 00 00 00
 (1652893159.366449)  can0  010   [4]  3D 96 0E 01
 (1652893159.367026)  can0  014   [5]  0A 90 00 13 27
 (1652893159.368895)  can0  1E5   [8]  1C 00 49 70 16 00 01 27
 (1652893159.376148)  can0  012   [8]  E8 03 10 00 00 00 00 00
 (1652893159.376979)  can0  014   [5]  0A A0 00 0D 27
 (1652893159.379049)  can0  1E5   [8]  1C 00 4A 10 15 00 00 C7
 (1652893159.386314)  can0  012   [8]  E8 03 10 00 00 00 00 00
 (1652893159.387157)  can0  014   [5]  0A A0 00 10 27
 (1652893159.388926)  can0  1E5   [8]  1C 00 4D 30 15 00 00 EA
 (1652893159.396306)  can0  012   [8]  E8 03 10 00 00 00 00 00
 (1652893159.397012)  can0  014   [5]  09 A0 00 10 27
 (1652893159.398893)  can0  1E5   [8]  1C 00 51 50 14 00 01 0D
 (1652893159.406146)  can0  012   [8]  E8 03 10 00 00 00 00 00
 (1652893159.406988)  can0  014   [5]  09 90 00 10 27
 (1652893159.408859)  can0  1E5   [8]  1C 00 54 70 14 00 01 30
 (1652893159.416326)  can0  012   [8]  E8 03 10 00 00 00 00 00
 (1652893159.417023)  can0  014   [5]  0B B0 00 10 27
 (1652893159.418887)  can0  1E5   [8]  1C 00 57 10 14 00 00 D3
 (1652893159.426154)  can0  012   [8]  E8 03 10 00 00 00 00 00
 (1652893159.427029)  can0  014   [5]  0A A0 00 10 27
 (1652893159.429046)  can0  1E5   [8]  1C 00 5A 30 14 00 00 F6
 (1652893159.436183)  can0  012   [8]  E8 03 10 00 00 00 00 00
 (1652893159.436987)  can0  014   [5]  0B A0 00 10 27
 (1652893159.438856)  can0  1E5   [8]  1C 00 5C 50 13 00 01 17
 (1652893159.446303)  can0  012   [8]  E8 03 10 00 00 00 00 00
 (1652893159.447016)  can0  014   [5]  0B B0 00 10 27
 (1652893159.449463)  can0  1E5   [8]  1C 00 5F 70 12 00 01 39
 (1652893159.456117)  can0  012   [8]  E8 03 10 00 00 00 00 00
 (1652893159.456988)  can0  014   [5]  0C B0 00 10 27
 (1652893159.458912)  can0  1E5   [8]  1C 00 61 10 11 00 00 DA
 (1652893159.466139)  can0  012   [8]  E8 03 10 00 00 00 00 00
 (1652893159.466707)  can0  010   [4]  3D 96 0E 01
 (1652893159.467012)  can0  014   [5]  0B C0 00 13 27
 (1652893159.468867)  can0  1E5   [8]  1C 00 64 30 11 00 00 FD
 (1652893159.476293)  can0  012   [8]  E8 03 10 00 00 00 00 00
 (1652893159.476995)  can0  014   [5]  0C B0 00 0D 27
 (1652893159.479033)  can0  1E5   [8]  1C 00 67 50 12 00 01 21
 (1652893159.486154)  can0  012   [8]  E8 03 10 00 00 00 00 00
 (1652893159.486995)  can0  014   [5]  0C C0 00 10 27
 (1652893159.488845)  can0  1E5   [8]  1C 00 69 70 11 00 01 42
 (1652893159.496148)  can0  012   [8]  E8 03 10 00 00 00 00 00
 (1652893159.496983)  can0  014   [5]  0C C0 00 10 27
 (1652893159.499095)  can0  1E5   [8]  1C 00 6C 10 11 00 00 E5
 (1652893159.506112)  can0  012   [8]  E8 03 10 00 00 00 00 00
 (1652893159.506969)  can0  014   [5]  0C C0 00 10 27
 (1652893159.508870)  can0  1E5   [8]  1C 00 6D 30 10 00 01 05
 (1652893159.516134)  can0  012   [8]  E8 03 10 00 00 00 00 00
 (1652893159.516981)  can0  014   [5]  0B C0 00 10 27
 (1652893159.518853)  can0  1E5   [8]  1C 00 71 50 10 00 01 29
 (1652893159.526151)  can0  012   [8]  E8 03 10 00 00 00 00 00
 (1652893159.527009)  can0  014   [5]  0B B0 00 10 27
 (1652893159.529139)  can0  1E5   [8]  1C 00 72 70 0F 00 01 49
 (1652893159.536191)  can0  012   [8]  E8 03 10 00 00 00 00 00
 (1652893159.536976)  can0  014   [5]  0D C0 00 13 27
 (1652893159.538899)  can0  1E5   [8]  1C 00 74 10 0F 00 00 EB
 (1652893159.546303)  can0  012   [8]  E8 03 10 00 00 00 00 00
 (1652893159.547015)  can0  014   [5]  0D C0 00 0D 27
 (1652893159.548879)  can0  1E5   [8]  1C 00 77 30 0F 00 01 0E
 (1652893159.556137)  can0  012   [8]  E8 03 10 00 00 00 00 00
 (1652893159.556983)  can0  014   [5]  0D D0 00 10 27
 (1652893159.559062)  can0  1E5   [8]  1C 00 7A 50 10 00 01 32
 (1652893159.566308)  can0  012   [8]  E8 03 10 00 00 00 00 00
 (1652893159.566410)  can0  010   [4]  3D 96 0E 01
 (1652893159.566987)  can0  014   [5]  0D D0 00 13 27
 (1652893159.568858)  can0  1E5   [8]  1C 00 7C 70 0F 00 01 53
 (1652893159.576301)  can0  012   [8]  E8 03 10 00 00 00 00 00
 (1652893159.576980)  can0  014   [5]  0D D0 00 0D 27
 (1652893159.579070)  can0  1E5   [8]  1C 00 7F 10 0F 00 00 F6
 (1652893159.586196)  can0  012   [8]  E8 03 10 00 00 00 00 00
 (1652893159.587035)  can0  014   [5]  0E D0 00 10 27
 (1652893159.588890)  can0  1E5   [8]  1C 00 81 30 0F 00 01 18
 (1652893159.596308)  can0  012   [8]  E8 03 10 00 00 00 00 00
 (1652893159.597016)  can0  014   [5]  0D E0 00 10 27
 (1652893159.599069)  can0  1E5   [8]  1C 00 84 50 0F 00 01 3B
 (1652893159.606117)  can0  012   [8]  E8 03 10 00 00 00 00 00
 (1652893159.606968)  can0  014   [5]  0E E0 00 10 27
 (1652893159.608887)  can0  1E5   [8]  1C 00 87 70 10 00 01 5F
 (1652893159.616839)  can0  012   [8]  E8 03 10 00 00 00 00 00
 (1652893159.616970)  can0  014   [5]  0E D0 00 10 27
 (1652893159.618916)  can0  1E5   [8]  1C 00 8A 10 10 00 01 02
 (1652893159.626145)  can0  012   [8]  E8 03 10 00 00 00 00 00
 (1652893159.627017)  can0  014   [5]  0E E0 00 10 27
 (1652893159.629163)  can0  1E5   [8]  1C 00 8D 30 11 00 01 26
 (1652893159.636110)  can0  012   [8]  E8 03 10 00 00 00 00 00
 (1652893159.637015)  can0  014   [5]  0E E0 00 10 27
 (1652893159.638910)  can0  1E5   [8]  1C 00 8F 50 11 00 01 48
 (1652893159.646152)  can0  012   [8]  E8 03 10 00 00 00 00 00
 (1652893159.647016)  can0  014   [5]  0E E0 00 10 27
 (1652893159.649182)  can0  1E5   [8]  1C 00 92 70 11 00 01 6B
 (1652893159.656147)  can0  012   [8]  E8 03 10 00 00 00 00 00
 (1652893159.656986)  can0  014   [5]  0E E0 00 12 27
 (1652893159.658893)  can0  1E5   [8]  1C 00 95 10 11 00 01 0E
 (1652893159.666321)  can0  012   [8]  E8 03 10 00 00 00 00 00
 (1652893159.666410)  can0  010   [4]  3D 96 0E 01
 (1652893159.666967)  can0  014   [5]  0F E0 00 11 27
 (1652893159.668882)  can0  1E5   [8]  1C 00 97 30 11 00 01 30
 (1652893159.676152)  can0  012   [8]  E8 03 10 00 00 00 00 00
 (1652893159.677144)  can0  014   [5]  0F E0 00 0D 27
 (1652893159.678897)  can0  1E5   [8]  1C 00 9A 50 11 00 01 53
 (1652893159.686143)  can0  012   [8]  E8 03 10 00 00 00 00 00
 (1652893159.687049)  can0  014   [5]  0F F0 00 10 27
 (1652893159.688885)  can0  1E5   [8]  1C 00 9D 70 12 00 01 77
 (1652893159.696301)  can0  012   [8]  E8 03 10 00 00 00 00 00
 (1652893159.696983)  can0  014   [5]  0F F0 00 10 27
 (1652893159.699191)  can0  1E5   [8]  1C 00 A1 10 12 00 01 1B
 (1652893159.706146)  can0  012   [8]  E8 03 10 00 00 00 00 00
 (1652893159.707057)  can0  014   [5]  0F F0 00 10 27
 (1652893159.708891)  can0  1E5   [8]  1C 00 A4 30 12 00 01 3E
 (1652893159.716309)  can0  012   [8]  E8 03 10 00 00 00 00 00
 (1652893159.716973)  can0  014   [5]  0F 00 01 10 27
 (1652893159.718881)  can0  1E5   [8]  1C 00 A7 50 12 00 01 61
 (1652893159.726337)  can0  012   [8]  E8 03 10 00 00 00 00 00
 (1652893159.727010)  can0  014   [5]  0F F0 00 10 27
 (1652893159.729038)  can0  1E5   [8]  1C 00 AA 70 12 00 01 84
 (1652893159.736175)  can0  012   [8]  E8 03 10 00 00 00 00 00
 (1652893159.737013)  can0  014   [5]  11 00 01 10 27
 (1652893159.738882)  can0  1E5   [8]  1C 00 AD 10 13 00 01 28
 (1652893159.746377)  can0  012   [8]  E8 03 10 00 00 00 00 00
 (1652893159.746989)  can0  014   [5]  11 00 01 10 27
 (1652893159.749027)  can0  1E5   [8]  1C 00 B2 30 14 00 01 4E
 (1652893159.756136)  can0  012   [8]  E8 03 10 00 00 00 00 00
 (1652893159.756984)  can0  014   [5]  11 00 01 10 27
 (1652893159.759045)  can0  1E5   [8]  1C 00 B4 50 13 00 01 6F
 (1652893159.766105)  can0  012   [8]  E8 03 10 00 00 00 00 00
 (1652893159.766423)  can0  010   [4]  3D 96 0E 01
 (1652893159.767008)  can0  014   [5]  11 10 01 13 27
 (1652893159.768889)  can0  1E5   [8]  1C 00 B7 70 14 00 01 93
 (1652893159.776418)  can0  012   [8]  E8 03 10 00 00 00 00 00
 (1652893159.776976)  can0  014   [5]  11 10 01 0D 27
 (1652893159.778877)  can0  1E5   [8]  1C 00 BA 10 14 00 01 36
 (1652893159.786206)  can0  012   [8]  E8 03 10 00 00 00 00 00
 (1652893159.786981)  can0  014   [5]  10 00 01 10 27
 (1652893159.788870)  can0  1E5   [8]  1C 00 BD 30 14 00 01 59
 (1652893159.796422)  can0  012   [8]  E8 03 10 00 00 00 00 00
 (1652893159.796982)  can0  014   [5]  11 10 01 10 27
 (1652893159.798964)  can0  1E5   [8]  1C 00 BF 50 13 00 01 7A
 (1652893159.806109)  can0  012   [8]  E8 03 10 00 00 00 00 00
 (1652893159.806981)  can0  014   [5]  10 10 01 10 27
 (1652893159.808847)  can0  1E5   [8]  1C 00 C1 70 12 00 01 9B
 (1652893159.816361)  can0  012   [8]  E8 03 10 00 00 00 00 00
 (1652893159.817013)  can0  014   [5]  12 00 01 10 27
 (1652893159.818881)  can0  1E5   [8]  1C 00 C2 10 11 00 01 3B
 (1652893159.826298)  can0  012   [8]  E8 03 10 00 00 00 00 00
 (1652893159.827007)  can0  014   [5]  11 20 01 10 27
 (1652893159.828899)  can0  1E5   [8]  1C 00 C4 30 10 00 01 5C
 (1652893159.836139)  can0  012   [8]  E8 03 10 00 00 00 00 00
 (1652893159.836999)  can0  014   [5]  12 10 01 10 27
 (1652893159.838873)  can0  1E5   [8]  1C 00 C5 50 0F 00 01 7C
 (1652893159.846304)  can0  012   [8]  E8 03 10 00 00 00 00 00
 (1652893159.846982)  can0  014   [5]  12 10 01 10 27
 (1652893159.849230)  can0  1E5   [8]  1C 00 C7 70 0D 00 01 9C
 (1652893159.856140)  can0  012   [8]  E8 03 10 00 00 00 00 00
 (1652893159.857011)  can0  014   [5]  12 20 01 10 27
 (1652893159.859025)  can0  1E5   [8]  1C 00 C7 10 0C 00 01 3B
 (1652893159.866313)  can0  012   [8]  E8 03 10 00 00 00 00 00
 (1652893159.866323)  can0  0E3   [2]  1A 01
 (1652893159.866426)  can0  010   [4]  3D 96 0E 01
 (1652893159.866542)  can0  0E2   [2]  1A 01
 (1652893159.866983)  can0  014   [5]  11 30 01 1D 27
 (1652893159.867092)  can0  0E4   [2]  1A 01
 (1652893159.868881)  can0  1E5   [8]  1C 00 C7 30 0A 00 01 59
 (1652893159.876301)  can0  012   [8]  E8 03 10 00 00 00 00 00
 (1652893159.876991)  can0  014   [5]  11 20 01 03 27
 (1652893159.879020)  can0  1E5   [8]  1C 00 C7 50 08 00 01 77
 (1652893159.886144)  can0  012   [8]  E8 03 10 00 00 00 00 00
 (1652893159.887065)  can0  014   [5]  13 30 01 10 27
 (1652893159.888870)  can0  1E5   [8]  1C 00 C7 70 06 00 01 95
 (1652893159.896145)  can0  012   [8]  E8 03 10 00 00 00 00 00
 (1652893159.896995)  can0  014   [5]  14 20 01 10 27
 (1652893159.898901)  can0  1E5   [8]  1C 00 C7 10 05 00 01 34
 (1652893159.906104)  can0  012   [8]  E8 03 10 00 00 00 00 00
 (1652893159.907045)  can0  014   [5]  13 30 01 10 27
 (1652893159.909049)  can0  1E5   [8]  1C 00 C7 30 04 00 01 53
 (1652893159.916314)  can0  012   [8]  E8 03 10 00 00 00 00 00
 (1652893159.917034)  can0  014   [5]  13 30 01 10 27
 (1652893159.918881)  can0  1E5   [8]  1C 00 C5 50 00 00 01 6D
 (1652893159.926319)  can0  012   [8]  E8 03 10 00 00 00 00 00
 (1652893159.926981)  can0  014   [5]  14 40 01 10 27
 (1652893159.928893)  can0  1E5   [8]  1C 00 C5 70 00 00 01 8D
 (1652893159.936134)  can0  012   [8]  E8 03 10 00 00 00 00 00
 (1652893159.936987)  can0  014   [5]  13 40 01 10 27
 (1652893159.938886)  can0  1E5   [8]  1C 00 C5 10 00 00 01 2D
 (1652893159.946301)  can0  012   [8]  E8 03 10 00 00 00 00 00
 (1652893159.947012)  can0  014   [5]  13 40 01 10 27
 (1652893159.948858)  can0  1E5   [8]  1C 00 C5 30 00 00 01 4D
 (1652893159.956115)  can0  012   [8]  E8 03 10 00 00 00 00 00
 (1652893159.956997)  can0  014   [5]  15 30 01 10 27
 (1652893159.959042)  can0  1E5   [8]  1C 00 C4 5F FF 00 02 7A
 (1652893159.966316)  can0  012   [8]  E8 03 10 00 00 00 00 00
 (1652893159.966401)  can0  010   [4]  3D 96 0E 01
 (1652893159.967017)  can0  014   [5]  13 30 01 13 27
 (1652893159.968905)  can0  1E5   [8]  1C 00 C4 7F FF 00 02 9A
