 (1652893296.888465)  can0  014   [5]  00 00 00 10 27
 (1652893296.890060)  can0  1E5   [8]  1C FE 12 10 00 00 01 78
 (1652893296.890396)  can0  012   [8]  E8 03 10 00 00 00 00 00
 (1652893296.898475)  can0  014   [5]  00 00 00 10 27
 (1652893296.900047)  can0  1E5   [8]  1C FE 12 30 00 00 01 98
 (1652893296.900404)  can0  012   [8]  E8 03 10 00 00 00 00 00
 (1652893296.908464)  can0  014   [5]  00 00 00 10 27
 (1652893296.910058)  can0  1E5   [8]  1C FE 12 50 00 00 01 B8
 (1652893296.910372)  can0  012   [8]  E8 03 10 00 00 00 00 00
 (1652893296.918055)  can0  010   [4]  26 73 00 00
 (1652893296.918289)  can0  014   [5]  00 00 00 13 27
 (1652893296.920045)  can0  1E5   [8]  1C FE 12 70 00 00 01 D8
 (1652893296.920429)  can0  012   [8]  E8 03 10 00 00 00 00 00
 (1652893296.928440)  can0  014   [5]  FF 0F 00 0D 27
 (1652893296.930048)  can0  1E5   [8]  1C FE 12 10 00 00 01 78
 (1652893296.930405)  can0  012   [8]  E8 03 10 00 00 00 00 00
 (1652893296.938498)  can0  014   [5]  00 00 00 10 27
 (1652893296.940026)  can0  1E5   [8]  1C FE 12 30 00 00 01 98
 (1652893296.940370)  can0  012   [8]  E8 03 10 00 00 00 00 00
 (1652893296.948466)  can0  014   [5]  00 00 00 10 27
 (1652893296.950058)  can0  1E5   [8]  1C FE 12 50 00 00 01 B8
 (1652893296.950413)  can0  012   [8]  E8 03 10 00 00 00 00 00
 (1652893296.958447)  can0  014   [5]  00 00 00 10 27
 (1652893296.960016)  can0  1E5   [8]  1C FE 10 70 00 00 01 D6
 (1652893296.960392)  can0  012   [8]  E8 03 10 00 00 00 00 00
 (1652893296.968454)  can0  014   [5]  00 00 00 10 27
 (1652893296.970047)  can0  1E5   [8]  1C FE 10 10 00 00 01 76
 (1652893296.970426)  can0  012   [8]  E8 03 10 00 00 00 00 00
 (1652893296.978449)  can0  014   [5]  00 00 00 10 27
 (1652893296.980058)  can0  1E5   [8]  1C FE 12 30 00 00 01 98
 (1652893296.980416)  can0  012   [8]  E8 03 10 00 00 00 00 00
 (1652893296.988453)  can0  014   [5]  00 00 00 10 27
 (1652893296.990051)  can0  1E5   [8]  1C FE 10 50 00 00 01 B6
 (1652893296.990376)  can0  012   [8]  E8 03 10 00 00 00 00 00
 (1652893296.998457)  can0  014   [5]  00 00 00 10 27
 (1652893297.000047)  can0  1E5   [8]  1C FE 12 70 00 00 01 D8
 (1652893297.000400)  can0  012   [8]  E8 03 10 00 00 00 00 00
 (1652893297.008269)  can0  014   [5]  00 00 00 10 27
 (1652893297.010050)  can0  1E5   [8]  1C FE 10 10 00 00 01 76
 (1652893297.010413)  can0  012   [8]  E8 03 10 00 00 00 00 00
 (1652893297.017954)  can0  010   [4]  26 73 00 00
 (1652893297.017962)  can0  0E2   [2]  A0 00
 (1652893297.018293)  can0  014   [5]  00 00 00 16 27
 (1652893297.018386)  can0  0E4   [2]  A0 00
 (1652893297.020063)  can0  1E5   [8]  1C FE 10 30 00 00 01 96
 (1652893297.020433)  can0  012   [8]  E8 03 10 00 00 00 00 00
 (1652893297.020526)  can0  0E3   [2]  A0 00
 (1652893297.028489)  can0  014   [5]  00 00 00 0D 27
 (1652893297.030047)  can0  1E5   [8]  1C FE 10 50 00 00 01 B6
 (1652893297.030401)  can0  012   [8]  E8 03 10 00 00 00 00 00
 (1652893297.038491)  can0  014   [5]  00 00 00 0D 27
 (1652893297.040015)  can0  1E5   [8]  1C FE 10 70 00 00 01 D6
 (1652893297.040352)  can0  012   [8]  E8 03 10 00 00 00 00 00
 (1652893297.048454)  can0  014   [5]  00 00 00 10 27
 (1652893297.050054)  can0  1E5   [8]  1C FE 12 10 00 00 01 78
 (1652893297.050402)  can0  012   [8]  E8 03 10 00 00 00 00 00
 (1652893297.058462)  can0  014   [5]  00 00 00 10 27
 (1652893297.060016)  can0  1E5   [8]  1C FE 12 30 00 00 01 98
 (1652893297.060398)  can0  012   [8]  E8 03 10 00 00 00 00 00
 (1652893297.068463)  can0  014   [5]  00 00 00 10 27
 (1652893297.070036)  can0  1E5   [8]  1C FE 12 50 00 00 01 B8
 (1652893297.070430)  can0  012   [8]  E8 03 10 00 00 00 00 00
 (1652893297.078464)  can0  014   [5]  00 00 00 10 27
 (1652893297.080054)  can0  1E5   [8]  1C FE 12 70 00 00 01 D8
 (1652893297.080418)  can0  012   [8]  E8 03 10 00 00 00 00 00
 (1652893297.088268)  can0  014   [5]  00 00 00 10 27
 (1652893297.090061)  can0  1E5   [8]  1C FE 12 10 00 00 01 78
 (1652893297.090429)  can0  012   [8]  E8 03 10 00 00 00 00 00
 (1652893297.098458)  can0  014   [5]  00 00 00 10 27
 (1652893297.100060)  can0  1E5   [8]  1C FE 12 30 00 00 01 98
 (1652893297.100452)  can0  012   [8]  E8 03 10 00 00 00 00 00
 (1652893297.108450)  can0  014   [5]  00 00 00 10 27
 (1652893297.110054)  can0  1E5   [8]  1C FE 12 50 00 00 01 B8
 (1652893297.110452)  can0  012   [8]  E8 03 10 00 00 00 00 00
 (1652893297.117957)  can0  010   [4]  26 73 00 00
 (1652893297.118281)  can0  014   [5]  00 00 00 13 27
 (1652893297.120252)  can0  1E5   [8]  1C FE 12 70 00 00 01 D8
 (1652893297.120355)  can0  012   [8]  E8 03 10 00 00 00 00 00
 (1652893297.128289)  can0  014   [5]  00 00 00 0D 27
 (1652893297.130244)  can0  1E5   [8]  1C FE 12 10 00 00 01 78
 (1652893297.130409)  can0  012   [8]  E8 03 10 00 00 00 00 00
 (1652893297.138450)  can0  014   [5]  00 00 00 10 27
 (1652893297.140050)  can0  1E5   [8]  1C FE 12 30 00 00 01 98
 (1652893297.140397)  can0  012   [8]  E8 03 10 00 00 00 00 00
 (1652893297.148455)  can0  014   [5]  00 00 00 10 27
 (1652893297.150055)  can0  1E5   [8]  1C FE 12 50 00 00 01 B8
 (1652893297.150394)  can0  012   [8]  E8 03 10 00 00 00 00 00
 (1652893297.158472)  can0  014   [5]  00 00 00 10 27
 (1652893297.160048)  can0  1E5   [8]  1C FE 13 70 01 00 01 DA
 (1652893297.160421)  can0  012   [8]  E8 03 10 00 00 00 00 00
 (1652893297.168468)  can0  014   [5]  00 00 00 10 27
 (1652893297.170071)  can0  1E5   [8]  1C FE 13 10 01 00 01 7A
 (1652893297.170421)  can0  012   [8]  E8 03 10 00 00 00 00 00
 (1652893297.178498)  can0  014   [5]  00 00 00 10 27
 (1652893297.180054)  can0  1E5   [8]  1C FE 13 30 01 00 01 9A
 (1652893297.180402)  can0  012   [8]  E8 03 10 00 00 00 00 00
 (1652893297.188509)  can0  014   [5]  00 00 00 10 27
 (1652893297.190051)  can0  1E5   [8]  1C FE 13 50 01 00 01 BA
 (1652893297.190411)  can0  012   [8]  E8 03 10 00 00 00 00 00
 (1652893297.198531)  can0  014   [5]  00 00 00 10 27
 (1652893297.200051)  can0  1E5   [8]  1C FE 12 70 00 00 01 D8
 (1652893297.200362)  can0  012   [8]  E8 03 10 00 00 00 00 00
 (1652893297.208551)  can0  014   [5]  00 00 00 10 27
 (1652893297.210040)  can0  1E5   [8]  1C FE 13 10 00 00 01 79
 (1652893297.210426)  can0  012   [8]  E8 03 10 00 00 00 00 00
 (1652893297.217798)  can0  010   [4]  26 73 00 00
 (1652893297.218275)  can0  014   [5]  00 00 00 13 27
 (1652893297.220254)  can0  1E5   [8]  1C FE 13 30 00 00 01 99
 (1652893297.220432)  can0  012   [8]  E8 03 10 00 00 00 00 00
 (1652893297.228447)  can0  014   [5]  00 00 00 0D 27
 (1652893297.230049)  can0  1E5   [8]  1C FE 13 50 00 00 01 B9
 (1652893297.230410)  can0  012   [8]  E8 03 10 00 00 00 00 00
 (1652893297.238451)  can0  014   [5]  00 00 00 10 27
 (1652893297.240022)  can0  1E5   [8]  1C FE 12 70 00 00 01 D8
 (1652893297.240357)  can0  012   [8]  E8 03 10 00 00 00 00 00
 (1652893297.248503)  can0  014   [5]  00 00 00 10 27
 (1652893297.250016)  can0  1E5   [8]  1C FE 13 10 00 00 01 79
 (1652893297.250404)  can0  012   [8]  E8 03 10 00 00 00 00 00
 (1652893297.258461)  can0  014   [5]  00 00 00 10 27
 (1652893297.260042)  can0  1E5   [8]  1C FE 13 30 00 00 01 99
 (1652893297.260406)  can0  012   [8]  E8 03 10 00 00 00 00 00
 (1652893297.268459)  can0  014   [5]  00 00 00 10 27
 (1652893297.270045)  can0  1E5   [8]  1C FE 13 50 00 00 01 B9
 (1652893297.270428)  can0  012   [8]  E8 03 10 00 00 00 00 00
 (1652893297.278464)  can0  014   [5]  00 00 00 10 27
 (1652893297.280054)  can0  1E5   [8]  1C FE 12 70 00 00 01 D8
 (1652893297.280356)  can0  012   [8]  E8 03 10 00 00 00 00 00
 (1652893297.288461)  can0  014   [5]  00 00 00 10 27
 (1652893297.290044)  can0  1E5   [8]  1C FE 12 10 00 00 01 78
 (1652893297.290399)  can0  012   [8]  E8 03 10 00 00 00 00 00
 (1652893297.298269)  can0  014   [5]  00 00 00 10 27
 (1652893297.300220)  can0  1E5   [8]  1C FE 13 30 00 00 01 99
 (1652893297.300405)  can0  012   [8]  E8 03 10 00 00 00 00 00
 (1652893297.308469)  can0  014   [5]  00 00 00 10 27
 (1652893297.310054)  can0  1E5   [8]  1C FE 13 50 00 00 01 B9
 (1652893297.310413)  can0  012   [8]  E8 03 10 00 00 00 00 00
 (1652893297.317952)  can0  010   [4]  26 73 00 00
 (1652893297.318275)  can0  014   [5]  00 00 00 13 27
 (1652893297.320249)  can0  1E5   [8]  1C FE 12 70 00 00 01 D8
 (1652893297.320426)  can0  012   [8]  E8 03 10 00 00 00 00 00
 (1652893297.328288)  can0  014   [5]  00 00 00 0D 27
 (1652893297.330020)  can0  1E5   [8]  1C FE 13 10 00 00 01 79
 (1652893297.330366)  can0  012   [8]  E8 03 10 00 00 00 00 00
 (1652893297.338446)  can0  014   [5]  00 00 00 10 27
 (1652893297.340049)  can0  1E5   [8]  1C FE 13 30 00 00 01 99
 (1652893297.340368)  can0  012   [8]  E8 03 10 00 00 00 00 00
 (1652893297.348462)  can0  014   [5]  00 00 00 10 27
 (1652893297.350050)  can0  1E5   [8]  1C FE 13 50 00 00 01 B9
 (1652893297.350402)  can0  012   [8]  E8 03 10 00 00 00 00 00
 (1652893297.358461)  can0  014   [5]  00 00 00 10 27
 (1652893297.360114)  can0  1E5   [8]  1C FE 13 70 00 00 01 D9
 (1652893297.360398)  can0  012   [8]  E8 03 10 00 00 00 00 00
 (1652893297.368460)  can0  014   [5]  00 00 00 10 27
 (1652893297.370040)  can0  1E5   [8]  1C FE 12 10 00 00 01 78
 (1652893297.370437)  can0  012   [8]  E8 03 10 00 00 00 00 00
 (1652893297.378447)  can0  014   [5]  00 00 00 10 27
 (1652893297.380050)  can0  1E5   [8]  1C FE 12 30 00 00 01 98
 (1652893297.380398)  can0  012   [8]  E8 03 10 00 00 00 00 00
 (1652893297.388454)  can0  014   [5]  00 00 00 10 27
 (1652893297.390037)  can0  1E5   [8]  1C FE 12 50 00 00 01 B8
 (1652893297.390406)  can0  012   [8]  E8 03 10 00 00 00 00 00
 (1652893297.398452)  can0  014   [5]  00 00 00 10 27
 (1652893297.400034)  can0  1E5   [8]  1C FE 13 70 00 00 01 D9
 (1652893297.400402)  can0  012   [8]  E8 03 10 00 00 00 00 00
 (1652893297.408453)  can0  014   [5]  00 00 00 10 27
 (1652893297.410022)  can0  1E5   [8]  1C FE 13 10 00 00 01 79
 (1652893297.410366)  can0  012   [8]  E8 03 10 00 00 00 00 00
 (1652893297.417959)  can0  010   [4]  26 73 00 00
 (1652893297.418287)  can0  014   [5]  00 00 00 13 27
 (1652893297.420251)  can0  1E5   [8]  1C FE 12 30 00 00 01 98
 (1652893297.420434)  can0  012   [8]  E8 03 10 00 00 00 00 00
 (1652893297.428459)  can0  014   [5]  00 00 00 0D 27
 (1652893297.430035)  can0  1E5   [8]  1C FE 13 50 00 00 01 B9
 (1652893297.430401)  can0  012   [8]  E8 03 10 00 00 00 00 00
 (1652893297.438457)  can0  014   [5]  FF FF FF 10 27
 (1652893297.440042)  can0  1E5   [8]  1C FE 13 70 00 00 01 D9
 (1652893297.440407)  can0  012   [8]  E8 03 10 00 00 00 00 00
 (1652893297.448450)  can0  014   [5]  00 00 00 10 27
 (1652893297.450043)  can0  1E5   [8]  1C FE 13 10 00 00 01 79
 (1652893297.450458)  can0  012   [8]  E8 03 10 00 00 00 00 00
 (1652893297.458445)  can0  014   [5]  00 00 00 10 27
 (1652893297.460013)  can0  1E5   [8]  1C FE 12 30 00 00 01 98
 (1652893297.460377)  can0  012   [8]  E8 03 10 00 00 00 00 00
 (1652893297.468446)  can0  014   [5]  00 00 00 10 27
 (1652893297.470029)  can0  1E5   [8]  1C FE 12 50 00 00 01 B8
 (1652893297.470419)  can0  012   [8]  E8 03 10 00 00 00 00 00
 (1652893297.478459)  can0  014   [5]  00 00 00 10 27
 (1652893297.480040)  can0  1E5   [8]  1C FE 13 70 00 00 01 D9
 (1652893297.480393)  can0  012   [8]  E8 03 10 00 00 00 00 00
 (1652893297.488447)  can0  014   [5]  00 00 00 10 27
 (1652893297.490022)  can0  1E5   [8]  1C FE 12 10 00 00 01 78
 (1652893297.490406)  can0  012   [8]  E8 03 10 00 00 00 00 00
 (1652893297.498451)  can0  014   [5]  00 00 00 10 27
 (1652893297.500039)  can0  1E5   [8]  1C FE 13 30 00 00 01 99
 (1652893297.500400)  can0  012   [8]  E8 03 10 00 00 00 00 00
 (1652893297.508455)  can0  014   [5]  00 00 00 10 27
 (1652893297.510042)  can0  1E5   [8]  1C FE 13 50 00 00 01 B9
 (1652893297.510407)  can0  012   [8]  E8 03 10 00 00 00 00 00
 (1652893297.517964)  can0  010   [4]  26 73 00 00
 (1652893297.518281)  can0  014   [5]  00 00 00 13 27
 (1652893297.520238)  can0  1E5   [8]  1C FE 12 70 00 00 01 D8
 (1652893297.520414)  can0  012   [8]  E8 03 10 00 00 00 00 00
 (1652893297.528449)  can0  014   [5]  FF 0F 00 0D 27
 (1652893297.530031)  can0  1E5   [8]  1C FE 13 10 00 00 01 79
 (1652893297.530418)  can0  012   [8]  E8 03 10 00 00 00 00 00
 (1652893297.538448)  can0  014   [5]  00 00 00 10 27
 (1652893297.540032)  can0  1E5   [8]  1C FE 13 30 00 00 01 99
 (1652893297.540418)  can0  012   [8]  E8 03 10 00 00 00 00 00
 (1652893297.548450)  can0  014   [5]  00 F0 FF 10 27
 (1652893297.550030)  can0  1E5   [8]  1C FE 12 50 00 00 01 B8
 (1652893297.550396)  can0  012   [8]  E8 03 10 00 00 00 00 00
 (1652893297.558490)  can0  014   [5]  00 00 00 10 27
 (1652893297.560043)  can0  1E5   [8]  1C FE 13 70 00 00 01 D9
 (1652893297.560406)  can0  012   [8]  E8 03 10 00 00 00 00 00
 (1652893297.568440)  can0  014   [5]  00 00 00 10 27
 (1652893297.569992)  can0  1E5   [8]  1C FE 13 10 00 00 01 79
 (1652893297.570424)  can0  012   [8]  E8 03 10 00 00 00 00 00
 (1652893297.578450)  can0  014   [5]  00 00 00 10 27
 (1652893297.580040)  can0  1E5   [8]  1C FE 13 30 00 00 01 99
 (1652893297.580398)  can0  012   [8]  E8 03 10 00 00 00 00 00
 (1652893297.588459)  can0  014   [5]  00 00 00 10 27
 (1652893297.590047)  can0  1E5   [8]  1C FE 12 50 00 00 01 B8
 (1652893297.590449)  can0  012   [8]  E8 03 10 00 00 00 00 00
 (1652893297.598464)  can0  014   [5]  00 00 00 10 27
 (1652893297.600038)  can0  1E5   [8]  1C FE 12 70 00 00 01 D8
 (1652893297.600410)  can0  012   [8]  E8 03 10 00 00 00 00 00
 (1652893297.608451)  can0  014   [5]  00 00 00 10 27
 (1652893297.610033)  can0  1E5   [8]  1C FE 12 10 00 00 01 78
 (1652893297.610429)  can0  012   [8]  E8 03 10 00 00 00 00 00
 (1652893297.617833)  can0  010   [4]  26 73 00 00
 (1652893297.618256)  can0  014   [5]  FF 0F 00 13 27
 (1652893297.620240)  can0  1E5   [8]  1C FE 12 30 00 00 01 98
 (1652893297.620430)  can0  012   [8]  E8 03 10 00 00 00 00 00
 (1652893297.628440)  can0  014   [5]  00 F0 FF 0D 27
 (1652893297.630032)  can0  1E5   [8]  1C FE 13 50 00 00 01 B9
 (1652893297.630406)  can0  012   [8]  E8 03 10 00 00 00 00 00
 (1652893297.638697)  can0  014   [5]  00 00 00 10 27
 (1652893297.640034)  can0  1E5   [8]  1C FE 12 70 00 00 01 D8
 (1652893297.640411)  can0  012   [8]  E8 03 10 00 00 00 00 00
 (1652893297.648441)  can0  014   [5]  00 00 00 10 27
 (1652893297.649992)  can0  1E5   [8]  1C FE 13 10 00 00 01 79
 (1652893297.650411)  can0  012   [8]  E8 03 10 00 00 00 00 00
 (1652893297.658487)  can0  014   [5]  00 00 00 10 27
 (1652893297.660004)  can0  1E5   [8]  1C FE 12 30 00 00 01 98
 (1652893297.660409)  can0  012   [8]  E8 03 10 00 00 00 00 00
 (1652893297.668455)  can0  014   [5]  00 00 00 10 27
 (1652893297.670026)  can0  1E5   [8]  1C FE 13 50 00 00 01 B9
 (1652893297.670412)  can0  012   [8]  E8 03 10 00 00 00 00 00
 (1652893297.678458)  can0  014   [5]  00 00 00 10 27
 (1652893297.680004)  can0  1E5   [8]  1C FE 12 70 00 00 01 D8
 (1652893297.680418)  can0  012   [8]  E8 03 10 00 00 00 00 00
 (1652893297.688453)  can0  014   [5]  00 00 00 10 27
 (1652893297.690033)  can0  1E5   [8]  1C FE 12 10 00 00 01 78
 (1652893297.690416)  can0  012   [8]  E8 03 10 00 00 00 00 00
 (1652893297.698488)  can0  014   [5]  00 00 00 10 27
 (1652893297.700032)  can0  1E5   [8]  1C FE 12 30 00 00 01 98
 (1652893297.700396)  can0  012   [8]  E8 03 10 00 00 00 00 00
 (1652893297.708506)  can0  014   [5]  00 00 00 10 27
 (1652893297.710037)  can0  1E5   [8]  1C FE 13 50 00 00 01 B9
 (1652893297.710411)  can0  012   [8]  E8 03 10 00 00 00 00 00
 (1652893297.717953)  can0  010   [4]  26 73 00 00
 (1652893297.718275)  can0  014   [5]  00 F0 FF 13 27
 (1652893297.720213)  can0  1E5   [8]  1C FE 12 70 00 00 01 D8
 (1652893297.720415)  can0  012   [8]  E8 03 10 00 00 00 00 00
 (1652893297.728553)  can0  014   [5]  FF 0F 00 0D 27
 (1652893297.730026)  can0  1E5   [8]  1C FE 12 10 00 00 01 78
 (1652893297.730403)  can0  012   [8]  E8 03 10 00 00 00 00 00
 (1652893297.738563)  can0  014   [5]  00 00 00 10 27
 (1652893297.740011)  can0  1E5   [8]  1C FE 12 30 00 00 01 98
 (1652893297.740363)  can0  012   [8]  E8 03 10 00 00 00 00 00
 (1652893297.748576)  can0  014   [5]  00 00 00 10 27
 (1652893297.750028)  can0  1E5   [8]  1C FE 12 50 00 00 01 B8
 (1652893297.750417)  can0  012   [8]  E8 03 10 00 00 00 00 00
 (1652893297.758461)  can0  014   [5]  00 00 00 10 27
 (1652893297.760004)  can0  1E5   [8]  1C FE 12 70 00 00 01 D8
 (1652893297.760419)  can0  012   [8]  E8 03 10 00 00 00 00 00
 (1652893297.768449)  can0  014   [5]  00 00 00 10 27
 (1652893297.770037)  can0  1E5   [8]  1C FE 12 10 00 00 01 78
 (1652893297.770420)  can0  012   [8]  E8 03 10 00 00 00 00 00
 (1652893297.778467)  can0  014   [5]  00 00 00 10 27
 (1652893297.780026)  can0  1E5   [8]  1C FE 13 30 00 00 01 99
 (1652893297.780405)  can0  012   [8]  E8 03 10 00 00 00 00 00
 (1652893297.788448)  can0  014   [5]  00 00 00 10 27
 (1652893297.790031)  can0  1E5   [8]  1C FE 12 50 00 00 01 B8
 (1652893297.790413)  can0  012   [8]  E8 03 10 00 00 00 00 00
 (1652893297.798451)  can0  014   [5]  00 00 00 10 27
 (1652893297.800026)  can0  1E5   [8]  1C FE 13 70 00 00 01 D9
 (1652893297.800415)  can0  012   [8]  E8 03 10 00 00 00 00 00
 (1652893297.808465)  can0  014   [5]  00 00 00 10 27
 (1652893297.810037)  can0  1E5   [8]  1C FE 13 10 00 00 01 79
 (1652893297.810401)  can0  012   [8]  E8 03 10 00 00 00 00 00
 (1652893297.817951)  can0  010   [4]  26 73 00 00
 (1652893297.818276)  can0  014   [5]  00 00 00 13 27
 (1652893297.820244)  can0  1E5   [8]  1C FE 13 30 00 00 01 99
 (1652893297.820412)  can0  012   [8]  E8 03 10 00 00 00 00 00
 (1652893297.828459)  can0  014   [5]  00 00 00 0D 27
 (1652893297.830024)  can0  1E5   [8]  1C FE 13 50 00 00 01 B9
 (1652893297.830417)  can0  012   [8]  E8 03 10 00 00 00 00 00
 (1652893297.838446)  can0  014   [5]  00 00 00 10 27
 (1652893297.840030)  can0  1E5   [8]  1C FE 13 70 00 00 01 D9
 (1652893297.840419)  can0  012   [8]  E8 03 10 00 00 00 00 00
 (1652893297.848252)  can0  014   [5]  00 00 00 10 27
 (1652893297.850041)  can0  1E5   [8]  1C FE 12 10 00 00 01 78
 (1652893297.850387)  can0  012   [8]  E8 03 10 00 00 00 00 00
 (1652893297.858454)  can0  014   [5]  00 00 00 10 27
 (1652893297.860037)  can0  1E5   [8]  1C FE 13 30 00 00 01 99
 (1652893297.860402)  can0  012   [8]  E8 03 10 00 00 00 00 00
 (1652893297.868479)  can0  014   [5]  00 00 00 10 27
 (1652893297.870032)  can0  1E5   [8]  1C FE 13 50 00 00 01 B9
 (1652893297.870424)  can0  012   [8]  E8 03 10 00 00 00 00 00
 (1652893297.878465)  can0  014   [5]  00 00 00 10 27
 (1652893297.880025)  can0  1E5   [8]  1C FE 12 70 00 00 01 D8
 (1652893297.880411)  can0  012   [8]  E8 03 10 00 00 00 00 00
 (1652893297.888443)  can0  014   [5]  00 00 00 10 27
 (1652893297.890033)  can0  1E5   [8]  1C FE 13 10 00 00 01 79
 (1652893297.890418)  can0  012   [8]  E8 03 10 00 00 00 00 00
 (1652893297.898446)  can0  014   [5]  00 00 00 10 27
 (1652893297.900032)  can0  1E5   [8]  1C FE 12 30 00 00 01 98
 (1652893297.900394)  can0  012   [8]  E8 03 10 00 00 00 00 00
 (1652893297.908458)  can0  014   [5]  00 F0 FF 10 27
 (1652893297.910027)  can0  1E5   [8]  1C FE 13 50 00 00 01 B9
 (1652893297.910411)  can0  012   [8]  E8 03 10 00 00 00 00 00
 (1652893297.917959)  can0  010   [4]  26 73 00 00
 (1652893297.918275)  can0  014   [5]  00 00 00 13 27
 (1652893297.920203)  can0  1E5   [8]  1C FE 13 70 00 00 01 D9
 (1652893297.920414)  can0  012   [8]  E8 03 10 00 00 00 00 00
 (1652893297.928455)  can0  014   [5]  00 00 00 0D 27
 (1652893297.930117)  can0  1E5   [8]  1C FE 15 10 01 00 01 7C
 (1652893297.930403)  can0  012   [8]  E8 03 10 00 00 00 00 00
 (1652893297.938453)  can0  014   [5]  00 00 00 10 27
 (1652893297.940019)  can0  1E5   [8]  1C FE 15 30 01 00 01 9C
 (1652893297.940407)  can0  012   [8]  E8 03 10 00 00 00 00 00
 (1652893297.948462)  can0  014   [5]  00 00 00 10 27
 (1652893297.950005)  can0  1E5   [8]  1C FE 15 50 01 00 01 BC
 (1652893297.950417)  can0  012   [8]  E8 03 10 00 00 00 00 00
 (1652893297.958457)  can0  014   [5]  00 00 00 10 27
 (1652893297.960003)  can0  1E5   [8]  1C FE 15 70 01 00 01 DC
 (1652893297.960384)  can0  012   [8]  E8 03 10 00 00 00 00 00
 (1652893297.968481)  can0  014   [5]  00 00 00 10 27
 (1652893297.970025)  can0  1E5   [8]  1C FE 16 10 02 00 01 7E
 (1652893297.970436)  can0  012   [8]  E8 03 10 00 00 00 00 00
 (1652893297.978455)  can0  014   [5]  00 00 00 10 27
 (1652893297.980037)  can0  1E5   [8]  1C FE 18 30 03 00 01 A1
 (1652893297.980400)  can0  012   [8]  E8 03 10 00 00 00 00 00
 (1652893297.988455)  can0  014   [5]  00 00 00 10 27
 (1652893297.990021)  can0  1E5   [8]  1C FE 18 50 03 00 01 C1
 (1652893297.990407)  can0  012   [8]  E8 03 10 00 00 00 00 00
 (1652893297.998444)  can0  014   [5]  00 00 00 10 27
 (1652893298.000033)  can0  1E5   [8]  1C FE 1A 70 04 00 01 E4
 (1652893298.000414)  can0  012   [8]  E8 03 10 00 00 00 00 00
 (1652893298.008455)  can0  014   [5]  00 00 00 10 27
 (1652893298.010031)  can0  1E5   [8]  1C FE 1B 10 05 00 01 86
 (1652893298.010413)  can0  012   [8]  E8 03 10 00 00 00 00 00
 (1652893298.017945)  can0  010   [4]  26 73 00 00
 (1652893298.017953)  can0  0E2   [2]  C8 00
 (1652893298.018286)  can0  014   [5]  00 00 00 16 27
 (1652893298.018393)  can0  0E4   [2]  C8 00
 (1652893298.020028)  can0  1E5   [8]  1C FE 1D 30 06 00 01 A9
 (1652893298.020431)  can0  012   [8]  E8 03 10 00 00 00 00 00
 (1652893298.020525)  can0  0E3   [2]  C8 00
 (1652893298.028456)  can0  014   [5]  00 00 00 0D 27
 (1652893298.030032)  can0  1E5   [8]  1C FE 1E 50 06 00 01 CA
 (1652893298.030417)  can0  012   [8]  E8 03 10 00 00 00 00 00
 (1652893298.038447)  can0  014   [5]  00 00 00 0D 27
 (1652893298.039990)  can0  1E5   [8]  1C FE 20 70 07 00 01 ED
 (1652893298.040387)  can0  012   [8]  E8 03 10 00 00 00 00 00
 (1652893298.048449)  can0  014   [5]  00 00 00 10 27
 (1652893298.049975)  can0  1E5   [8]  1C FE 22 10 08 00 01 90
 (1652893298.050346)  can0  012   [8]  E8 03 10 00 00 00 00 00
 (1652893298.058454)  can0  014   [5]  00 00 00 10 27
 (1652893298.060023)  can0  1E5   [8]  1C FE 23 30 09 00 01 B2
 (1652893298.060406)  can0  012   [8]  E8 03 10 00 00 00 00 00
 (1652893298.068448)  can0  014   [5]  00 00 00 10 27
 (1652893298.070020)  can0  1E5   [8]  1C FE 25 50 09 00 01 D4
 (1652893298.070460)  can0  012   [8]  E8 03 10 00 00 00 00 00
 (1652893298.078450)  can0  014   [5]  00 00 00 10 27
 (1652893298.080025)  can0  1E5   [8]  1C FE 26 70 09 00 01 F5
 (1652893298.080393)  can0  012   [8]  E8 03 10 00 00 00 00 00
 (1652893298.088460)  can0  014   [5]  00 00 00 10 27
 (1652893298.090032)  can0  1E5   [8]  1C FE 26 10 09 00 01 95
 (1652893298.090392)  can0  012   [8]  E8 03 10 00 00 00 00 00
 (1652893298.098453)  can0  014   [5]  00 00 00 10 27
 (1652893298.100033)  can0  1E5   [8]  1C FE 28 30 09 00 01 B7
 (1652893298.100406)  can0  012   [8]  E8 03 10 00 00 00 00 00
 (1652893298.108284)  can0  014   [5]  00 00 00 10 27
 (1652893298.110292)  can0  1E5   [8]  1C FE 28 50 08 00 01 D6
 (1652893298.110397)  can0  012   [8]  E8 03 10 00 00 00 00 00
 (1652893298.117961)  can0  010   [4]  26 73 00 00
 (1652893298.118275)  can0  014   [5]  FF 0F 00 13 27
 (1652893298.120315)  can0  1E5   [8]  1C FE 28 70 07 00 01 F5
 (1652893298.120391)  can0  012   [8]  E8 03 10 00 00 00 00 00
 (1652893298.128446)  can0  014   [5]  00 00 00 0D 27
 (1652893298.130014)  can0  1E5   [8]  1C FE 2A 10 07 00 01 97
 (1652893298.130420)  can0  012   [8]  E8 03 10 00 00 00 00 00
 (1652893298.138446)  can0  014   [5]  00 00 00 10 27
 (1652893298.140019)  can0  1E5   [8]  1C FE 2A 30 06 00 01 B6
 (1652893298.140443)  can0  012   [8]  E8 03 10 00 00 00 00 00
 (1652893298.148445)  can0  014   [5]  00 00 00 10 27
 (1652893298.150019)  can0  1E5   [8]  1C FE 2B 50 06 00 01 D7
 (1652893298.150350)  can0  012   [8]  E8 03 10 00 00 00 00 00
 (1652893298.158467)  can0  014   [5]  00 00 00 10 27
 (1652893298.160025)  can0  1E5   [8]  1C FE 2B 70 05 00 01 F6
 (1652893298.160406)  can0  012   [8]  E8 03 10 00 00 00 00 00
 (1652893298.168458)  can0  014   [5]  00 00 00 10 27
 (1652893298.169978)  can0  1E5   [8]  1C FE 2D 10 05 00 01 98
 (1652893298.170430)  can0  012   [8]  E8 03 10 00 00 00 00 00
 (1652893298.178485)  can0  014   [5]  00 00 00 10 27
 (1652893298.179973)  can0  1E5   [8]  1C FE 2D 30 04 00 01 B7
 (1652893298.180395)  can0  012   [8]  E8 03 10 00 00 00 00 00
 (1652893298.188464)  can0  014   [5]  00 00 00 10 27
 (1652893298.190014)  can0  1E5   [8]  1C FE 2D 50 04 00 01 D7
 (1652893298.190391)  can0  012   [8]  E8 03 10 00 00 00 00 00
 (1652893298.198466)  can0  014   [5]  00 00 00 10 27
 (1652893298.200014)  can0  1E5   [8]  1C FE 2E 70 04 00 01 F8
 (1652893298.200406)  can0  012   [8]  E8 03 10 00 00 00 00 00
 (1652893298.208464)  can0  014   [5]  00 00 00 10 27
 (1652893298.210026)  can0  1E5   [8]  1C FE 2E 10 04 00 01 98
 (1652893298.210411)  can0  012   [8]  E8 03 10 00 00 00 00 00
 (1652893298.217955)  can0  010   [4]  26 73 00 00
 (1652893298.218282)  can0  014   [5]  00 00 00 13 27
 (1652893298.220226)  can0  1E5   [8]  1C FE 2E 30 04 00 01 B8
 (1652893298.220412)  can0  012   [8]  E8 03 10 00 00 00 00 00
 (1652893298.228511)  can0  014   [5]  00 00 00 0D 27
 (1652893298.230019)  can0  1E5   [8]  1C FE 30 50 04 00 01 DA
 (1652893298.230406)  can0  012   [8]  E8 03 10 00 00 00 00 00
 (1652893298.238284)  can0  014   [5]  00 00 00 10 27
 (1652893298.240235)  can0  1E5   [8]  1C FE 32 70 05 00 01 FD
 (1652893298.240391)  can0  012   [8]  E8 03 10 00 00 00 00 00
 (1652893298.248540)  can0  014   [5]  00 00 00 10 27
 (1652893298.250017)  can0  1E5   [8]  1C FE 32 10 04 00 01 9C
 (1652893298.250356)  can0  012   [8]  E8 03 10 00 00 00 00 00
 (1652893298.258569)  can0  014   [5]  00 00 00 10 27
 (1652893298.260005)  can0  1E5   [8]  1C FE 32 30 04 00 01 BC
 (1652893298.260421)  can0  012   [8]  E8 03 10 00 00 00 00 00
 (1652893298.268585)  can0  014   [5]  00 00 00 10 27
 (1652893298.270017)  can0  1E5   [8]  1C FE 33 50 04 00 01 DD
 (1652893298.270444)  can0  012   [8]  E8 03 10 00 00 00 00 00
 (1652893298.278503)  can0  014   [5]  00 00 00 10 27
 (1652893298.280020)  can0  1E5   [8]  1C FE 33 70 04 00 01 FD
 (1652893298.280404)  can0  012   [8]  E8 03 10 00 00 00 00 00
 (1652893298.288448)  can0  014   [5]  00 00 00 10 27
 (1652893298.290026)  can0  1E5   [8]  1C FE 35 10 05 00 01 A0
 (1652893298.290411)  can0  012   [8]  E8 03 10 00 00 00 00 00
 (1652893298.298455)  can0  014   [5]  00 00 00 10 27
 (1652893298.300008)  can0  1E5   [8]  1C FE 35 30 04 00 01 BF
 (1652893298.300399)  can0  012   [8]  E8 03 10 00 00 00 00 00
 (1652893298.308462)  can0  014   [5]  00 00 00 10 27
 (1652893298.310019)  can0  1E5   [8]  1C FE 36 50 05 00 01 E1
 (1652893298.310403)  can0  012   [8]  E8 03 10 00 00 00 00 00
 (1652893298.317954)  can0  010   [4]  26 73 00 00
 (1652893298.318276)  can0  014   [5]  00 00 00 13 27
 (1652893298.320190)  can0  1E5   [8]  1C FE 36 70 05 00 02 01
 (1652893298.320414)  can0  012   [8]  E8 03 10 00 00 00 00 00
 (1652893298.328447)  can0  014   [5]  00 00 00 0D 27
 (1652893298.330026)  can0  1E5   [8]  1C FE 38 10 05 00 01 A3
 (1652893298.330400)  can0  012   [8]  E8 03 10 00 00 00 00 00
 (1652893298.338449)  can0  014   [5]  00 00 00 10 27
 (1652893298.340014)  can0  1E5   [8]  1C FE 3A 30 05 00 01 C5
 (1652893298.340400)  can0  012   [8]  E8 03 10 00 00 00 00 00
 (1652893298.348454)  can0  014   [5]  00 00 00 10 27
 (1652893298.350013)  can0  1E5   [8]  1C FE 3B 50 06 00 01 E7
 (1652893298.350402)  can0  012   [8]  E8 03 10 00 00 00 00 00
 (1652893298.358459)  can0  014   [5]  00 00 00 10 27
 (1652893298.360007)  can0  1E5   [8]  1C FE 3D 70 07 00 02 0A
 (1652893298.360407)  can0  012   [8]  E8 03 10 00 00 00 00 00
 (1652893298.368442)  can0  014   [5]  00 00 00 10 27
 (1652893298.370008)  can0  1E5   [8]  1C FE 3D 10 06 00 01 A9
 (1652893298.370408)  can0  012   [8]  E8 03 10 00 00 00 00 00
 (1652893298.378451)  can0  014   [5]  00 00 00 10 27
 (1652893298.380014)  can0  1E5   [8]  1C FE 3E 30 07 00 01 CB
 (1652893298.380401)  can0  012   [8]  E8 03 10 00 00 00 00 00
 (1652893298.388454)  can0  014   [5]  00 00 00 10 27
 (1652893298.390014)  can0  1E5   [8]  1C FE 42 50 08 00 01 F0
 (1652893298.390401)  can0  012   [8]  E8 03 10 00 00 00 00 00
 (1652893298.398450)  can0  014   [5]  00 00 00 10 27
 (1652893298.400014)  can0  1E5   [8]  1C FE 43 70 09 00 02 12
 (1652893298.400394)  can0  012   [8]  E8 03 10 00 00 00 00 00
 (1652893298.408456)  can0  014   [5]  00 00 00 10 27
 (1652893298.410007)  can0  1E5   [8]  1C FE 45 10 09 00 01 B4
 (1652893298.410411)  can0  012   [8]  E8 03 10 00 00 00 00 00
 (1652893298.417957)  can0  010   [4]  26 73 00 00
 (1652893298.418281)  can0  014   [5]  00 00 00 13 27
 (1652893298.420198)  can0  1E5   [8]  1C FE 46 30 0A 00 01 D6
 (1652893298.420424)  can0  012   [8]  E8 03 10 00 00 00 00 00
 (1652893298.428453)  can0  014   [5]  00 00 00 0D 27
 (1652893298.430019)  can0  1E5   [8]  1C FE 46 50 09 00 01 F5
 (1652893298.430402)  can0  012   [8]  E8 03 10 00 00 00 00 00
 (1652893298.438454)  can0  014   [5]  00 00 00 10 27
 (1652893298.440000)  can0  1E5   [8]  1C FE 48 70 09 00 02 17
 (1652893298.440412)  can0  012   [8]  E8 03 10 00 00 00 00 00
 (1652893298.448446)  can0  014   [5]  00 00 00 10 27
 (1652893298.450008)  can0  1E5   [8]  1C FE 4A 10 09 00 01 B9
 (1652893298.450410)  can0  012   [8]  E8 03 10 00 00 00 00 00
 (1652893298.458450)  can0  014   [5]  00 00 00 10 27
 (1652893298.460012)  can0  1E5   [8]  1C FE 4B 30 09 00 01 DA
 (1652893298.460401)  can0  012   [8]  E8 03 10 00 00 00 00 00
 (1652893298.468443)  can0  014   [5]  00 00 00 10 27
 (1652893298.470004)  can0  1E5   [8]  1C FE 4D 50 0A 00 01 FD
 (1652893298.470403)  can0  012   [8]  E8 03 10 00 00 00 00 00
 (1652893298.478453)  can0  014   [5]  00 00 00 10 27
 (1652893298.480009)  can0  1E5   [8]  1C FE 4E 70 0A 00 02 1E
 (1652893298.480410)  can0  012   [8]  E8 03 10 00 00 00 00 00
 (1652893298.488479)  can0  014   [5]  00 00 00 10 27
 (1652893298.490009)  can0  1E5   [8]  1C FE 52 10 0A 00 01 C2
 (1652893298.490411)  can0  012   [8]  E8 03 10 00 00 00 00 00
 (1652893298.498448)  can0  014   [5]  00 00 00 10 27
 (1652893298.500191)  can0  1E5   [8]  1C FE 53 30 0A 00 01 E3
 (1652893298.500384)  can0  012   [8]  E8 03 10 00 00 00 00 00
 (1652893298.508459)  can0  014   [5]  00 00 00 10 27
 (1652893298.510003)  can0  1E5   [8]  1C FE 56 50 0B 00 02 07
 (1652893298.510394)  can0  012   [8]  E8 03 10 00 00 00 00 00
 (1652893298.518068)  can0  010   [4]  26 73 00 00
 (1652893298.518277)  can0  014   [5]  00 00 00 13 27
 (1652893298.519994)  can0  1E5   [8]  1C FE 58 70 0B 00 02 29
 (1652893298.520410)  can0  012   [8]  E8 03 10 00 00 00 00 00
 (1652893298.528446)  can0  014   [5]  00 00 00 0D 27
 (1652893298.530008)  can0  1E5   [8]  1C FE 5B 10 0D 00 01 CE
 (1652893298.530385)  can0  012   [8]  E8 03 10 00 00 00 00 00
 (1652893298.538442)  can0  014   [5]  00 00 00 10 27
 (1652893298.540008)  can0  1E5   [8]  1C FE 5D 30 0D 00 01 F0
 (1652893298.540402)  can0  012   [8]  E8 03 10 00 00 00 00 00
 (1652893298.548449)  can0  014   [5]  00 00 00 10 27
 (1652893298.550015)  can0  1E5   [8]  1C FE 5D 50 0C 00 02 0F
 (1652893298.550401)  can0  012   [8]  E8 03 10 00 00 00 00 00
 (1652893298.558448)  can0  014   [5]  00 00 00 10 27
 (1652893298.560001)  can0  1E5   [8]  1C FE 5E 70 0C 00 02 30
 (1652893298.560404)  can0  012   [8]  E8 03 10 00 00 00 00 00
 (1652893298.568451)  can0  014   [5]  00 00 00 10 27
 (1652893298.570002)  can0  1E5   [8]  1C FE 5E 10 0B 00 01 CF
 (1652893298.570422)  can0  012   [8]  E8 03 10 00 00 00 00 00
 (1652893298.578445)  can0  014   [5]  00 00 00 10 27
 (1652893298.580008)  can0  1E5   [8]  1C FE 5D 30 00 00 01 E3
 (1652893298.580404)  can0  012   [8]  E8 03 10 00 00 00 00 00
 (1652893298.588482)  can0  014   [5]  00 00 00 10 27
 (1652893298.590013)  can0  1E5   [8]  1C FE 5D 50 00 00 02 03
 (1652893298.590401)  can0  012   [8]  E8 03 10 00 00 00 00 00
 (1652893298.598448)  can0  014   [5]  00 00 00 10 27
 (1652893298.600015)  can0  1E5   [8]  1C FE 5D 70 00 00 02 23
 (1652893298.600400)  can0  012   [8]  E8 03 10 00 00 00 00 00
 (1652893298.608450)  can0  014   [5]  00 00 00 10 27
 (1652893298.610003)  can0  1E5   [8]  1C FE 5B 1F FF 00 02 CF
 (1652893298.610404)  can0  012   [8]  E8 03 10 00 00 00 00 00
 (1652893298.617962)  can0  010   [4]  26 73 00 00
 (1652893298.618276)  can0  014   [5]  00 00 00 13 27
 (1652893298.620001)  can0  1E5   [8]  1C FE 5B 3F FF 00 02 EF
 (1652893298.620419)  can0  012   [8]  E8 03 10 00 00 00 00 00
 (1652893298.628432)  can0  014   [5]  00 00 00 0D 27
 (1652893298.630003)  can0  1E5   [8]  1C FE 5B 5F FF 00 03 0F
 (1652893298.630394)  can0  012   [8]  E8 03 10 00 00 00 00 00
 (1652893298.638604)  can0  014   [5]  00 00 00 10 27
 (1652893298.639988)  can0  1E5   [8]  1C FE 5B 7F FF 00 03 2F
 (1652893298.640419)  can0  012   [8]  E8 03 10 00 00 00 00 00
 (1652893298.648455)  can0  014   [5]  00 00 00 10 27
 (1652893298.650002)  can0  1E5   [8]  1C FE 5A 1F FE 00 02 CD
 (1652893298.650408)  can0  012   [8]  E8 03 10 00 00 00 00 00
 (1652893298.658455)  can0  014   [5]  00 00 00 10 27
 (1652893298.660012)  can0  1E5   [8]  1C FE 5A 3F FE 00 02 ED
 (1652893298.660448)  can0  012   [8]  E8 03 10 00 00 00 00 00
 (1652893298.668458)  can0  014   [5]  00 00 00 10 27
 (1652893298.670007)  can0  1E5   [8]  1C FE 5A 5F FE 00 03 0D
 (1652893298.670425)  can0  012   [8]  E8 03 10 00 00 00 00 00
 (1652893298.678452)  can0  014   [5]  00 00 00 10 27
 (1652893298.679984)  can0  1E5   [8]  1C FE 5A 7F FE 00 03 2D
 (1652893298.680409)  can0  012   [8]  E8 03 10 00 00 00 00 00
 (1652893298.688450)  can0  014   [5]  00 00 00 10 27
 (1652893298.690001)  can0  1E5   [8]  1C FE 5A 1F FE 00 02 CD
 (1652893298.690442)  can0  012   [8]  E8 03 10 00 00 00 00 00
 (1652893298.698455)  can0  014   [5]  00 00 00 10 27
 (1652893298.700010)  can0  1E5   [8]  1C FE 5A 3F FE 00 02 ED
 (1652893298.700409)  can0  012   [8]  E8 03 10 00 00 00 00 00
 (1652893298.708457)  can0  014   [5]  00 00 00 10 27
 (1652893298.709995)  can0  1E5   [8]  1C FE 5A 5F FF 00 03 0E
 (1652893298.710393)  can0  012   [8]  E8 03 10 00 00 00 00 00
 (1652893298.717949)  can0  010   [4]  26 73 00 00
 (1652893298.718270)  can0  014   [5]  00 00 00 13 27
 (1652893298.720233)  can0  1E5   [8]  1C FE 5A 7F FF 00 03 2E
 (1652893298.720424)  can0  012   [8]  E8 03 10 00 00 00 00 00
 (1652893298.728471)  can0  014   [5]  00 00 00 0D 27
 (1652893298.730006)  can0  1E5   [8]  1C FE 5A 1F FF 00 02 CE
 (1652893298.730682)  can0  012   [8]  E8 03 10 00 00 00 00 00
 (1652893298.738460)  can0  014   [5]  00 00 00 10 27
 (1652893298.740008)  can0  1E5   [8]  1C FE 5B 30 00 00 01 E1
 (1652893298.740363)  can0  012   [8]  E8 03 10 00 00 00 00 00
 (1652893298.748504)  can0  014   [5]  00 00 00 10 27
 (1652893298.750008)  can0  1E5   [8]  1C FE 5B 50 00 00 02 01
 (1652893298.750412)  can0  012   [8]  E8 03 10 00 00 00 00 00
 (1652893298.758534)  can0  014   [5]  00 00 00 10 27
 (1652893298.760007)  can0  1E5   [8]  1C FE 5B 70 00 00 02 21
 (1652893298.760401)  can0  012   [8]  E8 03 10 00 00 00 00 00
 (1652893298.768541)  can0  014   [5]  00 00 00 10 27
 (1652893298.769998)  can0  1E5   [8]  1C FE 5B 10 00 00 01 C1
 (1652893298.770438)  can0  012   [8]  E8 03 10 00 00 00 00 00
 (1652893298.778561)  can0  014   [5]  00 00 00 10 27
 (1652893298.780003)  can0  1E5   [8]  1C FE 5B 30 00 00 01 E1
 (1652893298.780404)  can0  012   [8]  E8 03 10 00 00 00 00 00
 (1652893298.788577)  can0  014   [5]  00 00 00 10 27
 (1652893298.790006)  can0  1E5   [8]  1C FE 5B 50 00 00 02 01
 (1652893298.790404)  can0  012   [8]  E8 03 10 00 00 00 00 00
 (1652893298.798648)  can0  014   [5]  00 00 00 10 27
 (1652893298.799977)  can0  1E5   [8]  1C FE 5D 70 01 00 02 24
 (1652893298.800635)  can0  012   [8]  E8 03 10 00 00 00 00 00
 (1652893298.808456)  can0  014   [5]  00 00 00 10 27
 (1652893298.810007)  can0  1E5   [8]  1C FE 5D 10 01 00 01 C4
 (1652893298.810393)  can0  012   [8]  E8 03 10 00 00 00 00 00
 (1652893298.817956)  can0  010   [4]  26 73 00 00
 (1652893298.818282)  can0  014   [5]  00 00 00 13 27
 (1652893298.820189)  can0  1E5   [8]  1C FE 5D 30 01 00 01 E4
 (1652893298.820422)  can0  012   [8]  E8 03 10 00 00 00 00 00
 (1652893298.828460)  can0  014   [5]  00 00 00 0D 27
 (1652893298.830000)  can0  1E5   [8]  1C FE 5D 50 01 00 02 04
 (1652893298.830620)  can0  012   [8]  E8 03 10 00 00 00 00 00
 (1652893298.838438)  can0  014   [5]  00 00 00 10 27
 (1652893298.840002)  can0  1E5   [8]  1C FE 5D 70 01 00 02 24
 (1652893298.840405)  can0  012   [8]  E8 03 10 00 00 00 00 00
 (1652893298.848470)  can0  014   [5]  00 00 00 10 27
 (1652893298.850009)  can0  1E5   [8]  1C FE 5D 10 01 00 01 C4
 (1652893298.850404)  can0  012   [8]  E8 03 10 00 00 00 00 00
 (1652893298.858247)  can0  014   [5]  00 00 00 10 27
 (1652893298.860203)  can0  1E5   [8]  1C FE 5D 30 01 00 01 E4
 (1652893298.860392)  can0  012   [8]  E8 03 10 00 00 00 00 00
 (1652893298.868457)  can0  014   [5]  00 00 00 10 27
 (1652893298.869997)  can0  1E5   [8]  1C FE 5E 50 02 00 02 06
 (1652893298.870424)  can0  012   [8]  E8 03 10 00 00 00 00 00
 (1652893298.878443)  can0  014   [5]  00 00 00 10 27
 (1652893298.880003)  can0  1E5   [8]  1C FE 5D 70 00 00 02 23
 (1652893298.880396)  can0  012   [8]  E8 03 10 00 00 00 00 00
 (1652893298.888281)  can0  014   [5]  00 00 00 10 27
 (1652893298.889997)  can0  1E5   [8]  1C FE 5E 10 00 00 01 C4
 (1652893298.890389)  can0  012   [8]  E8 03 10 00 00 00 00 00
 (1652893298.898285)  can0  014   [5]  00 00 00 10 27
 (1652893298.900002)  can0  1E5   [8]  1C FE 5E 30 00 00 01 E4
 (1652893298.900387)  can0  012   [8]  E8 03 10 00 00 00 00 00
 (1652893298.908286)  can0  014   [5]  00 00 00 10 27
 (1652893298.910015)  can0  1E5   [8]  1C FE 5E 50 00 00 02 04
 (1652893298.910387)  can0  012   [8]  E8 03 10 00 00 00 00 00
 (1652893298.917783)  can0  010   [4]  26 73 00 00
 (1652893298.918267)  can0  014   [5]  00 00 00 13 27
 (1652893298.919995)  can0  1E5   [8]  1C FE 5E 70 00 00 02 24
 (1652893298.920428)  can0  012   [8]  E8 03 10 00 00 00 00 00
 (1652893298.928292)  can0  014   [5]  00 00 00 0D 27
 (1652893298.929995)  can0  1E5   [8]  1C FE 5E 10 00 00 01 C4
 (1652893298.930410)  can0  012   [8]  E8 03 10 00 00 00 00 00
 (1652893298.938287)  can0  014   [5]  00 00 00 10 27
 (1652893298.939980)  can0  1E5   [8]  1C FE 60 30 01 00 01 E7
 (1652893298.940392)  can0  012   [8]  E8 03 10 00 00 00 00 00
 (1652893298.948277)  can0  014   [5]  FF 0F 00 10 27
 (1652893298.949981)  can0  1E5   [8]  1C FE 60 50 01 00 02 07
 (1652893298.950412)  can0  012   [8]  E8 03 10 00 00 00 00 00
 (1652893298.958276)  can0  014   [5]  00 00 00 10 27
 (1652893298.959975)  can0  1E5   [8]  1C FE 60 70 01 00 02 27
 (1652893298.960397)  can0  012   [8]  E8 03 10 00 00 00 00 00
 (1652893298.968280)  can0  014   [5]  00 00 00 10 27
 (1652893298.970021)  can0  1E5   [8]  1C FE 60 10 01 00 01 C7
 (1652893298.970416)  can0  012   [8]  E8 03 10 00 00 00 00 00
 (1652893298.978279)  can0  014   [5]  00 00 00 10 27
 (1652893298.979997)  can0  1E5   [8]  1C FE 60 30 01 00 01 E7
 (1652893298.980383)  can0  012   [8]  E8 03 10 00 00 00 00 00
 (1652893298.988277)  can0  014   [5]  00 00 00 10 27
 (1652893298.990014)  can0  1E5   [8]  1C FE 60 50 01 00 02 07
 (1652893298.990385)  can0  012   [8]  E8 03 10 00 00 00 00 00
 (1652893298.998276)  can0  014   [5]  00 00 00 10 27
 (1652893298.999983)  can0  1E5   [8]  1C FE 60 70 01 00 02 27
 (1652893299.000455)  can0  012   [8]  E8 03 10 00 00 00 00 00
 (1652893299.008277)  can0  014   [5]  00 00 00 10 27
 (1652893299.010008)  can0  1E5   [8]  1C FE 60 10 01 00 01 C7
 (1652893299.010397)  can0  012   [8]  E8 03 10 00 00 00 00 00
 (1652893299.017787)  can0  010   [4]  26 73 00 00
 (1652893299.017893)  can0  0E2   [2]  F0 00
 (1652893299.018287)  can0  014   [5]  00 00 00 16 27
 (1652893299.018418)  can0  0E4   [2]  F0 00
 (1652893299.020013)  can0  1E5   [8]  1C FE 60 30 01 00 01 E7
 (1652893299.020409)  can0  012   [8]  E8 03 10 00 00 00 00 00
 (1652893299.020499)  can0  0E3   [2]  F0 00
 (1652893299.028293)  can0  014   [5]  00 00 00 0D 27
 (1652893299.030009)  can0  1E5   [8]  1C FE 62 50 02 00 02 0A
 (1652893299.030391)  can0  012   [8]  E8 03 10 00 00 00 00 00
 (1652893299.038270)  can0  014   [5]  00 00 00 0D 27
 (1652893299.039951)  can0  1E5   [8]  1C FE 62 70 01 00 02 29
 (1652893299.040400)  can0  012   [8]  E8 03 10 00 00 00 00 00
 (1652893299.048276)  can0  014   [5]  00 00 00 10 27
 (1652893299.049984)  can0  1E5   [8]  1C FE 62 10 01 00 01 C9
 (1652893299.050385)  can0  012   [8]  E8 03 10 00 00 00 00 00
 (1652893299.058275)  can0  014   [5]  00 00 00 10 27
 (1652893299.059977)  can0  1E5   [8]  1C FE 62 30 01 00 01 E9
 (1652893299.060432)  can0  012   [8]  E8 03 10 00 00 00 00 00
 (1652893299.068278)  can0  014   [5]  00 00 00 10 27
 (1652893299.069994)  can0  1E5   [8]  1C FE 62 50 01 00 02 09
 (1652893299.070411)  can0  012   [8]  E8 03 10 00 00 00 00 00
 (1652893299.078296)  can0  014   [5]  00 00 00 10 27
 (1652893299.079991)  can0  1E5   [8]  1C FE 62 70 01 00 02 29
 (1652893299.080385)  can0  012   [8]  E8 03 10 00 00 00 00 00
 (1652893299.088278)  can0  014   [5]  00 00 00 10 27
 (1652893299.089989)  can0  1E5   [8]  1C FE 62 10 01 00 01 C9
 (1652893299.090384)  can0  012   [8]  E8 03 10 00 00 00 00 00
 (1652893299.098280)  can0  014   [5]  00 00 00 10 27
 (1652893299.099996)  can0  1E5   [8]  1C FE 62 30 01 00 01 E9
 (1652893299.100393)  can0  012   [8]  E8 03 10 00 00 00 00 00
 (1652893299.108285)  can0  014   [5]  00 F0 FF 10 27
 (1652893299.109989)  can0  1E5   [8]  1C FE 62 50 01 00 02 09
 (1652893299.110402)  can0  012   [8]  E8 03 10 00 00 00 00 00
 (1652893299.117797)  can0  010   [4]  26 73 00 00
 (1652893299.118289)  can0  014   [5]  00 00 00 13 27
 (1652893299.119998)  can0  1E5   [8]  1C FE 62 70 01 00 02 29
 (1652893299.120418)  can0  012   [8]  E8 03 10 00 00 00 00 00
 (1652893299.128284)  can0  014   [5]  00 00 00 0D 27
 (1652893299.129990)  can0  1E5   [8]  1C FE 62 10 00 00 01 C8
 (1652893299.130394)  can0  012   [8]  E8 03 10 00 00 00 00 00
 (1652893299.138288)  can0  014   [5]  00 00 00 10 27
 (1652893299.139991)  can0  1E5   [8]  1C FE 62 30 00 00 01 E8
 (1652893299.140404)  can0  012   [8]  E8 03 10 00 00 00 00 00
 (1652893299.148292)  can0  014   [5]  00 00 00 10 27
 (1652893299.149997)  can0  1E5   [8]  1C FE 62 50 00 00 02 08
 (1652893299.150404)  can0  012   [8]  E8 03 10 00 00 00 00 00
 (1652893299.158292)  can0  014   [5]  00 00 00 10 27
 (1652893299.159987)  can0  1E5   [8]  1C FE 62 70 00 00 02 28
 (1652893299.160351)  can0  012   [8]  E8 03 10 00 00 00 00 00
 (1652893299.168271)  can0  014   [5]  00 00 00 10 27
 (1652893299.169985)  can0  1E5   [8]  1C FE 62 10 00 00 01 C8
 (1652893299.170415)  can0  012   [8]  E8 03 10 00 00 00 00 00
 (1652893299.178292)  can0  014   [5]  00 00 00 10 27
 (1652893299.179971)  can0  1E5   [8]  1C FE 62 30 00 00 01 E8
 (1652893299.180403)  can0  012   [8]  E8 03 10 00 00 00 00 00
 (1652893299.188238)  can0  0F0   [1]  01
 (1652893299.188295)  can0  014   [5]  00 00 00 10 27
 (1652893299.189565)  can0  011   [2]  13 01
 (1652893299.189986)  can0  1E5   [8]  1C FE 62 50 00 00 02 08
 (1652893299.190403)  can0  012   [8]  E8 03 10 00 00 00 00 00
 (1652893299.198451)  can0  014   [5]  00 00 00 1A 27
 (1652893299.199979)  can0  1E5   [8]  1C FE 62 70 00 00 02 28
 (1652893299.200397)  can0  012   [8]  E8 03 10 00 00 00 00 00
 (1652893299.208488)  can0  014   [5]  00 00 00 06 27
 (1652893299.209990)  can0  1E5   [8]  1C FE 62 10 00 00 01 C8
 (1652893299.210370)  can0  012   [8]  E8 03 10 00 00 00 00 00
 (1652893299.217809)  can0  010   [4]  44 9F 13 00
 (1652893299.218237)  can0  014   [5]  00 00 00 13 27
 (1652893299.219955)  can0  1E5   [8]  1C FE 62 30 00 00 01 E8
 (1652893299.220384)  can0  012   [8]  E8 03 10 00 00 00 00 00
 (1652893299.228478)  can0  014   [5]  00 00 00 0D 27
 (1652893299.229980)  can0  1E5   [8]  1C FE 62 50 00 00 02 08
 (1652893299.230396)  can0  012   [8]  E8 03 10 00 00 00 00 00
 (1652893299.238267)  can0  014   [5]  00 00 00 10 27
 (1652893299.239980)  can0  1E5   [8]  1C FE 62 70 00 00 02 28
 (1652893299.240375)  can0  012   [8]  E8 03 10 00 00 00 00 00
 (1652893299.248273)  can0  014   [5]  00 00 00 10 27
 (1652893299.249989)  can0  1E5   [8]  1C FE 62 10 00 00 01 C8
 (1652893299.250373)  can0  012   [8]  E8 03 10 00 00 00 00 00
 (1652893299.258442)  can0  014   [5]  00 00 00 10 27
 (1652893299.259959)  can0  1E5   [8]  1C FE 62 30 00 00 01 E8
 (1652893299.260365)  can0  012   [8]  E8 03 10 00 00 00 00 00
 (1652893299.268308)  can0  014   [5]  00 00 00 10 27
 (1652893299.269971)  can0  1E5   [8]  1C FE 62 50 00 00 02 08
 (1652893299.270419)  can0  012   [8]  E8 03 10 00 00 00 00 00
 (1652893299.278567)  can0  014   [5]  00 00 00 10 27
 (1652893299.279951)  can0  1E5   [8]  1C FE 62 70 00 00 02 28
 (1652893299.280390)  can0  012   [8]  E8 03 10 00 00 00 00 00
 (1652893299.288246)  can0  014   [5]  00 00 00 10 27
 (1652893299.289965)  can0  1E5   [8]  1C FE 62 10 00 00 01 C8
 (1652893299.290447)  can0  012   [8]  E8 03 10 00 00 00 00 00
 (1652893299.298565)  can0  014   [5]  00 00 00 10 27
 (1652893299.299958)  can0  1E5   [8]  1C FE 62 30 00 00 01 E8
 (1652893299.300385)  can0  012   [8]  E8 03 10 00 00 00 00 00
 (1652893299.308285)  can0  014   [5]  00 00 00 10 27
 (1652893299.309947)  can0  1E5   [8]  1C FE 62 50 00 00 02 08
 (1652893299.310415)  can0  012   [8]  E8 03 10 00 00 00 00 00
 (1652893299.317768)  can0  010   [4]  44 9F 13 00
 (1652893299.318270)  can0  014   [5]  00 00 00 13 27
 (1652893299.319951)  can0  1E5   [8]  1C FE 60 70 00 00 02 26
 (1652893299.320390)  can0  012   [8]  E8 03 10 00 00 00 00 00
 (1652893299.328272)  can0  014   [5]  00 00 00 0D 27
 (1652893299.329970)  can0  1E5   [8]  1C FE 62 10 00 00 01 C8
 (1652893299.330372)  can0  012   [8]  E8 03 10 00 00 00 00 00
 (1652893299.338257)  can0  014   [5]  00 00 00 10 27
 (1652893299.339947)  can0  1E5   [8]  1C FE 62 30 00 00 01 E8
 (1652893299.340401)  can0  012   [8]  E8 03 10 00 00 00 00 00
 (1652893299.348451)  can0  014   [5]  00 00 00 10 27
 (1652893299.349950)  can0  1E5   [8]  1C FE 60 50 00 00 02 06
 (1652893299.350372)  can0  012   [8]  E8 03 10 00 00 00 00 00
 (1652893299.358432)  can0  014   [5]  00 00 00 10 27
 (1652893299.359958)  can0  1E5   [8]  1C FE 62 70 00 00 02 28
 (1652893299.360391)  can0  012   [8]  E8 03 10 00 00 00 00 00
 (1652893299.368305)  can0  014   [5]  00 00 00 10 27
 (1652893299.369966)  can0  1E5   [8]  1C FE 62 10 00 00 01 C8
 (1652893299.370379)  can0  012   [8]  E8 03 10 00 00 00 00 00
 (1652893299.378429)  can0  014   [5]  FF 0F 00 10 27
 (1652893299.379966)  can0  1E5   [8]  1C FE 60 30 00 00 01 E6
 (1652893299.380390)  can0  012   [8]  E8 03 10 00 00 00 00 00
 (1652893299.388281)  can0  014   [5]  00 00 00 10 27
 (1652893299.389962)  can0  1E5   [8]  1C FE 60 50 00 00 02 06
 (1652893299.390366)  can0  012   [8]  E8 03 10 00 00 00 00 00
 (1652893299.398445)  can0  014   [5]  00 00 00 10 27
 (1652893299.399955)  can0  1E5   [8]  1C FE 60 70 00 00 02 26
 (1652893299.400357)  can0  012   [8]  E8 03 10 00 00 00 00 00
 (1652893299.408429)  can0  014   [5]  00 00 00 10 27
 (1652893299.409966)  can0  1E5   [8]  1C FE 62 10 00 00 01 C8
 (1652893299.410384)  can0  012   [8]  E8 03 10 00 00 00 00 00
 (1652893299.417752)  can0  010   [4]  44 9F 13 00
 (1652893299.418233)  can0  014   [5]  00 00 00 13 27
 (1652893299.419960)  can0  1E5   [8]  1C FE 62 30 00 00 01 E8
 (1652893299.420408)  can0  012   [8]  E8 03 10 00 00 00 00 00
 (1652893299.428425)  can0  014   [5]  00 00 00 0D 27
 (1652893299.429946)  can0  1E5   [8]  1C FE 62 50 00 00 02 08
 (1652893299.430475)  can0  012   [8]  E8 03 10 00 00 00 00 00
 (1652893299.438274)  can0  014   [5]  00 00 00 10 27
 (1652893299.439987)  can0  1E5   [8]  1C FE 60 70 00 00 02 26
 (1652893299.440347)  can0  012   [8]  E8 03 10 00 00 00 00 00
 (1652893299.448470)  can0  014   [5]  00 00 00 10 27
 (1652893299.449972)  can0  1E5   [8]  1C FE 60 10 00 00 01 C6
 (1652893299.450344)  can0  012   [8]  E8 03 10 00 00 00 00 00
 (1652893299.458258)  can0  014   [5]  00 00 00 10 27
 (1652893299.459956)  can0  1E5   [8]  1C FE 60 30 00 00 01 E6
 (1652893299.460400)  can0  012   [8]  E8 03 10 00 00 00 00 00
 (1652893299.468275)  can0  014   [5]  00 00 00 10 27
 (1652893299.469943)  can0  1E5   [8]  1C FE 60 50 00 00 02 06
 (1652893299.470372)  can0  012   [8]  E8 03 10 00 00 00 00 00
 (1652893299.478445)  can0  014   [5]  00 00 00 10 27
 (1652893299.479959)  can0  1E5   [8]  1C FE 60 70 00 00 02 26
 (1652893299.480356)  can0  012   [8]  E8 03 10 00 00 00 00 00
 (1652893299.488270)  can0  014   [5]  00 00 00 10 27
 (1652893299.489958)  can0  1E5   [8]  1C FE 60 10 00 00 01 C6
 (1652893299.490338)  can0  012   [8]  E8 03 10 00 00 00 00 00
 (1652893299.498442)  can0  014   [5]  00 00 00 10 27
 (1652893299.499986)  can0  1E5   [8]  1C FE 60 30 00 00 01 E6
 (1652893299.500344)  can0  012   [8]  E8 03 10 00 00 00 00 00
 (1652893299.508435)  can0  014   [5]  00 00 00 10 27
 (1652893299.510278)  can0  1E5   [8]  1C FE 60 50 00 00 02 06
 (1652893299.510349)  can0  012   [8]  E8 03 10 00 00 00 00 00
 (1652893299.517779)  can0  010   [4]  44 9F 13 00
 (1652893299.518262)  can0  014   [5]  00 00 00 13 27
 (1652893299.520005)  can0  1E5   [8]  1C FE 62 70 00 00 02 28
 (1652893299.520373)  can0  012   [8]  E8 03 10 00 00 00 00 00
 (1652893299.528427)  can0  014   [5]  00 00 00 0D 27
 (1652893299.529937)  can0  1E5   [8]  1C FE 60 10 00 00 01 C6
 (1652893299.530335)  can0  012   [8]  E8 03 10 00 00 00 00 00
 (1652893299.538262)  can0  014   [5]  00 00 00 10 27
 (1652893299.539937)  can0  1E5   [8]  1C FE 60 30 00 00 01 E6
 (1652893299.540391)  can0  012   [8]  E8 03 10 00 00 00 00 00
 (1652893299.548276)  can0  014   [5]  00 00 00 10 27
 (1652893299.549966)  can0  1E5   [8]  1C FE 60 50 00 00 02 06
 (1652893299.550391)  can0  012   [8]  E8 03 10 00 00 00 00 00
 (1652893299.558288)  can0  014   [5]  00 00 00 10 27
 (1652893299.559949)  can0  1E5   [8]  1C FE 60 70 00 00 02 26
 (1652893299.560407)  can0  012   [8]  E8 03 10 00 00 00 00 00
 (1652893299.568301)  can0  014   [5]  00 00 00 10 27
 (1652893299.570006)  can0  1E5   [8]  1C FE 60 10 00 00 01 C6
 (1652893299.570424)  can0  012   [8]  E8 03 10 00 00 00 00 00
 (1652893299.578254)  can0  014   [5]  00 00 00 10 27
 (1652893299.579947)  can0  1E5   [8]  1C FE 60 30 00 00 01 E6
 (1652893299.580961)  can0  012   [8]  E8 03 10 00 00 00 00 00
 (1652893299.588315)  can0  014   [5]  00 00 00 10 27
 (1652893299.589986)  can0  1E5   [8]  1C FE 60 50 00 00 02 06
 (1652893299.590390)  can0  012   [8]  E8 03 10 00 00 00 00 00
 (1652893299.598280)  can0  014   [5]  00 00 00 10 27
 (1652893299.599944)  can0  1E5   [8]  1C FE 60 70 00 00 02 26
 (1652893299.600377)  can0  012   [8]  E8 03 10 00 00 00 00 00
 (1652893299.608438)  can0  014   [5]  00 00 00 10 27
 (1652893299.609940)  can0  1E5   [8]  1C FE 60 10 00 00 01 C6
 (1652893299.610343)  can0  012   [8]  E8 03 10 00 00 00 00 00
 (1652893299.617736)  can0  010   [4]  44 9F 13 00
 (1652893299.618271)  can0  014   [5]  00 00 00 13 27
 (1652893299.619943)  can0  1E5   [8]  1C FE 60 30 00 00 01 E6
 (1652893299.620337)  can0  012   [8]  E8 03 10 00 00 00 00 00
 (1652893299.628293)  can0  014   [5]  00 00 00 0D 27
 (1652893299.629988)  can0  1E5   [8]  1C FE 60 50 00 00 02 06
 (1652893299.630357)  can0  012   [8]  E8 03 10 00 00 00 00 00
 (1652893299.638255)  can0  014   [5]  00 00 00 10 27
 (1652893299.639954)  can0  1E5   [8]  1C FE 60 70 00 00 02 26
 (1652893299.640475)  can0  012   [8]  E8 03 10 00 00 00 00 00
 (1652893299.648240)  can0  014   [5]  00 00 00 10 27
 (1652893299.649985)  can0  1E5   [8]  1C FE 60 10 00 00 01 C6
 (1652893299.650364)  can0  012   [8]  E8 03 10 00 00 00 00 00
 (1652893299.658428)  can0  014   [5]  00 00 00 10 27
 (1652893299.659938)  can0  1E5   [8]  1C FE 60 30 00 00 01 E6
 (1652893299.660345)  can0  012   [8]  E8 03 10 00 00 00 00 00
 (1652893299.668257)  can0  014   [5]  00 00 00 10 27
 (1652893299.669967)  can0  1E5   [8]  1C FE 60 50 00 00 02 06
 (1652893299.670363)  can0  012   [8]  E8 03 10 00 00 00 00 00
 (1652893299.678426)  can0  014   [5]  00 00 00 10 27
 (1652893299.679984)  can0  1E5   [8]  1C FE 60 70 00 00 02 26
 (1652893299.680339)  can0  012   [8]  E8 03 10 00 00 00 00 00
 (1652893299.688241)  can0  014   [5]  00 00 00 10 27
 (1652893299.689932)  can0  1E5   [8]  1C FE 60 10 00 00 01 C6
 (1652893299.690391)  can0  012   [8]  E8 03 10 00 00 00 00 00
 (1652893299.698251)  can0  014   [5]  00 00 00 10 27
 (1652893299.699937)  can0  1E5   [8]  1C FE 60 30 00 00 01 E6
 (1652893299.700400)  can0  012   [8]  E8 03 10 00 00 00 00 00
 (1652893299.708255)  can0  014   [5]  00 00 00 10 27
 (1652893299.709955)  can0  1E5   [8]  1C FE 60 50 00 00 02 06
 (1652893299.710448)  can0  012   [8]  E8 03 10 00 00 00 00 00
 (1652893299.717802)  can0  010   [4]  44 9F 13 00
 (1652893299.718258)  can0  014   [5]  00 F0 FF 13 27
 (1652893299.719989)  can0  1E5   [8]  1C FE 60 70 00 00 02 26
 (1652893299.720367)  can0  012   [8]  E8 03 10 00 00 00 00 00
 (1652893299.728276)  can0  014   [5]  FF 0F 00 0D 27
 (1652893299.729982)  can0  1E5   [8]  1C FE 60 10 00 00 01 C6
 (1652893299.730380)  can0  012   [8]  E8 03 10 00 00 00 00 00
 (1652893299.738253)  can0  014   [5]  00 00 00 10 27
 (1652893299.739940)  can0  1E5   [8]  1C FE 60 30 00 00 01 E6
 (1652893299.740355)  can0  012   [8]  E8 03 10 00 00 00 00 00
 (1652893299.748452)  can0  014   [5]  00 00 00 10 27
 (1652893299.749943)  can0  1E5   [8]  1C FE 60 50 00 00 02 06
 (1652893299.750437)  can0  012   [8]  E8 03 10 00 00 00 00 00
 (1652893299.758519)  can0  014   [5]  00 00 00 10 27
 (1652893299.759970)  can0  1E5   [8]  1C FE 60 70 00 00 02 26
 (1652893299.760376)  can0  012   [8]  E8 03 10 00 00 00 00 00
 (1652893299.768272)  can0  014   [5]  00 00 00 10 27
 (1652893299.770003)  can0  1E5   [8]  1C FE 60 10 00 00 01 C6
 (1652893299.770398)  can0  012   [8]  E8 03 10 00 00 00 00 00
 (1652893299.778540)  can0  014   [5]  00 00 00 10 27
 (1652893299.779984)  can0  1E5   [8]  1C FE 60 30 00 00 01 E6
 (1652893299.780341)  can0  012   [8]  E8 03 10 00 00 00 00 00
 (1652893299.788249)  can0  014   [5]  00 00 00 10 27
 (1652893299.789963)  can0  1E5   [8]  1C FE 60 50 00 00 02 06
 (1652893299.790337)  can0  012   [8]  E8 03 10 00 00 00 00 00
 (1652893299.798506)  can0  014   [5]  00 00 00 10 27
 (1652893299.799973)  can0  1E5   [8]  1C FE 60 70 00 00 02 26
 (1652893299.800385)  can0  012   [8]  E8 03 10 00 00 00 00 00
 (1652893299.808590)  can0  014   [5]  00 00 00 10 27
 (1652893299.809983)  can0  1E5   [8]  1C FE 60 10 00 00 01 C6
 (1652893299.810395)  can0  012   [8]  E8 03 10 00 00 00 00 00
 (1652893299.817766)  can0  010   [4]  44 9F 13 00
 (1652893299.818245)  can0  014   [5]  00 00 00 13 27
 (1652893299.819946)  can0  1E5   [8]  1C FE 60 30 00 00 01 E6
 (1652893299.820373)  can0  012   [8]  E8 03 10 00 00 00 00 00
 (1652893299.828430)  can0  014   [5]  00 00 00 0D 27
 (1652893299.829934)  can0  1E5   [8]  1C FE 60 50 00 00 02 06
 (1652893299.830404)  can0  012   [8]  E8 03 10 00 00 00 00 00
 (1652893299.838506)  can0  014   [5]  00 00 00 10 27
 (1652893299.839956)  can0  1E5   [8]  1C FE 60 70 00 00 02 26
 (1652893299.840446)  can0  012   [8]  E8 03 10 00 00 00 00 00
 (1652893299.848250)  can0  014   [5]  00 00 00 10 27
 (1652893299.849971)  can0  1E5   [8]  1C FE 60 10 00 00 01 C6
 (1652893299.850350)  can0  012   [8]  E8 03 10 00 00 00 00 00
 (1652893299.858257)  can0  014   [5]  00 00 00 10 27
 (1652893299.859974)  can0  1E5   [8]  1C FE 60 30 00 00 01 E6
 (1652893299.860344)  can0  012   [8]  E8 03 10 00 00 00 00 00
 (1652893299.868294)  can0  014   [5]  00 00 00 10 27
 (1652893299.869927)  can0  1E5   [8]  1C FE 60 50 00 00 02 06
 (1652893299.870385)  can0  012   [8]  E8 03 10 00 00 00 00 00
 (1652893299.878427)  can0  014   [5]  00 00 00 10 27
 (1652893299.879943)  can0  1E5   [8]  1C FE 60 70 00 00 02 26
 (1652893299.880386)  can0  012   [8]  E8 03 10 00 00 00 00 00
 (1652893299.888288)  can0  014   [5]  00 00 00 10 27
 (1652893299.889976)  can0  1E5   [8]  1C FE 60 10 00 00 01 C6
 (1652893299.890354)  can0  012   [8]  E8 03 10 00 00 00 00 00
 (1652893299.898462)  can0  014   [5]  00 00 00 10 27
 (1652893299.899943)  can0  1E5   [8]  1C FE 60 30 00 00 01 E6
 (1652893299.900384)  can0  012   [8]  E8 03 10 00 00 00 00 00
 (1652893299.908441)  can0  014   [5]  00 00 00 10 27
 (1652893299.909949)  can0  1E5   [8]  1C FE 60 50 00 00 02 06
 (1652893299.910450)  can0  012   [8]  E8 03 10 00 00 00 00 00
 (1652893299.917794)  can0  010   [4]  44 9F 13 00
 (1652893299.918255)  can0  014   [5]  00 00 00 13 27
 (1652893299.919949)  can0  1E5   [8]  1C FE 60 70 00 00 02 26
 (1652893299.920378)  can0  012   [8]  E8 03 10 00 00 00 00 00
 (1652893299.928435)  can0  014   [5]  00 00 00 0D 27
 (1652893299.929966)  can0  1E5   [8]  1C FE 60 10 00 00 01 C6
 (1652893299.930385)  can0  012   [8]  E8 03 10 00 00 00 00 00
 (1652893299.938234)  can0  014   [5]  00 00 00 10 27
 (1652893299.940113)  can0  1E5   [8]  1C FE 60 30 00 00 01 E6
 (1652893299.940340)  can0  012   [8]  E8 03 10 00 00 00 00 00
 (1652893299.948423)  can0  014   [5]  00 00 00 10 27
 (1652893299.949938)  can0  1E5   [8]  1C FE 60 50 00 00 02 06
 (1652893299.950375)  can0  012   [8]  E8 03 10 00 00 00 00 00
 (1652893299.958271)  can0  014   [5]  00 00 00 10 27
 (1652893299.959989)  can0  1E5   [8]  1C FE 60 70 00 00 02 26
 (1652893299.960447)  can0  012   [8]  E8 03 10 00 00 00 00 00
 (1652893299.968285)  can0  014   [5]  00 00 00 10 27
 (1652893299.969951)  can0  1E5   [8]  1C FE 60 10 00 00 01 C6
 (1652893299.970386)  can0  012   [8]  E8 03 10 00 00 00 00 00
 (1652893299.978288)  can0  014   [5]  00 00 00 10 27
 (1652893299.979934)  can0  1E5   [8]  1C FE 60 30 00 00 01 E6
 (1652893299.980436)  can0  012   [8]  E8 03 10 00 00 00 00 00
 (1652893299.988234)  can0  014   [5]  00 00 00 10 27
 (1652893299.989970)  can0  1E5   [8]  1C FE 60 50 00 00 02 06
 (1652893299.990383)  can0  012   [8]  E8 03 10 00 00 00 00 00
 (1652893299.998285)  can0  014   [5]  00 00 00 10 27
 (1652893299.999959)  can0  1E5   [8]  1C FE 60 70 00 00 02 26
 (1652893300.000386)  can0  012   [8]  E8 03 10 00 00 00 00 00
 (1652893300.008440)  can0  014   [5]  00 00 00 10 27
 (1652893300.009922)  can0  1E5   [8]  1C FE 60 10 00 00 01 C6
 (1652893300.010395)  can0  012   [8]  E8 03 10 00 00 00 00 00
 (1652893300.017790)  can0  010   [4]  44 9F 13 00
 (1652893300.017847)  can0  0E2   [2]  1A 01
 (1652893300.018269)  can0  014   [5]  00 00 00 16 27
 (1652893300.018359)  can0  0E4   [2]  1A 01
 (1652893300.019922)  can0  1E5   [8]  1C FE 60 30 00 00 01 E6
 (1652893300.020400)  can0  012   [8]  E8 03 10 00 00 00 00 00
 (1652893300.020486)  can0  0E3   [2]  1A 01
 (1652893300.028431)  can0  014   [5]  00 00 00 0D 27
 (1652893300.029932)  can0  1E5   [8]  1C FE 60 50 00 00 02 06
 (1652893300.030353)  can0  012   [8]  E8 03 10 00 00 00 00 00
 (1652893300.038248)  can0  014   [5]  00 00 00 0D 27
 (1652893300.039920)  can0  1E5   [8]  1C FE 60 70 00 00 02 26
 (1652893300.040346)  can0  012   [8]  E8 03 10 00 00 00 00 00
 (1652893300.048448)  can0  014   [5]  00 00 00 10 27
 (1652893300.050111)  can0  1E5   [8]  1C FE 60 10 00 00 01 C6
 (1652893300.050351)  can0  012   [8]  E8 03 10 00 00 00 00 00
 (1652893300.058420)  can0  014   [5]  00 00 00 10 27
 (1652893300.059950)  can0  1E5   [8]  1C FE 60 30 00 00 01 E6
 (1652893300.060349)  can0  012   [8]  E8 03 10 00 00 00 00 00
 (1652893300.068294)  can0  014   [5]  00 00 00 10 27
 (1652893300.069942)  can0  1E5   [8]  1C FE 60 50 00 00 02 06
 (1652893300.070373)  can0  012   [8]  E8 03 10 00 00 00 00 00
 (1652893300.078433)  can0  014   [5]  00 00 00 10 27
 (1652893300.079968)  can0  1E5   [8]  1C FE 60 70 00 00 02 26
 (1652893300.080391)  can0  012   [8]  E8 03 10 00 00 00 00 00
 (1652893300.088253)  can0  014   [5]  00 00 00 10 27
 (1652893300.090186)  can0  1E5   [8]  1C FE 60 10 00 00 01 C6
 (1652893300.090385)  can0  012   [8]  E8 03 10 00 00 00 00 00
 (1652893300.098437)  can0  014   [5]  00 00 00 10 27
 (1652893300.099955)  can0  1E5   [8]  1C FE 60 30 00 00 01 E6
 (1652893300.100385)  can0  012   [8]  E8 03 10 00 00 00 00 00
 (1652893300.108251)  can0  014   [5]  00 00 00 10 27
 (1652893300.109959)  can0  1E5   [8]  1C FE 60 50 00 00 02 06
 (1652893300.110369)  can0  012   [8]  E8 03 10 00 00 00 00 00
 (1652893300.117760)  can0  010   [4]  44 9F 13 01
 (1652893300.118223)  can0  014   [5]  00 00 00 13 27
 (1652893300.119946)  can0  1E5   [8]  1C FE 60 70 00 00 02 26
 (1652893300.120405)  can0  012   [8]  E8 03 10 00 00 00 00 00
 (1652893300.128427)  can0  014   [5]  00 00 00 0D 27
 (1652893300.129934)  can0  1E5   [8]  1C FE 60 10 00 00 01 C6
 (1652893300.130398)  can0  012   [8]  E8 03 10 00 00 00 00 00
 (1652893300.138249)  can0  014   [5]  00 00 00 10 27
 (1652893300.139919)  can0  1E5   [8]  1C FE 60 30 00 00 01 E6
 (1652893300.140381)  can0  012   [8]  E8 03 10 00 00 00 00 00
 (1652893300.148447)  can0  014   [5]  00 00 00 10 27
 (1652893300.149920)  can0  1E5   [8]  1C FE 60 50 00 00 02 06
 (1652893300.150353)  can0  012   [8]  E8 03 10 00 00 00 00 00
 (1652893300.158278)  can0  014   [5]  00 00 00 10 27
 (1652893300.159926)  can0  1E5   [8]  1C FE 60 70 00 00 02 26
 (1652893300.160387)  can0  012   [8]  E8 03 10 00 00 00 00 00
 (1652893300.168304)  can0  014   [5]  00 00 00 10 27
 (1652893300.169928)  can0  1E5   [8]  1C FE 60 10 00 00 01 C6
 (1652893300.170372)  can0  012   [8]  E8 03 10 00 00 00 00 00
 (1652893300.178426)  can0  014   [5]  00 00 00 10 27
 (1652893300.179954)  can0  1E5   [8]  1C FE 60 30 00 00 01 E6
 (1652893300.180391)  can0  012   [8]  E8 03 10 00 00 00 00 00
 (1652893300.188271)  can0  014   [5]  00 00 00 10 27
 (1652893300.189965)  can0  1E5   [8]  1C FE 60 50 00 00 02 06
 (1652893300.190486)  can0  012   [8]  E8 03 10 00 00 00 00 00
 (1652893300.198442)  can0  014   [5]  00 00 00 10 27
 (1652893300.199917)  can0  1E5   [8]  1C FE 60 70 00 00 02 26
 (1652893300.200381)  can0  012   [8]  E8 03 10 00 00 00 00 00
 (1652893300.208631)  can0  014   [5]  00 00 00 10 27
 (1652893300.209929)  can0  1E5   [8]  1C FE 60 10 00 00 01 C6
 (1652893300.210395)  can0  012   [8]  E8 03 10 00 00 00 00 00
 (1652893300.217770)  can0  010   [4]  44 9F 13 01
 (1652893300.218248)  can0  014   [5]  00 00 00 13 27
 (1652893300.219929)  can0  1E5   [8]  1C FE 60 30 00 00 01 E6
 (1652893300.220461)  can0  012   [8]  E8 03 10 00 00 00 00 00
 (1652893300.228290)  can0  014   [5]  FF 0F 00 0D 27
 (1652893300.229966)  can0  1E5   [8]  1C FE 60 50 00 00 02 06
 (1652893300.230567)  can0  012   [8]  E8 03 10 00 00 00 00 00
 (1652893300.238264)  can0  014   [5]  01 00 00 10 27
 (1652893300.239922)  can0  1E5   [8]  1C FE 60 70 00 00 02 26
 (1652893300.240389)  can0  012   [8]  E8 03 10 00 00 00 00 00
 (1652893300.248313)  can0  014   [5]  00 10 00 10 27
 (1652893300.249961)  can0  1E5   [8]  1C FE 60 10 00 00 01 C6
 (1652893300.250377)  can0  012   [8]  E8 03 10 00 00 00 00 00
 (1652893300.258458)  can0  014   [5]  01 00 00 10 27
 (1652893300.259947)  can0  1E5   [8]  1C FE 60 30 00 00 01 E6
 (1652893300.260363)  can0  012   [8]  E8 03 10 00 00 00 00 00
 (1652893300.268265)  can0  014   [5]  01 10 00 10 27
 (1652893300.269948)  can0  1E5   [8]  1C FE 60 50 00 00 02 06
 (1652893300.270351)  can0  012   [8]  E8 03 10 00 00 00 00 00
 (1652893300.278496)  can0  014   [5]  01 10 00 10 27
 (1652893300.279918)  can0  1E5   [8]  1C FE 60 70 00 00 02 26
 (1652893300.280378)  can0  012   [8]  E8 03 10 00 00 00 00 00
 (1652893300.288260)  can0  014   [5]  02 00 00 10 27
 (1652893300.289928)  can0  1E5   [8]  1C FE 60 10 00 00 01 C6
 (1652893300.290357)  can0  012   [8]  E8 03 10 00 00 00 00 00
 (1652893300.298487)  can0  014   [5]  02 00 00 10 27
 (1652893300.299931)  can0  1E5   [8]  1C FE 60 30 00 00 01 E6
 (1652893300.300379)  can0  012   [8]  E8 03 10 00 00 00 00 00
 (1652893300.308567)  can0  014   [5]  02 F0 FF 10 27
 (1652893300.309957)  can0  1E5   [8]  1C FE 60 50 00 00 02 06
 (1652893300.310382)  can0  012   [8]  E8 03 10 00 00 00 00 00
 (1652893300.317767)  can0  010   [4]  44 9F 13 01
 (1652893300.318270)  can0  014   [5]  00 E0 FF 13 27
 (1652893300.319952)  can0  1E5   [8]  1C FE 60 70 00 00 02 26
 (1652893300.320354)  can0  012   [8]  E8 03 10 00 00 00 00 00
 (1652893300.328568)  can0  014   [5]  FE FF FF 0D 27
 (1652893300.329933)  can0  1E5   [8]  1C FE 60 10 00 00 01 C6
 (1652893300.330386)  can0  012   [8]  E8 03 10 00 00 00 00 00
 (1652893300.338278)  can0  014   [5]  00 20 00 10 27
 (1652893300.339965)  can0  1E5   [8]  1C FE 60 30 00 00 01 E6
 (1652893300.340394)  can0  012   [8]  E8 03 10 00 00 00 00 00
 (1652893300.348604)  can0  014   [5]  03 20 00 10 27
 (1652893300.349934)  can0  1E5   [8]  1C FE 60 50 00 00 02 06
 (1652893300.350389)  can0  012   [8]  E8 03 10 00 00 00 00 00
 (1652893300.358442)  can0  014   [5]  03 20 00 10 27
 (1652893300.359945)  can0  1E5   [8]  1C FE 60 70 00 00 02 26
 (1652893300.360391)  can0  012   [8]  E8 03 10 00 00 00 00 00
 (1652893300.368271)  can0  014   [5]  03 20 00 10 27
 (1652893300.369910)  can0  1E5   [8]  1C FE 60 10 00 00 01 C6
 (1652893300.370330)  can0  012   [8]  E8 03 10 00 00 00 00 00
 (1652893300.378293)  can0  014   [5]  04 20 00 10 27
 (1652893300.379947)  can0  1E5   [8]  1C FE 60 30 00 00 01 E6
 (1652893300.380402)  can0  012   [8]  E8 03 10 00 00 00 00 00
 (1652893300.388242)  can0  014   [5]  03 10 00 10 27
 (1652893300.389962)  can0  1E5   [8]  1C FE 60 50 00 00 02 06
 (1652893300.390394)  can0  012   [8]  E8 03 10 00 00 00 00 00
 (1652893300.398257)  can0  014   [5]  01 20 00 10 27
 (1652893300.399934)  can0  1E5   [8]  1C FE 60 70 00 00 02 26
 (1652893300.400383)  can0  012   [8]  E8 03 10 00 00 00 00 00
 (1652893300.408448)  can0  014   [5]  02 10 00 10 27
 (1652893300.409901)  can0  1E5   [8]  1C FE 60 10 00 00 01 C6
 (1652893300.410384)  can0  012   [8]  E8 03 10 00 00 00 00 00
 (1652893300.417773)  can0  010   [4]  44 9F 13 01
 (1652893300.418288)  can0  014   [5]  00 00 00 13 27
 (1652893300.419922)  can0  1E5   [8]  1C FE 60 30 00 00 01 E6
 (1652893300.420354)  can0  012   [8]  E8 03 10 00 00 00 00 00
 (1652893300.428438)  can0  014   [5]  00 00 00 0D 27
 (1652893300.429920)  can0  1E5   [8]  1C FE 60 50 00 00 02 06
 (1652893300.430351)  can0  012   [8]  E8 03 10 00 00 00 00 00
 (1652893300.438291)  can0  014   [5]  FF FF FF 10 27
 (1652893300.439920)  can0  1E5   [8]  1C FE 60 70 00 00 02 26
 (1652893300.440333)  can0  012   [8]  E8 03 10 00 00 00 00 00
 (1652893300.448453)  can0  014   [5]  FF FF FF 10 27
 (1652893300.449908)  can0  1E5   [8]  1C FE 60 10 00 00 01 C6
 (1652893300.450386)  can0  012   [8]  E8 03 10 00 00 00 00 00
 (1652893300.458443)  can0  014   [5]  00 00 00 10 27
 (1652893300.459952)  can0  1E5   [8]  1C FE 60 30 00 00 01 E6
 (1652893300.460345)  can0  012   [8]  E8 03 10 00 00 00 00 00
 (1652893300.468272)  can0  014   [5]  00 10 00 10 27
 (1652893300.469917)  can0  1E5   [8]  1C FE 60 50 00 00 02 06
 (1652893300.470354)  can0  012   [8]  E8 03 10 00 00 00 00 00
 (1652893300.478441)  can0  014   [5]  00 10 00 10 27
 (1652893300.479920)  can0  1E5   [8]  1C FE 60 70 00 00 02 26
 (1652893300.480350)  can0  012   [8]  E8 03 10 00 00 00 00 00
 (1652893300.488248)  can0  014   [5]  02 10 00 10 27
 (1652893300.489926)  can0  1E5   [8]  1C FE 60 10 00 00 01 C6
 (1652893300.490387)  can0  012   [8]  E8 03 10 00 00 00 00 00
 (1652893300.498286)  can0  014   [5]  02 10 00 10 27
 (1652893300.499908)  can0  1E5   [8]  1C FE 60 30 00 00 01 E6
 (1652893300.500368)  can0  012   [8]  E8 03 10 00 00 00 00 00
 (1652893300.508245)  can0  014   [5]  02 20 00 10 27
 (1652893300.509913)  can0  1E5   [8]  1C FE 60 50 00 00 02 06
 (1652893300.510376)  can0  012   [8]  E8 03 10 00 00 00 00 00
 (1652893300.517742)  can0  010   [4]  44 9F 13 01
 (1652893300.518243)  can0  014   [5]  03 30 00 13 27
 (1652893300.519938)  can0  1E5   [8]  1C FE 60 70 00 00 02 26
 (1652893300.520357)  can0  012   [8]  E8 03 10 00 00 00 00 00
 (1652893300.528238)  can0  014   [5]  02 20 00 0D 27
 (1652893300.529918)  can0  1E5   [8]  1C FE 60 10 00 00 01 C6
 (1652893300.530368)  can0  012   [8]  E8 03 10 00 00 00 00 00
 (1652893300.538256)  can0  014   [5]  03 20 00 10 27
 (1652893300.539939)  can0  1E5   [8]  1C FE 60 30 00 00 01 E6
 (1652893300.540371)  can0  012   [8]  E8 03 10 00 00 00 00 00
 (1652893300.548446)  can0  014   [5]  02 20 00 10 27
 (1652893300.549912)  can0  1E5   [8]  1C FE 60 50 00 00 02 06
 (1652893300.550382)  can0  012   [8]  E8 03 10 00 00 00 00 00
 (1652893300.558434)  can0  014   [5]  02 20 00 10 27
 (1652893300.559931)  can0  1E5   [8]  1C FE 60 70 00 00 02 26
 (1652893300.560353)  can0  012   [8]  E8 03 10 00 00 00 00 00
 (1652893300.568292)  can0  014   [5]  02 20 00 10 27
 (1652893300.569922)  can0  1E5   [8]  1C FE 60 10 00 00 01 C6
 (1652893300.570358)  can0  012   [8]  E8 03 10 00 00 00 00 00
 (1652893300.578284)  can0  014   [5]  01 10 00 10 27
 (1652893300.579935)  can0  1E5   [8]  1C FE 60 30 00 00 01 E6
 (1652893300.580369)  can0  012   [8]  E8 03 10 00 00 00 00 00
 (1652893300.588264)  can0  014   [5]  01 20 00 10 27
 (1652893300.589952)  can0  1E5   [8]  1C FE 60 50 00 00 02 06
 (1652893300.590381)  can0  012   [8]  E8 03 10 00 00 00 00 00
 (1652893300.598433)  can0  014   [5]  02 10 00 10 27
 (1652893300.599944)  can0  1E5   [8]  1C FE 60 70 00 00 02 26
 (1652893300.600388)  can0  012   [8]  E8 03 10 00 00 00 00 00
 (1652893300.608247)  can0  014   [5]  01 10 00 10 27
 (1652893300.609915)  can0  1E5   [8]  1C FE 60 10 00 00 01 C6
 (1652893300.610337)  can0  012   [8]  E8 03 10 00 00 00 00 00
 (1652893300.617780)  can0  010   [4]  44 9F 13 01
 (1652893300.618255)  can0  014   [5]  02 20 00 13 27
 (1652893300.619926)  can0  1E5   [8]  1C FE 60 30 00 00 01 E6
 (1652893300.620396)  can0  012   [8]  E8 03 10 00 00 00 00 00
 (1652893300.628269)  can0  014   [5]  01 10 00 0D 27
 (1652893300.629918)  can0  1E5   [8]  1C FE 60 50 00 00 02 06
 (1652893300.630343)  can0  012   [8]  E8 03 10 00 00 00 00 00
 (1652893300.638240)  can0  014   [5]  03 30 00 10 27
 (1652893300.639908)  can0  1E5   [8]  1C FE 60 70 00 00 02 26
 (1652893300.640335)  can0  012   [8]  E8 03 10 00 00 00 00 00
 (1652893300.648272)  can0  014   [5]  02 20 00 10 27
 (1652893300.649906)  can0  1E5   [8]  1C FE 60 10 00 00 01 C6
 (1652893300.650366)  can0  012   [8]  E8 03 10 00 00 00 00 00
 (1652893300.658247)  can0  014   [5]  03 30 00 10 27
 (1652893300.659911)  can0  1E5   [8]  1C FE 60 30 00 00 01 E6
 (1652893300.660386)  can0  012   [8]  E8 03 10 00 00 00 00 00
 (1652893300.668240)  can0  014   [5]  03 30 00 10 27
 (1652893300.669921)  can0  1E5   [8]  1C FE 62 50 00 00 02 08
 (1652893300.670375)  can0  012   [8]  E8 03 10 00 00 00 00 00
 (1652893300.678436)  can0  014   [5]  03 20 00 10 27
 (1652893300.679915)  can0  1E5   [8]  1C FE 62 70 00 00 02 28
 (1652893300.680394)  can0  012   [8]  E8 03 10 00 00 00 00 00
 (1652893300.688243)  can0  014   [5]  03 30 00 10 27
 (1652893300.689923)  can0  1E5   [8]  1C FE 62 10 00 00 01 C8
 (1652893300.690353)  can0  012   [8]  E8 03 10 00 00 00 00 00
 (1652893300.698450)  can0  014   [5]  03 30 00 10 27
 (1652893300.699950)  can0  1E5   [8]  1C FE 63 30 01 00 01 EA
 (1652893300.700377)  can0  012   [8]  E8 03 10 00 00 00 00 00
 (1652893300.708420)  can0  014   [5]  03 30 00 10 27
 (1652893300.709945)  can0  1E5   [8]  1C FE 65 50 02 00 02 0D
 (1652893300.710397)  can0  012   [8]  E8 03 10 00 00 00 00 00
 (1652893300.717768)  can0  010   [4]  44 9F 13 01
 (1652893300.718261)  can0  014   [5]  03 30 00 13 27
 (1652893300.719946)  can0  1E5   [8]  1C FE 66 70 03 00 02 2F
 (1652893300.720356)  can0  012   [8]  E8 03 10 00 00 00 00 00
 (1652893300.728427)  can0  014   [5]  02 30 00 0D 27
 (1652893300.729938)  can0  1E5   [8]  1C FE 66 10 03 00 01 CF
 (1652893300.730391)  can0  012   [8]  E8 03 10 00 00 00 00 00
 (1652893300.738242)  can0  014   [5]  02 20 00 10 27
 (1652893300.739919)  can0  1E5   [8]  1C FE 6A 30 05 00 01 F5
 (1652893300.740349)  can0  012   [8]  E8 03 10 00 00 00 00 00
 (1652893300.748270)  can0  014   [5]  03 30 00 10 27
 (1652893300.749929)  can0  1E5   [8]  1C FE 6B 50 06 00 02 17
 (1652893300.750373)  can0  012   [8]  E8 03 10 00 00 00 00 00
 (1652893300.758445)  can0  014   [5]  02 30 00 10 27
 (1652893300.759900)  can0  1E5   [8]  1C FE 6E 70 08 00 02 3C
 (1652893300.760417)  can0  012   [8]  E8 03 10 00 00 00 00 00
 (1652893300.768294)  can0  014   [5]  03 30 00 10 27
 (1652893300.769913)  can0  1E5   [8]  1C FE 70 10 09 00 01 DF
 (1652893300.770374)  can0  012   [8]  E8 03 10 00 00 00 00 00
 (1652893300.778420)  can0  014   [5]  03 30 00 10 27
 (1652893300.779908)  can0  1E5   [8]  1C FE 72 30 0A 00 02 02
 (1652893300.780387)  can0  012   [8]  E8 03 10 00 00 00 00 00
 (1652893300.788245)  can0  014   [5]  03 30 00 10 27
 (1652893300.789921)  can0  1E5   [8]  1C FE 73 50 0B 00 02 24
 (1652893300.790440)  can0  012   [8]  E8 03 10 00 00 00 00 00
 (1652893300.798264)  can0  014   [5]  03 40 00 10 27
 (1652893300.799900)  can0  1E5   [8]  1C FE 75 70 0B 00 02 46
 (1652893300.800371)  can0  012   [8]  E8 03 10 00 00 00 00 00
 (1652893300.808523)  can0  014   [5]  04 40 00 10 27
 (1652893300.809903)  can0  1E5   [8]  1C FE 78 10 0C 00 01 EA
 (1652893300.810401)  can0  012   [8]  E8 03 10 00 00 00 00 00
 (1652893300.817773)  can0  010   [4]  44 9F 13 01
 (1652893300.818223)  can0  014   [5]  04 40 00 13 27
 (1652893300.819931)  can0  1E5   [8]  1C FE 7A 30 0C 00 02 0C
 (1652893300.820349)  can0  012   [8]  E8 03 10 00 00 00 00 00
 (1652893300.828553)  can0  014   [5]  04 40 00 0D 27
 (1652893300.829913)  can0  1E5   [8]  1C FE 7B 50 0D 00 02 2E
 (1652893300.830392)  can0  012   [8]  E8 03 10 00 00 00 00 00
 (1652893300.838264)  can0  014   [5]  04 30 00 10 27
 (1652893300.839910)  can0  1E5   [8]  1C FE 7E 70 0D 00 02 51
 (1652893300.840368)  can0  012   [8]  E8 03 10 00 00 00 00 00
 (1652893300.848518)  can0  014   [5]  04 40 00 10 27
 (1652893300.849933)  can0  1E5   [8]  1C FE 80 10 0D 00 01 F3
 (1652893300.850341)  can0  012   [8]  E8 03 10 00 00 00 00 00
 (1652893300.858612)  can0  014   [5]  04 40 00 10 27
 (1652893300.859903)  can0  1E5   [8]  1C FE 82 30 0C 00 02 14
 (1652893300.860398)  can0  012   [8]  E8 03 10 00 00 00 00 00
 (1652893300.868297)  can0  014   [5]  04 40 00 10 27
 (1652893300.869905)  can0  1E5   [8]  1C FE 85 50 0D 00 02 38
 (1652893300.870400)  can0  012   [8]  E8 03 10 00 00 00 00 00
 (1652893300.878427)  can0  014   [5]  04 40 00 10 27
 (1652893300.879894)  can0  1E5   [8]  1C FE 86 70 0D 00 02 59
 (1652893300.880393)  can0  012   [8]  E8 03 10 00 00 00 00 00
 (1652893300.888240)  can0  014   [5]  05 40 00 10 27
 (1652893300.889901)  can0  1E5   [8]  1C FE 88 10 0D 00 01 FB
 (1652893300.890374)  can0  012   [8]  E8 03 10 00 00 00 00 00
 (1652893300.898250)  can0  014   [5]  04 50 00 10 27
 (1652893300.899907)  can0  1E5   [8]  1C FE 8A 30 0D 00 02 1D
 (1652893300.900340)  can0  012   [8]  E8 03 10 00 00 00 00 00
 (1652893300.908280)  can0  014   [5]  05 40 00 10 27
 (1652893300.910067)  can0  1E5   [8]  1C FE 8D 50 0D 00 02 40
 (1652893300.910364)  can0  012   [8]  E8 03 10 00 00 00 00 00
 (1652893300.917734)  can0  010   [4]  44 9F 13 01
 (1652893300.918260)  can0  014   [5]  05 50 00 13 27
 (1652893300.919969)  can0  1E5   [8]  1C FE 8E 70 0D 00 02 61
 (1652893300.920347)  can0  012   [8]  E8 03 10 00 00 00 00 00
 (1652893300.928423)  can0  014   [5]  05 50 00 0D 27
 (1652893300.929915)  can0  1E5   [8]  1C FE 92 10 0E 00 02 06
 (1652893300.930387)  can0  012   [8]  E8 03 10 00 00 00 00 00
 (1652893300.938241)  can0  014   [5]  05 50 00 10 27
 (1652893300.939897)  can0  1E5   [8]  1C FE 95 30 0E 00 02 29
 (1652893300.940377)  can0  012   [8]  E8 03 10 00 00 00 00 00
 (1652893300.948255)  can0  014   [5]  06 60 00 10 27
 (1652893300.949921)  can0  1E5   [8]  1C FE 96 50 0E 00 02 4A
 (1652893300.950416)  can0  012   [8]  E8 03 10 00 00 00 00 00
 (1652893300.958432)  can0  014   [5]  06 60 00 10 27
 (1652893300.959920)  can0  1E5   [8]  1C FE 9A 70 0F 00 02 6F
 (1652893300.960385)  can0  012   [8]  E8 03 10 00 00 00 00 00
 (1652893300.968294)  can0  014   [5]  06 60 00 10 27
 (1652893300.969909)  can0  1E5   [8]  1C FE 9B 10 0E 00 02 0F
 (1652893300.970351)  can0  012   [8]  E8 03 10 00 00 00 00 00
 (1652893300.978421)  can0  014   [5]  06 60 00 10 27
 (1652893300.979930)  can0  1E5   [8]  1C FE A0 30 10 00 02 36
 (1652893300.980337)  can0  012   [8]  E8 03 10 00 00 00 00 00
 (1652893300.988237)  can0  014   [5]  06 60 00 10 27
 (1652893300.989891)  can0  1E5   [8]  1C FE A3 50 11 00 02 5A
 (1652893300.990373)  can0  012   [8]  E8 03 10 00 00 00 00 00
 (1652893300.998275)  can0  014   [5]  06 60 00 10 27
 (1652893300.999902)  can0  1E5   [8]  1C FE A6 70 12 00 02 7E
 (1652893301.000339)  can0  012   [8]  E8 03 10 00 00 00 00 00
 (1652893301.008287)  can0  014   [5]  07 60 00 10 27
 (1652893301.009892)  can0  1E5   [8]  1C FE AA 10 12 00 02 22
 (1652893301.010346)  can0  012   [8]  E8 03 10 00 00 00 00 00
 (1652893301.017762)  can0  010   [4]  44 9F 13 01
 (1652893301.017864)  can0  0E2   [2]  42 01
 (1652893301.018290)  can0  014   [5]  06 60 00 16 27
 (1652893301.018419)  can0  0E4   [2]  42 01
 (1652893301.019904)  can0  1E5   [8]  1C FE AD 30 13 00 02 46
 (1652893301.020360)  can0  012   [8]  E8 03 10 00 00 00 00 00
 (1652893301.020498)  can0  0E3   [2]  42 01
 (1652893301.028241)  can0  014   [5]  07 70 00 0D 27
 (1652893301.030672)  can0  1E5   [8]  1C FE B0 50 13 00 02 69
 (1652893301.030680)  can0  012   [8]  E8 03 10 00 00 00 00 00
 (1652893301.038259)  can0  014   [5]  06 60 00 0D 27
 (1652893301.039922)  can0  1E5   [8]  1C FE B3 70 13 00 02 8C
 (1652893301.040386)  can0  012   [8]  E8 03 10 00 00 00 00 00
 (1652893301.048281)  can0  014   [5]  07 60 00 10 27
 (1652893301.049921)  can0  1E5   [8]  1C FE B6 10 14 00 02 30
 (1652893301.050357)  can0  012   [8]  E8 03 10 00 00 00 00 00
 (1652893301.058241)  can0  014   [5]  07 70 00 10 27
 (1652893301.059932)  can0  1E5   [8]  1C FE BB 30 15 00 02 56
 (1652893301.060367)  can0  012   [8]  E8 03 10 00 00 00 00 00
 (1652893301.068241)  can0  014   [5]  07 70 00 10 27
 (1652893301.069902)  can0  1E5   [8]  1C FE BE 50 16 00 02 7A
 (1652893301.070377)  can0  012   [8]  E8 03 10 00 00 00 00 00
 (1652893301.078278)  can0  014   [5]  07 70 00 10 27
 (1652893301.079900)  can0  1E5   [8]  1C FE C3 70 16 00 02 9F
 (1652893301.080341)  can0  012   [8]  E8 03 10 00 00 00 00 00
 (1652893301.088240)  can0  014   [5]  07 80 00 10 27
 (1652893301.089897)  can0  1E5   [8]  1C FE C6 10 16 00 02 42
 (1652893301.090346)  can0  012   [8]  E8 03 10 00 00 00 00 00
 (1652893301.098440)  can0  014   [5]  08 80 00 13 27
 (1652893301.100111)  can0  1E5   [8]  1C FE CA 30 16 00 02 66
 (1652893301.100340)  can0  012   [8]  E8 03 10 00 00 00 00 00
 (1652893301.108279)  can0  014   [5]  07 80 00 0D 27
 (1652893301.110180)  can0  1E5   [8]  1C FE CE 50 17 00 02 8B
 (1652893301.110380)  can0  012   [8]  E8 03 10 00 00 00 00 00
 (1652893301.117763)  can0  010   [4]  44 9F 13 01
 (1652893301.118256)  can0  014   [5]  09 80 00 13 27
 (1652893301.119920)  can0  1E5   [8]  1C FE D3 70 18 00 02 B1
 (1652893301.120388)  can0  012   [8]  E8 03 10 00 00 00 00 00
 (1652893301.128265)  can0  014   [5]  08 80 00 0D 27
 (1652893301.130169)  can0  1E5   [8]  1C FE D6 10 18 00 02 54
 (1652893301.130370)  can0  012   [8]  E8 03 10 00 00 00 00 00
 (1652893301.138419)  can0  014   [5]  09 80 00 10 27
 (1652893301.139906)  can0  1E5   [8]  1C FE DB 30 19 00 02 7A
 (1652893301.140338)  can0  012   [8]  E8 03 10 00 00 00 00 00
 (1652893301.148440)  can0  014   [5]  08 90 00 10 27
 (1652893301.149926)  can0  1E5   [8]  1C FE DE 50 19 00 02 9D
 (1652893301.150372)  can0  012   [8]  E8 03 10 00 00 00 00 00
 (1652893301.158444)  can0  014   [5]  09 80 00 10 27
 (1652893301.159927)  can0  1E5   [8]  1C FE E3 70 19 00 02 C2
 (1652893301.160403)  can0  012   [8]  E8 03 10 00 00 00 00 00
 (1652893301.168294)  can0  014   [5]  09 90 00 10 27
 (1652893301.169895)  can0  1E5   [8]  1C FE E8 10 1A 00 02 68
 (1652893301.170350)  can0  012   [8]  E8 03 10 00 00 00 00 00
 (1652893301.178275)  can0  014   [5]  08 90 00 10 27
 (1652893301.179935)  can0  1E5   [8]  1C FE ED 30 1A 00 02 8D
 (1652893301.180568)  can0  012   [8]  E8 03 10 00 00 00 00 00
 (1652893301.188242)  can0  014   [5]  0A 90 00 10 27
 (1652893301.189895)  can0  1E5   [8]  1C FE F0 50 1A 00 02 B0
 (1652893301.190395)  can0  012   [8]  E8 03 10 00 00 00 00 00
 (1652893301.198243)  can0  014   [5]  09 80 00 10 27
 (1652893301.199893)  can0  1E5   [8]  1C FE F5 70 1B 00 02 D6
 (1652893301.200351)  can0  012   [8]  E8 03 10 00 00 00 00 00
 (1652893301.208415)  can0  014   [5]  09 90 00 10 27
 (1652893301.209904)  can0  1E5   [8]  1C FE FA 10 1B 00 02 7B
 (1652893301.210383)  can0  012   [8]  E8 03 10 00 00 00 00 00
 (1652893301.217769)  can0  010   [4]  44 9F 13 01
 (1652893301.218248)  can0  014   [5]  0A 90 00 13 27
 (1652893301.219893)  can0  1E5   [8]  1C FE FE 30 1B 00 02 9F
 (1652893301.220355)  can0  012   [8]  E8 03 10 00 00 00 00 00
 (1652893301.228423)  can0  014   [5]  09 A0 00 0D 27
 (1652893301.229901)  can0  1E5   [8]  1C FF 02 50 1B 00 01 C4
 (1652893301.230373)  can0  012   [8]  E8 03 10 00 00 00 00 00
 (1652893301.238234)  can0  014   [5]  0B A0 00 10 27
 (1652893301.239890)  can0  1E5   [8]  1C FF 08 70 1C 00 01 EB
 (1652893301.240373)  can0  012   [8]  E8 03 10 00 00 00 00 00
 (1652893301.248274)  can0  014   [5]  0A A0 00 10 27
 (1652893301.249903)  can0  1E5   [8]  1C FF 0D 10 1D 00 01 91
 (1652893301.250348)  can0  012   [8]  E8 03 10 00 00 00 00 00
 (1652893301.258420)  can0  014   [5]  0B B0 00 10 27
 (1652893301.259926)  can0  1E5   [8]  1C FF 12 30 1D 00 01 B6
 (1652893301.260380)  can0  012   [8]  E8 03 10 00 00 00 00 00
 (1652893301.268286)  can0  014   [5]  0C A0 00 10 27
 (1652893301.269880)  can0  1E5   [8]  1C FF 16 50 1D 00 01 DA
 (1652893301.270383)  can0  012   [8]  E8 03 10 00 00 00 00 00
 (1652893301.278248)  can0  014   [5]  0B C0 00 10 27
 (1652893301.279895)  can0  1E5   [8]  1C FF 1B 70 1D 00 01 FF
 (1652893301.280389)  can0  012   [8]  E8 03 10 00 00 00 00 00
 (1652893301.288240)  can0  014   [5]  0B B0 00 10 27
 (1652893301.289906)  can0  1E5   [8]  1C FF 20 10 1E 00 01 A5
 (1652893301.290388)  can0  012   [8]  E8 03 10 00 00 00 00 00
 (1652893301.298276)  can0  014   [5]  0B B0 00 10 27
 (1652893301.299918)  can0  1E5   [8]  1C FF 25 30 1E 00 01 CA
 (1652893301.300336)  can0  012   [8]  E8 03 10 00 00 00 00 00
 (1652893301.308246)  can0  014   [5]  0C B0 00 10 27
 (1652893301.309928)  can0  1E5   [8]  1C FF 2A 50 1E 00 01 EF
 (1652893301.310372)  can0  012   [8]  E8 03 10 00 00 00 00 00
 (1652893301.317754)  can0  010   [4]  44 9F 13 01
 (1652893301.318235)  can0  014   [5]  0C C0 00 17 27
 (1652893301.319898)  can0  1E5   [8]  1C FF 30 70 1F 00 02 16
 (1652893301.320369)  can0  012   [8]  E8 03 10 00 00 00 00 00
 (1652893301.328503)  can0  014   [5]  0C B0 00 09 27
 (1652893301.329890)  can0  1E5   [8]  1C FF 35 10 20 00 01 BC
 (1652893301.330389)  can0  012   [8]  E8 03 10 00 00 00 00 00
 (1652893301.338249)  can0  014   [5]  0C C0 00 10 27
 (1652893301.339923)  can0  1E5   [8]  1C FF 3A 30 1F 00 01 E0
 (1652893301.340363)  can0  012   [8]  E8 03 10 00 00 00 00 00
 (1652893301.348494)  can0  014   [5]  0C B0 00 10 27
 (1652893301.349900)  can0  1E5   [8]  1C FF 3E 50 1F 00 02 04
 (1652893301.350333)  can0  012   [8]  E8 03 10 00 00 00 00 00
 (1652893301.358556)  can0  014   [5]  0C D0 00 10 27
 (1652893301.359885)  can0  1E5   [8]  1C FF 43 70 1F 00 02 29
 (1652893301.360385)  can0  012   [8]  E8 03 10 00 00 00 00 00
 (1652893301.368299)  can0  014   [5]  0D C0 00 10 27
 (1652893301.369895)  can0  1E5   [8]  1C FF 48 10 1F 00 01 CE
 (1652893301.370346)  can0  012   [8]  E8 03 10 00 00 00 00 00
 (1652893301.378591)  can0  014   [5]  0D D0 00 10 27
 (1652893301.379879)  can0  1E5   [8]  1C FF 4B 30 1E 00 01 F0
 (1652893301.380333)  can0  012   [8]  E8 03 10 00 00 00 00 00
 (1652893301.388291)  can0  014   [5]  0D D0 00 10 27
 (1652893301.389932)  can0  1E5   [8]  1C FF 50 50 1E 00 02 15
 (1652893301.390385)  can0  012   [8]  E8 03 10 00 00 00 00 00
 (1652893301.398444)  can0  014   [5]  0C D0 00 10 27
 (1652893301.399892)  can0  1E5   [8]  1C FF 53 70 1D 00 02 37
 (1652893301.400404)  can0  012   [8]  E8 03 10 00 00 00 00 00
 (1652893301.408422)  can0  014   [5]  0F E0 00 14 27
 (1652893301.409926)  can0  1E5   [8]  1C FF 56 10 1C 00 01 D9
 (1652893301.410390)  can0  012   [8]  E8 03 10 00 00 00 00 00
 (1652893301.417785)  can0  010   [4]  44 9F 13 01
 (1652893301.418286)  can0  014   [5]  0E E0 00 0F 27
 (1652893301.419889)  can0  1E5   [8]  1C FF 5A 30 1A 00 01 FB
 (1652893301.420344)  can0  012   [8]  E8 03 10 00 00 00 00 00
 (1652893301.428428)  can0  014   [5]  0E D0 00 0D 27
 (1652893301.429879)  can0  1E5   [8]  1C FF 5D 50 19 00 02 1D
 (1652893301.430378)  can0  012   [8]  E8 03 10 00 00 00 00 00
 (1652893301.438244)  can0  014   [5]  0E E0 00 10 27
 (1652893301.439892)  can0  1E5   [8]  1C FF 5E 70 17 00 02 3C
 (1652893301.440421)  can0  012   [8]  E8 03 10 00 00 00 00 00
 (1652893301.448275)  can0  014   [5]  0F E0 00 10 27
 (1652893301.449898)  can0  1E5   [8]  1C FF 62 10 16 00 01 DF
 (1652893301.450380)  can0  012   [8]  E8 03 10 00 00 00 00 00
 (1652893301.458261)  can0  014   [5]  0E F0 00 10 27
 (1652893301.459891)  can0  1E5   [8]  1C FF 63 30 14 00 01 FE
 (1652893301.460409)  can0  012   [8]  E8 03 10 00 00 00 00 00
 (1652893301.468236)  can0  014   [5]  0F F0 00 10 27
 (1652893301.469874)  can0  1E5   [8]  1C FF 65 50 12 00 02 1E
 (1652893301.470376)  can0  012   [8]  E8 03 10 00 00 00 00 00
 (1652893301.478430)  can0  014   [5]  0F F0 00 10 27
 (1652893301.479883)  can0  1E5   [8]  1C FF 66 70 11 00 02 3E
 (1652893301.480337)  can0  012   [8]  E8 03 10 00 00 00 00 00
 (1652893301.488243)  can0  014   [5]  0F F0 00 10 27
 (1652893301.489886)  can0  1E5   [8]  1C FF 66 10 0E 00 01 DB
 (1652893301.490332)  can0  012   [8]  E8 03 10 00 00 00 00 00
 (1652893301.498242)  can0  014   [5]  0F 00 01 10 27
 (1652893301.499894)  can0  1E5   [8]  1C FF 68 30 0D 00 01 FC
 (1652893301.500357)  can0  012   [8]  E8 03 10 00 00 00 00 00
 (1652893301.508411)  can0  014   [5]  10 00 01 10 27
 (1652893301.509918)  can0  1E5   [8]  1C FF 6A 50 0C 00 02 1D
 (1652893301.510383)  can0  012   [8]  E8 03 10 00 00 00 00 00
 (1652893301.517769)  can0  010   [4]  44 9F 13 01
 (1652893301.518278)  can0  014   [5]  10 00 01 13 27
 (1652893301.519919)  can0  1E5   [8]  1C FF 6B 70 0B 00 02 3D
 (1652893301.520342)  can0  012   [8]  E8 03 10 00 00 00 00 00
 (1652893301.528263)  can0  014   [5]  11 00 01 0F 27
 (1652893301.529894)  can0  1E5   [8]  1C FF 6B 10 09 00 01 DB
 (1652893301.530332)  can0  012   [8]  E8 03 10 00 00 00 00 00
 (1652893301.538253)  can0  014   [5]  10 00 01 0E 27
 (1652893301.539879)  can0  1E5   [8]  1C FF 6D 30 09 00 01 FD
 (1652893301.540395)  can0  012   [8]  E8 03 10 00 00 00 00 00
 (1652893301.548260)  can0  014   [5]  10 10 01 10 27
 (1652893301.549877)  can0  1E5   [8]  1C FF 6D 50 07 00 02 1B
 (1652893301.550346)  can0  012   [8]  E8 03 10 00 00 00 00 00
 (1652893301.558270)  can0  014   [5]  11 10 01 10 27
 (1652893301.559878)  can0  1E5   [8]  1C FF 6E 70 07 00 02 3C
 (1652893301.560334)  can0  012   [8]  E8 03 10 00 00 00 00 00
 (1652893301.568252)  can0  014   [5]  11 10 01 10 27
 (1652893301.569885)  can0  1E5   [8]  1C FF 6E 10 06 00 01 DB
 (1652893301.570349)  can0  012   [8]  E8 03 10 00 00 00 00 00
 (1652893301.578260)  can0  014   [5]  12 20 01 10 27
 (1652893301.579913)  can0  1E5   [8]  1C FF 70 30 06 00 01 FD
 (1652893301.580324)  can0  012   [8]  E8 03 10 00 00 00 00 00
 (1652893301.588242)  can0  014   [5]  12 20 01 10 27
 (1652893301.589899)  can0  1E5   [8]  1C FF 70 50 06 00 02 1D
 (1652893301.590623)  can0  012   [8]  E8 03 10 00 00 00 00 00
 (1652893301.598267)  can0  014   [5]  12 10 01 10 27
 (1652893301.599894)  can0  1E5   [8]  1C FF 72 70 06 00 02 3F
 (1652893301.600348)  can0  012   [8]  E8 03 10 00 00 00 00 00
 (1652893301.608414)  can0  014   [5]  12 20 01 10 27
 (1652893301.609902)  can0  1E5   [8]  1C FF 73 10 06 00 01 E0
 (1652893301.610386)  can0  012   [8]  E8 03 10 00 00 00 00 00
 (1652893301.617739)  can0  010   [4]  44 9F 13 01
 (1652893301.618259)  can0  014   [5]  12 20 01 13 27
 (1652893301.619900)  can0  1E5   [8]  1C FF 73 30 05 00 01 FF
 (1652893301.620345)  can0  012   [8]  E8 03 10 00 00 00 00 00
 (1652893301.628270)  can0  014   [5]  12 30 01 0D 27
 (1652893301.629908)  can0  1E5   [8]  1C FF 75 50 06 00 02 22
 (1652893301.630352)  can0  012   [8]  E8 03 10 00 00 00 00 00
 (1652893301.638324)  can0  014   [5]  13 30 01 10 27
 (1652893301.639880)  can0  1E5   [8]  1C FF 75 70 05 00 02 41
 (1652893301.640340)  can0  012   [8]  E8 03 10 00 00 00 00 00
 (1652893301.648275)  can0  014   [5]  13 30 01 10 27
 (1652893301.649892)  can0  1E5   [8]  1C FF 76 10 06 00 01 E3
 (1652893301.650371)  can0  012   [8]  E8 03 10 00 00 00 00 00
 (1652893301.658407)  can0  014   [5]  13 30 01 10 27
 (1652893301.659914)  can0  1E5   [8]  1C FF 78 30 06 00 02 05
 (1652893301.660380)  can0  012   [8]  E8 03 10 00 00 00 00 00
 (1652893301.668256)  can0  014   [5]  14 30 01 10 27
 (1652893301.669875)  can0  1E5   [8]  1C FF 7A 50 07 00 02 28
 (1652893301.670447)  can0  012   [8]  E8 03 10 00 00 00 00 00
 (1652893301.678417)  can0  014   [5]  13 30 01 10 27
 (1652893301.679871)  can0  1E5   [8]  1C FF 7B 70 07 00 02 49
 (1652893301.680345)  can0  012   [8]  E8 03 10 00 00 00 00 00
 (1652893301.688241)  can0  014   [5]  14 40 01 10 27
 (1652893301.689889)  can0  1E5   [8]  1C FF 7D 10 08 00 01 EC
 (1652893301.690363)  can0  012   [8]  E8 03 10 00 00 00 00 00
 (1652893301.698240)  can0  014   [5]  13 40 01 10 27
 (1652893301.699885)  can0  1E5   [8]  1C FF 7E 30 08 00 02 0D
 (1652893301.700350)  can0  012   [8]  E8 03 10 00 00 00 00 00
 (1652893301.708236)  can0  014   [5]  16 50 01 10 27
 (1652893301.709890)  can0  1E5   [8]  1C FF 80 50 08 00 02 2F
 (1652893301.710379)  can0  012   [8]  E8 03 10 00 00 00 00 00
 (1652893301.717768)  can0  010   [4]  44 9F 13 01
 (1652893301.718247)  can0  014   [5]  15 50 01 13 27
 (1652893301.719882)  can0  1E5   [8]  1C FF 83 70 0A 00 02 54
 (1652893301.720345)  can0  012   [8]  E8 03 10 00 00 00 00 00
 (1652893301.728427)  can0  014   [5]  16 50 01 10 27
 (1652893301.729882)  can0  1E5   [8]  1C FF 85 10 0A 00 01 F6
 (1652893301.730372)  can0  012   [8]  E8 03 10 00 00 00 00 00
 (1652893301.738241)  can0  014   [5]  15 40 01 0D 27
 (1652893301.739882)  can0  1E5   [8]  1C FF 88 30 0C 00 02 1B
 (1652893301.740336)  can0  012   [8]  E8 03 10 00 00 00 00 00
 (1652893301.748436)  can0  014   [5]  15 60 01 10 27
 (1652893301.749886)  can0  1E5   [8]  1C FF 8B 50 0D 00 02 3F
 (1652893301.750388)  can0  012   [8]  E8 03 10 00 00 00 00 00
 (1652893301.758408)  can0  014   [5]  15 50 01 10 27
 (1652893301.759880)  can0  1E5   [8]  1C FF 8D 70 0D 00 02 61
 (1652893301.760335)  can0  012   [8]  E8 03 10 00 00 00 00 00
 (1652893301.768259)  can0  014   [5]  15 70 01 14 27
 (1652893301.769874)  can0  1E5   [8]  1C FF 90 10 0E 00 02 05
 (1652893301.770335)  can0  012   [8]  E8 03 10 00 00 00 00 00
 (1652893301.778410)  can0  014   [5]  17 60 01 0C 27
 (1652893301.779911)  can0  1E5   [8]  1C FF 95 30 10 00 02 2C
 (1652893301.780340)  can0  012   [8]  E8 03 10 00 00 00 00 00
 (1652893301.788233)  can0  014   [5]  18 60 01 10 27
 (1652893301.790078)  can0  1E5   [8]  1C FF 98 50 11 00 02 50
 (1652893301.790346)  can0  012   [8]  E8 03 10 00 00 00 00 00
 (1652893301.798281)  can0  014   [5]  17 60 01 10 27
 (1652893301.799901)  can0  1E5   [8]  1C FF 9D 70 13 00 02 77
 (1652893301.800411)  can0  012   [8]  E8 03 10 00 00 00 00 00
 (1652893301.808432)  can0  014   [5]  16 70 01 10 27
 (1652893301.809876)  can0  1E5   [8]  1C FF A0 10 14 00 02 1B
 (1652893301.810375)  can0  012   [8]  E8 03 10 00 00 00 00 00
 (1652893301.817775)  can0  010   [4]  44 9F 13 01
 (1652893301.818313)  can0  014   [5]  17 70 01 16 27
 (1652893301.819880)  can0  1E5   [8]  1C FF A5 30 15 00 02 41
 (1652893301.820360)  can0  012   [8]  E8 03 10 00 00 00 00 00
 (1652893301.828461)  can0  014   [5]  18 80 01 0D 27
 (1652893301.829858)  can0  1E5   [8]  1C FF AA 50 17 00 02 68
 (1652893301.830381)  can0  012   [8]  E8 03 10 00 00 00 00 00
 (1652893301.838244)  can0  014   [5]  18 70 01 0D 27
 (1652893301.839869)  can0  1E5   [8]  1C FF AE 70 18 00 02 8D
 (1652893301.840375)  can0  012   [8]  E8 03 10 00 00 00 00 00
 (1652893301.848254)  can0  014   [5]  18 80 01 10 27
 (1652893301.849885)  can0  1E5   [8]  1C FF B3 10 19 00 02 33
 (1652893301.850341)  can0  012   [8]  E8 03 10 00 00 00 00 00
 (1652893301.858242)  can0  014   [5]  18 80 01 10 27
 (1652893301.859877)  can0  1E5   [8]  1C FF B8 30 1B 00 02 5A
 (1652893301.860396)  can0  012   [8]  E8 03 10 00 00 00 00 00
 (1652893301.868224)  can0  014   [5]  18 80 01 10 27
 (1652893301.869877)  can0  1E5   [8]  1C FF BD 50 1C 00 02 80
 (1652893301.870475)  can0  012   [8]  E8 03 10 00 00 00 00 00
 (1652893301.878557)  can0  014   [5]  18 90 01 10 27
 (1652893301.879904)  can0  1E5   [8]  1C FF C2 70 1C 00 02 A5
 (1652893301.880335)  can0  012   [8]  E8 03 10 00 00 00 00 00
 (1652893301.888254)  can0  014   [5]  1A 90 01 10 27
 (1652893301.889908)  can0  1E5   [8]  1C FF C6 10 1D 00 02 4A
 (1652893301.890327)  can0  012   [8]  E8 03 10 00 00 00 00 00
 (1652893301.898280)  can0  014   [5]  19 A0 01 10 27
 (1652893301.899886)  can0  1E5   [8]  1C FF CD 30 1E 00 02 72
 (1652893301.900344)  can0  012   [8]  E8 03 10 00 00 00 00 00
 (1652893301.908419)  can0  014   [5]  1A 90 01 10 27
 (1652893301.909898)  can0  1E5   [8]  1C FF D0 50 1E 00 02 95
 (1652893301.910349)  can0  012   [8]  E8 03 10 00 00 00 00 00
 (1652893301.917777)  can0  010   [4]  44 9F 13 01
 (1652893301.918215)  can0  014   [5]  1A A0 01 13 27
 (1652893301.919876)  can0  1E5   [8]  1C FF D5 70 1E 00 02 BA
 (1652893301.920394)  can0  012   [8]  E8 03 10 00 00 00 00 00
 (1652893301.928424)  can0  014   [5]  19 A0 01 0D 27
 (1652893301.929891)  can0  1E5   [8]  1C FF DA 10 1E 00 02 5F
 (1652893301.930388)  can0  012   [8]  E8 03 10 00 00 00 00 00
 (1652893301.938254)  can0  014   [5]  1B B0 01 10 27
 (1652893301.939911)  can0  1E5   [8]  1C FF DE 30 1E 00 02 83
 (1652893301.940333)  can0  012   [8]  E8 03 10 00 00 00 00 00
 (1652893301.948280)  can0  014   [5]  1B A0 01 10 27
 (1652893301.949882)  can0  1E5   [8]  1C FF E3 50 1E 00 02 A8
 (1652893301.950373)  can0  012   [8]  E8 03 10 00 00 00 00 00
 (1652893301.958425)  can0  014   [5]  1B A0 01 10 27
 (1652893301.959882)  can0  1E5   [8]  1C FF E8 70 1E 00 02 CD
 (1652893301.960363)  can0  012   [8]  E8 03 10 00 00 00 00 00
 (1652893301.968259)  can0  014   [5]  1B B0 01 10 27
 (1652893301.969897)  can0  1E5   [8]  1C FF ED 10 1E 00 02 72
 (1652893301.970454)  can0  012   [8]  E8 03 10 00 00 00 00 00
 (1652893301.978260)  can0  014   [5]  1B B0 01 10 27
 (1652893301.979870)  can0  1E5   [8]  1C FF F2 30 1E 00 02 97
 (1652893301.980379)  can0  012   [8]  E8 03 10 00 00 00 00 00
 (1652893301.988235)  can0  014   [5]  1C C0 01 10 27
 (1652893301.989866)  can0  1E5   [8]  1C FF F5 50 1D 00 02 B9
 (1652893301.990348)  can0  012   [8]  E8 03 10 00 00 00 00 00
 (1652893301.998247)  can0  014   [5]  1B B0 01 10 27
 (1652893301.999876)  can0  1E5   [8]  1C FF FA 70 1C 00 02 DD
 (1652893302.000384)  can0  012   [8]  E8 03 10 00 00 00 00 00
 (1652893302.008312)  can0  014   [5]  1D C0 01 10 27
 (1652893302.009870)  can0  1E5   [8]  1C FF FD 10 1C 00 02 80
 (1652893302.010370)  can0  012   [8]  E8 03 10 00 00 00 00 00
 (1652893302.017772)  can0  010   [4]  44 9F 13 01
 (1652893302.017883)  can0  0E2   [2]  6A 01
 (1652893302.018232)  can0  014   [5]  1C C0 01 16 27
 (1652893302.018350)  can0  0E4   [2]  6A 01
 (1652893302.019864)  can0  1E5   [8]  1C 00 00 30 1B 00 00 A3
 (1652893302.020396)  can0  012   [8]  E8 03 10 00 00 00 00 00
 (1652893302.020455)  can0  0E3   [2]  6A 01
 (1652893302.028263)  can0  014   [5]  1C C0 01 0E 27
 (1652893302.029919)  can0  1E5   [8]  1C 00 02 50 1A 00 00 C4
 (1652893302.030367)  can0  012   [8]  E8 03 10 00 00 00 00 00
 (1652893302.038408)  can0  014   [5]  1E D0 01 0D 27
 (1652893302.039900)  can0  1E5   [8]  1C 00 05 70 19 00 00 E6
 (1652893302.040333)  can0  012   [8]  E8 03 10 00 00 00 00 00
 (1652893302.048446)  can0  014   [5]  1E E0 01 0F 27
 (1652893302.049913)  can0  1E5   [8]  1C 00 09 10 18 00 00 89
 (1652893302.050328)  can0  012   [8]  E8 03 10 00 00 00 00 00
 (1652893302.058278)  can0  014   [5]  1D C0 01 10 27
 (1652893302.059881)  can0  1E5   [8]  1C 00 0A 30 16 00 00 A8
 (1652893302.060356)  can0  012   [8]  E8 03 10 00 00 00 00 00
 (1652893302.068297)  can0  014   [5]  1E E0 01 10 27
 (1652893302.069886)  can0  1E5   [8]  1C 00 0D 50 15 00 00 CA
 (1652893302.070346)  can0  012   [8]  E8 03 10 00 00 00 00 00
 (1652893302.078409)  can0  014   [5]  1E E0 01 10 27
 (1652893302.079868)  can0  1E5   [8]  1C 00 0F 70 13 00 00 EA
 (1652893302.080336)  can0  012   [8]  E8 03 10 00 00 00 00 00
 (1652893302.088252)  can0  014   [5]  1E F0 01 10 27
 (1652893302.090084)  can0  1E5   [8]  1C 00 11 10 12 00 00 8B
 (1652893302.090349)  can0  012   [8]  E8 03 10 00 00 00 00 00
 (1652893302.098425)  can0  014   [5]  1F E0 01 17 27
 (1652893302.099914)  can0  1E5   [8]  1C 00 12 30 10 00 00 AA
 (1652893302.100384)  can0  012   [8]  E8 03 10 00 00 00 00 00
 (1652893302.108257)  can0  014   [5]  1D D0 01 09 27
 (1652893302.110074)  can0  1E5   [8]  1C 00 14 50 0F 00 00 CB
 (1652893302.110380)  can0  012   [8]  E8 03 10 00 00 00 00 00
 (1652893302.117777)  can0  010   [4]  44 9F 13 01
 (1652893302.118255)  can0  014   [5]  1E F0 01 13 27
 (1652893302.119932)  can0  1E5   [8]  1C 00 14 70 0D 00 00 E9
 (1652893302.120348)  can0  012   [8]  E8 03 10 00 00 00 00 00
 (1652893302.128235)  can0  014   [5]  1F 00 02 0D 27
 (1652893302.129867)  can0  1E5   [8]  1C 00 15 10 0C 00 00 89
 (1652893302.130338)  can0  012   [8]  E8 03 10 00 00 00 00 00
 (1652893302.138233)  can0  014   [5]  20 F0 01 0F 27
 (1652893302.139873)  can0  1E5   [8]  1C 00 17 30 0B 00 00 AA
 (1652893302.140364)  can0  012   [8]  E8 03 10 00 00 00 00 00
 (1652893302.148446)  can0  014   [5]  1F F0 01 14 27
 (1652893302.149870)  can0  1E5   [8]  1C 00 17 50 09 00 00 C8
 (1652893302.150366)  can0  012   [8]  E8 03 10 00 00 00 00 00
 (1652893302.158276)  can0  014   [5]  1F 00 02 0D 27
 (1652893302.159860)  can0  1E5   [8]  1C 00 17 70 08 00 00 E7
 (1652893302.160382)  can0  012   [8]  E8 03 10 00 00 00 00 00
 (1652893302.168262)  can0  014   [5]  20 10 02 14 27
 (1652893302.169881)  can0  1E5   [8]  1C 00 17 10 06 00 00 85
 (1652893302.170357)  can0  012   [8]  E8 03 10 00 00 00 00 00
 (1652893302.178416)  can0  014   [5]  20 00 02 0C 27
 (1652893302.179882)  can0  1E5   [8]  1C 00 17 30 05 00 00 A4
 (1652893302.180360)  can0  012   [8]  E8 03 10 00 00 00 00 00
 (1652893302.188249)  can0  014   [5]  20 00 02 10 27
 (1652893302.189886)  can0  1E5   [8]  1C 00 17 50 04 00 00 C3
 (1652893302.190338)  can0  012   [8]  E8 03 10 00 00 00 00 00
 (1652893302.198437)  can0  014   [5]  1F 10 02 10 27
 (1652893302.199888)  can0  1E5   [8]  1C 00 17 70 03 00 00 E2
 (1652893302.200347)  can0  012   [8]  E8 03 10 00 00 00 00 00
 (1652893302.208421)  can0  014   [5]  22 20 02 11 27
 (1652893302.209881)  can0  1E5   [8]  1C 00 17 10 02 00 00 81
 (1652893302.210363)  can0  012   [8]  E8 03 10 00 00 00 00 00
 (1652893302.217783)  can0  010   [4]  44 9F 13 01
 (1652893302.218241)  can0  014   [5]  22 10 02 12 27
 (1652893302.219870)  can0  1E5   [8]  1C 00 17 30 02 00 00 A1
 (1652893302.220346)  can0  012   [8]  E8 03 10 00 00 00 00 00
 (1652893302.228409)  can0  014   [5]  20 10 02 0D 27
 (1652893302.229910)  can0  1E5   [8]  1C 00 17 50 01 00 00 C0
 (1652893302.230372)  can0  012   [8]  E8 03 10 00 00 00 00 00
