 (1652893324.705838)  can0  014   [5]  00 00 00 10 27
 (1652893324.707644)  can0  1E5   [8]  1C FF 72 10 00 00 01 D9
 (1652893324.707969)  can0  012   [8]  E8 03 10 00 00 00 00 00
 (1652893324.715877)  can0  014   [5]  00 00 00 10 27
 (1652893324.717627)  can0  1E5   [8]  1C FF 72 30 00 00 01 F9
 (1652893324.718018)  can0  012   [8]  E8 03 10 00 00 00 00 00
 (1652893324.725873)  can0  014   [5]  00 00 00 10 27
 (1652893324.727651)  can0  1E5   [8]  1C FF 72 50 00 00 02 19
 (1652893324.728008)  can0  012   [8]  E8 03 10 00 00 00 00 00
 (1652893324.735364)  can0  010   [4]  26 73 00 00
 (1652893324.735830)  can0  014   [5]  00 00 00 13 27
 (1652893324.737651)  can0  1E5   [8]  1C FF 72 70 00 00 02 39
 (1652893324.737982)  can0  012   [8]  E8 03 10 00 00 00 00 00
 (1652893324.745871)  can0  014   [5]  00 00 00 0D 27
 (1652893324.747631)  can0  1E5   [8]  1C FF 72 10 00 00 01 D9
 (1652893324.748008)  can0  012   [8]  E8 03 10 00 00 00 00 00
 (1652893324.756049)  can0  014   [5]  00 00 00 10 27
 (1652893324.757802)  can0  1E5   [8]  1C FF 72 30 00 00 01 F9
 (1652893324.757998)  can0  012   [8]  E8 03 10 00 00 00 00 00
 (1652893324.766050)  can0  014   [5]  00 00 00 10 27
 (1652893324.767638)  can0  1E5   [8]  1C FF 72 50 00 00 02 19
 (1652893324.768021)  can0  012   [8]  E8 03 10 00 00 00 00 00
 (1652893324.776044)  can0  014   [5]  00 00 00 10 27
 (1652893324.777797)  can0  1E5   [8]  1C FF 72 70 00 00 02 39
 (1652893324.778009)  can0  012   [8]  E8 03 10 00 00 00 00 00
 (1652893324.786043)  can0  014   [5]  00 00 00 10 27
 (1652893324.787797)  can0  1E5   [8]  1C FF 72 10 00 00 01 D9
 (1652893324.788011)  can0  012   [8]  E8 03 10 00 00 00 00 00
 (1652893324.796045)  can0  014   [5]  00 00 00 10 27
 (1652893324.797803)  can0  1E5   [8]  1C FF 72 30 00 00 01 F9
 (1652893324.798005)  can0  012   [8]  E8 03 10 00 00 00 00 00
 (1652893324.806038)  can0  014   [5]  00 00 00 10 27
 (1652893324.807790)  can0  1E5   [8]  1C FF 72 50 00 00 02 19
 (1652893324.808005)  can0  012   [8]  E8 03 10 00 00 00 00 00
 (1652893324.816050)  can0  014   [5]  00 00 00 10 27
 (1652893324.817789)  can0  1E5   [8]  1C FF 73 70 00 00 02 3A
 (1652893324.818012)  can0  012   [8]  E8 03 10 00 00 00 00 00
 (1652893324.826095)  can0  014   [5]  00 00 00 10 27
 (1652893324.827789)  can0  1E5   [8]  1C FF 72 10 00 00 01 D9
 (1652893324.828006)  can0  012   [8]  E8 03 10 00 00 00 00 00
 (1652893324.835551)  can0  010   [4]  26 73 00 00
 (1652893324.835863)  can0  014   [5]  00 00 00 13 27
 (1652893324.837794)  can0  1E5   [8]  1C FF 72 30 00 00 01 F9
 (1652893324.838004)  can0  012   [8]  E8 03 10 00 00 00 00 00
 (1652893324.846034)  can0  014   [5]  00 00 00 0D 27
 (1652893324.847816)  can0  1E5   [8]  1C FF 72 50 00 00 02 19
 (1652893324.847999)  can0  012   [8]  E8 03 10 00 00 00 00 00
 (1652893324.856053)  can0  014   [5]  00 00 00 10 27
 (1652893324.857823)  can0  1E5   [8]  1C FF 72 70 00 00 02 39
 (1652893324.858003)  can0  012   [8]  E8 03 10 00 00 00 00 00
 (1652893324.866029)  can0  014   [5]  00 00 00 10 27
 (1652893324.867823)  can0  1E5   [8]  1C FF 72 10 00 00 01 D9
 (1652893324.867999)  can0  012   [8]  E8 03 10 00 00 00 00 00
 (1652893324.876042)  can0  014   [5]  00 00 00 10 27
 (1652893324.877835)  can0  1E5   [8]  1C FF 73 30 00 00 01 FA
 (1652893324.878013)  can0  012   [8]  E8 03 10 00 00 00 00 00
 (1652893324.886041)  can0  014   [5]  00 F0 FF 10 27
 (1652893324.887836)  can0  1E5   [8]  1C FF 72 50 00 00 02 19
 (1652893324.888003)  can0  012   [8]  E8 03 10 00 00 00 00 00
 (1652893324.896030)  can0  014   [5]  00 00 00 10 27
 (1652893324.897830)  can0  1E5   [8]  1C FF 72 70 00 00 02 39
 (1652893324.897993)  can0  012   [8]  E8 03 10 00 00 00 00 00
 (1652893324.906031)  can0  014   [5]  00 00 00 10 27
 (1652893324.907840)  can0  1E5   [8]  1C FF 72 10 00 00 01 D9
 (1652893324.908002)  can0  012   [8]  E8 03 10 00 00 00 00 00
 (1652893324.916041)  can0  014   [5]  FF 0F 00 10 27
 (1652893324.917855)  can0  1E5   [8]  1C FF 72 30 00 00 01 F9
 (1652893324.918012)  can0  012   [8]  E8 03 10 00 00 00 00 00
 (1652893324.926076)  can0  014   [5]  00 00 00 10 27
 (1652893324.927875)  can0  1E5   [8]  1C FF 72 50 00 00 02 19
 (1652893324.927983)  can0  012   [8]  E8 03 10 00 00 00 00 00
 (1652893324.935675)  can0  010   [4]  26 73 00 00
 (1652893324.935869)  can0  014   [5]  00 00 00 13 27
 (1652893324.937893)  can0  1E5   [8]  1C FF 72 70 00 00 02 39
 (1652893324.937999)  can0  012   [8]  E8 03 10 00 00 00 00 00
 (1652893324.946024)  can0  014   [5]  00 00 00 0D 27
 (1652893324.947817)  can0  1E5   [8]  1C FF 72 10 00 00 01 D9
 (1652893324.948017)  can0  012   [8]  E8 03 10 00 00 00 00 00
 (1652893324.956043)  can0  014   [5]  00 00 00 10 27
 (1652893324.957809)  can0  1E5   [8]  1C FF 72 30 00 00 01 F9
 (1652893324.957999)  can0  012   [8]  E8 03 10 00 00 00 00 00
 (1652893324.966042)  can0  014   [5]  00 00 00 10 27
 (1652893324.967787)  can0  1E5   [8]  1C FF 72 50 00 00 02 19
 (1652893324.968000)  can0  012   [8]  E8 03 10 00 00 00 00 00
 (1652893324.976024)  can0  014   [5]  00 00 00 10 27
 (1652893324.977613)  can0  1E5   [8]  1C FF 72 70 00 00 02 39
 (1652893324.977967)  can0  012   [8]  E8 03 10 00 00 00 00 00
 (1652893324.986032)  can0  014   [5]  00 00 00 10 27
 (1652893324.987796)  can0  1E5   [8]  1C FF 72 10 00 00 01 D9
 (1652893324.988005)  can0  012   [8]  E8 03 10 00 00 00 00 00
 (1652893324.996018)  can0  014   [5]  00 00 00 10 27
 (1652893324.997791)  can0  1E5   [8]  1C FF 72 30 00 00 01 F9
 (1652893324.997999)  can0  012   [8]  E8 03 10 00 00 00 00 00
 (1652893325.006030)  can0  014   [5]  00 00 00 10 27
 (1652893325.007806)  can0  1E5   [8]  1C FF 72 50 00 00 02 19
 (1652893325.008005)  can0  012   [8]  E8 03 10 00 00 00 00 00
 (1652893325.016030)  can0  014   [5]  00 00 00 10 27
 (1652893325.017799)  can0  1E5   [8]  1C FF 72 70 00 00 02 39
 (1652893325.018005)  can0  012   [8]  E8 03 10 00 00 00 00 00
 (1652893325.026038)  can0  014   [5]  00 00 00 10 27
 (1652893325.027804)  can0  1E5   [8]  1C FF 72 10 00 00 01 D9
 (1652893325.027993)  can0  012   [8]  E8 03 10 00 00 00 00 00
 (1652893325.035546)  can0  010   [4]  26 73 00 00
 (1652893325.035875)  can0  014   [5]  00 00 00 13 27
 (1652893325.037862)  can0  1E5   [8]  1C FF 72 30 00 00 01 F9
 (1652893325.037968)  can0  012   [8]  E8 03 10 00 00 00 00 00
 (1652893325.046039)  can0  014   [5]  00 00 00 0D 27
 (1652893325.047791)  can0  1E5   [8]  1C FF 72 50 00 00 02 19
 (1652893325.047999)  can0  012   [8]  E8 03 10 00 00 00 00 00
 (1652893325.056026)  can0  014   [5]  00 00 00 10 27
 (1652893325.057792)  can0  1E5   [8]  1C FF 72 70 00 00 02 39
 (1652893325.057999)  can0  012   [8]  E8 03 10 00 00 00 00 00
 (1652893325.066033)  can0  014   [5]  00 00 00 10 27
 (1652893325.067791)  can0  1E5   [8]  1C FF 72 10 00 00 01 D9
 (1652893325.068006)  can0  012   [8]  E8 03 10 00 00 00 00 00
 (1652893325.076030)  can0  014   [5]  00 00 00 10 27
 (1652893325.077793)  can0  1E5   [8]  1C FF 72 30 00 00 01 F9
 (1652893325.078013)  can0  012   [8]  E8 03 10 00 00 00 00 00
 (1652893325.086037)  can0  014   [5]  00 00 00 10 27
 (1652893325.087801)  can0  1E5   [8]  1C FF 72 50 00 00 02 19
 (1652893325.088004)  can0  012   [8]  E8 03 10 00 00 00 00 00
 (1652893325.096030)  can0  014   [5]  00 00 00 10 27
 (1652893325.097800)  can0  1E5   [8]  1C FF 72 70 00 00 02 39
 (1652893325.098005)  can0  012   [8]  E8 03 10 00 00 00 00 00
 (1652893325.106035)  can0  014   [5]  FF 0F 00 10 27
 (1652893325.107775)  can0  1E5   [8]  1C FF 72 10 00 00 01 D9
 (1652893325.108008)  can0  012   [8]  E8 03 10 00 00 00 00 00
 (1652893325.116037)  can0  014   [5]  00 00 00 10 27
 (1652893325.117804)  can0  1E5   [8]  1C FF 72 30 00 00 01 F9
 (1652893325.117968)  can0  012   [8]  E8 03 10 00 00 00 00 00
 (1652893325.125873)  can0  014   [5]  00 F0 FF 10 27
 (1652893325.127791)  can0  1E5   [8]  1C FF 72 50 00 00 02 19
 (1652893325.127990)  can0  012   [8]  E8 03 10 00 00 00 00 00
 (1652893325.135575)  can0  010   [4]  26 73 00 00
 (1652893325.135852)  can0  014   [5]  00 00 00 13 27
 (1652893325.137793)  can0  1E5   [8]  1C FF 72 70 00 00 02 39
 (1652893325.137998)  can0  012   [8]  E8 03 10 00 00 00 00 00
 (1652893325.146054)  can0  014   [5]  00 00 00 0D 27
 (1652893325.147784)  can0  1E5   [8]  1C FF 72 10 00 00 01 D9
 (1652893325.148000)  can0  012   [8]  E8 03 10 00 00 00 00 00
 (1652893325.156076)  can0  014   [5]  00 00 00 10 27
 (1652893325.157799)  can0  1E5   [8]  1C FF 72 30 00 00 01 F9
 (1652893325.157999)  can0  012   [8]  E8 03 10 00 00 00 00 00
 (1652893325.166094)  can0  014   [5]  00 00 00 10 27
 (1652893325.167803)  can0  1E5   [8]  1C FF 72 50 00 00 02 19
 (1652893325.168004)  can0  012   [8]  E8 03 10 00 00 00 00 00
 (1652893325.175862)  can0  014   [5]  00 00 00 10 27
 (1652893325.177792)  can0  1E5   [8]  1C FF 73 70 00 00 02 3A
 (1652893325.177994)  can0  012   [8]  E8 03 10 00 00 00 00 00
 (1652893325.186034)  can0  014   [5]  00 00 00 10 27
 (1652893325.187623)  can0  1E5   [8]  1C FF 72 10 00 00 01 D9
 (1652893325.187985)  can0  012   [8]  E8 03 10 00 00 00 00 00
 (1652893325.196156)  can0  014   [5]  00 00 00 10 27
 (1652893325.197798)  can0  1E5   [8]  1C FF 73 30 00 00 01 FA
 (1652893325.197962)  can0  012   [8]  E8 03 10 00 00 00 00 00
 (1652893325.206082)  can0  014   [5]  00 00 00 10 27
 (1652893325.207823)  can0  1E5   [8]  1C FF 73 50 00 00 02 1A
 (1652893325.207962)  can0  012   [8]  E8 03 10 00 00 00 00 00
 (1652893325.215873)  can0  014   [5]  00 00 00 10 27
 (1652893325.217615)  can0  1E5   [8]  1C FF 73 70 00 00 02 3A
 (1652893325.217972)  can0  012   [8]  E8 03 10 00 00 00 00 00
 (1652893325.226049)  can0  014   [5]  00 00 00 10 27
 (1652893325.227788)  can0  1E5   [8]  1C FF 72 10 00 00 01 D9
 (1652893325.227962)  can0  012   [8]  E8 03 10 00 00 00 00 00
 (1652893325.235575)  can0  010   [4]  26 73 00 00
 (1652893325.235822)  can0  014   [5]  00 00 00 13 27
 (1652893325.237625)  can0  1E5   [8]  1C FF 73 30 00 00 01 FA
 (1652893325.237999)  can0  012   [8]  E8 03 10 00 00 00 00 00
 (1652893325.246044)  can0  014   [5]  00 00 00 0D 27
 (1652893325.247785)  can0  1E5   [8]  1C FF 72 50 00 00 02 19
 (1652893325.247956)  can0  012   [8]  E8 03 10 00 00 00 00 00
 (1652893325.256040)  can0  014   [5]  FF 0F 00 10 27
 (1652893325.257786)  can0  1E5   [8]  1C FF 72 70 00 00 02 39
 (1652893325.257962)  can0  012   [8]  E8 03 10 00 00 00 00 00
 (1652893325.266051)  can0  014   [5]  00 00 00 10 27
 (1652893325.267778)  can0  1E5   [8]  1C FF 73 10 00 00 01 DA
 (1652893325.267965)  can0  012   [8]  E8 03 10 00 00 00 00 00
 (1652893325.276044)  can0  014   [5]  00 00 00 10 27
 (1652893325.277777)  can0  1E5   [8]  1C FF 72 30 00 00 01 F9
 (1652893325.277955)  can0  012   [8]  E8 03 10 00 00 00 00 00
 (1652893325.286052)  can0  014   [5]  00 00 00 10 27
 (1652893325.287833)  can0  1E5   [8]  1C FF 72 50 00 00 02 19
 (1652893325.287955)  can0  012   [8]  E8 03 10 00 00 00 00 00
 (1652893325.296026)  can0  014   [5]  00 F0 FF 10 27
 (1652893325.297778)  can0  1E5   [8]  1C FF 73 70 00 00 02 3A
 (1652893325.297953)  can0  012   [8]  E8 03 10 00 00 00 00 00
 (1652893325.306024)  can0  014   [5]  00 00 00 10 27
 (1652893325.307777)  can0  1E5   [8]  1C FF 73 10 00 00 01 DA
 (1652893325.307960)  can0  012   [8]  E8 03 10 00 00 00 00 00
 (1652893325.316033)  can0  014   [5]  00 00 00 10 27
 (1652893325.317782)  can0  1E5   [8]  1C FF 72 30 00 00 01 F9
 (1652893325.317963)  can0  012   [8]  E8 03 10 00 00 00 00 00
 (1652893325.326044)  can0  014   [5]  00 00 00 10 27
 (1652893325.327785)  can0  1E5   [8]  1C FF 73 50 00 00 02 1A
 (1652893325.327956)  can0  012   [8]  E8 03 10 00 00 00 00 00
 (1652893325.335556)  can0  010   [4]  26 73 00 00
 (1652893325.335831)  can0  014   [5]  00 00 00 13 27
 (1652893325.337829)  can0  1E5   [8]  1C FF 73 70 00 00 02 3A
 (1652893325.337957)  can0  012   [8]  E8 03 10 00 00 00 00 00
 (1652893325.346010)  can0  014   [5]  00 00 00 0D 27
 (1652893325.347787)  can0  1E5   [8]  1C FF 73 10 00 00 01 DA
 (1652893325.347957)  can0  012   [8]  E8 03 10 00 00 00 00 00
 (1652893325.356030)  can0  014   [5]  00 00 00 10 27
 (1652893325.357776)  can0  1E5   [8]  1C FF 72 30 00 00 01 F9
 (1652893325.357965)  can0  012   [8]  E8 03 10 00 00 00 00 00
 (1652893325.366030)  can0  014   [5]  00 00 00 10 27
 (1652893325.367784)  can0  1E5   [8]  1C FF 73 50 00 00 02 1A
 (1652893325.367961)  can0  012   [8]  E8 03 10 00 00 00 00 00
 (1652893325.376035)  can0  014   [5]  00 00 00 10 27
 (1652893325.377769)  can0  1E5   [8]  1C FF 72 70 00 00 02 39
 (1652893325.377957)  can0  012   [8]  E8 03 10 00 00 00 00 00
 (1652893325.386041)  can0  014   [5]  00 00 00 10 27
 (1652893325.387601)  can0  1E5   [8]  1C FF 72 10 00 00 01 D9
 (1652893325.387959)  can0  012   [8]  E8 03 10 00 00 00 00 00
 (1652893325.396042)  can0  014   [5]  00 00 00 10 27
 (1652893325.397796)  can0  1E5   [8]  1C FF 72 30 00 00 01 F9
 (1652893325.397956)  can0  012   [8]  E8 03 10 00 00 00 00 00
 (1652893325.406023)  can0  014   [5]  00 00 00 10 27
 (1652893325.407791)  can0  1E5   [8]  1C FF 73 50 00 00 02 1A
 (1652893325.407956)  can0  012   [8]  E8 03 10 00 00 00 00 00
 (1652893325.416059)  can0  014   [5]  FF 0F 00 10 27
 (1652893325.417808)  can0  1E5   [8]  1C FF 73 70 00 00 02 3A
 (1652893325.417962)  can0  012   [8]  E8 03 10 00 00 00 00 00
 (1652893325.426034)  can0  014   [5]  00 00 00 10 27
 (1652893325.427830)  can0  1E5   [8]  1C FF 72 10 00 00 01 D9
 (1652893325.427956)  can0  012   [8]  E8 03 10 00 00 00 00 00
 (1652893325.435612)  can0  010   [4]  26 73 00 00
 (1652893325.435622)  can0  0E2   [2]  50 00
 (1652893325.435809)  can0  014   [5]  00 F0 FF 16 27
 (1652893325.435939)  can0  0E4   [2]  50 00
 (1652893325.437842)  can0  1E5   [8]  1C FF 73 30 00 00 01 FA
 (1652893325.437962)  can0  012   [8]  E8 03 10 00 00 00 00 00
 (1652893325.438098)  can0  0E3   [2]  50 00
 (1652893325.446019)  can0  014   [5]  00 00 00 0D 27
 (1652893325.447617)  can0  1E5   [8]  1C FF 73 50 00 00 02 1A
 (1652893325.447962)  can0  012   [8]  E8 03 10 00 00 00 00 00
 (1652893325.456035)  can0  014   [5]  00 00 00 0D 27
 (1652893325.457828)  can0  1E5   [8]  1C FF 72 70 00 00 02 39
 (1652893325.457962)  can0  012   [8]  E8 03 10 00 00 00 00 00
 (1652893325.466042)  can0  014   [5]  00 00 00 10 27
 (1652893325.467771)  can0  1E5   [8]  1C FF 73 10 00 00 01 DA
 (1652893325.467951)  can0  012   [8]  E8 03 10 00 00 00 00 00
 (1652893325.475863)  can0  014   [5]  00 00 00 10 27
 (1652893325.477791)  can0  1E5   [8]  1C FF 72 30 00 00 01 F9
 (1652893325.477962)  can0  012   [8]  E8 03 10 00 00 00 00 00
 (1652893325.486031)  can0  014   [5]  00 00 00 10 27
 (1652893325.487819)  can0  1E5   [8]  1C FF 72 50 00 00 02 19
 (1652893325.487962)  can0  012   [8]  E8 03 10 00 00 00 00 00
 (1652893325.496038)  can0  014   [5]  00 00 00 10 27
 (1652893325.497772)  can0  1E5   [8]  1C FF 72 70 00 00 02 39
 (1652893325.497961)  can0  012   [8]  E8 03 10 00 00 00 00 00
 (1652893325.506008)  can0  014   [5]  00 00 00 10 27
 (1652893325.507920)  can0  1E5   [8]  1C FF 72 10 00 00 01 D9
 (1652893325.507993)  can0  012   [8]  E8 03 10 00 00 00 00 00
 (1652893325.516038)  can0  014   [5]  00 00 00 10 27
 (1652893325.517786)  can0  1E5   [8]  1C FF 73 30 00 00 01 FA
 (1652893325.517968)  can0  012   [8]  E8 03 10 00 00 00 00 00
 (1652893325.526040)  can0  014   [5]  00 00 00 10 27
 (1652893325.527779)  can0  1E5   [8]  1C FF 72 50 00 00 02 19
 (1652893325.527961)  can0  012   [8]  E8 03 10 00 00 00 00 00
 (1652893325.535542)  can0  010   [4]  26 73 00 00
 (1652893325.535817)  can0  014   [5]  00 F0 FF 13 27
 (1652893325.537868)  can0  1E5   [8]  1C FF 73 70 00 00 02 3A
 (1652893325.537957)  can0  012   [8]  E8 03 10 00 00 00 00 00
 (1652893325.546095)  can0  014   [5]  FF 0F 00 0D 27
 (1652893325.547791)  can0  1E5   [8]  1C FF 73 10 00 00 01 DA
 (1652893325.547962)  can0  012   [8]  E8 03 10 00 00 00 00 00
 (1652893325.556032)  can0  014   [5]  00 00 00 10 27
 (1652893325.557780)  can0  1E5   [8]  1C FF 73 30 00 00 01 FA
 (1652893325.557963)  can0  012   [8]  E8 03 10 00 00 00 00 00
 (1652893325.566040)  can0  014   [5]  00 00 00 10 27
 (1652893325.567767)  can0  1E5   [8]  1C FF 73 50 00 00 02 1A
 (1652893325.567954)  can0  012   [8]  E8 03 10 00 00 00 00 00
 (1652893325.576038)  can0  014   [5]  00 00 00 10 27
 (1652893325.577779)  can0  1E5   [8]  1C FF 73 70 00 00 02 3A
 (1652893325.577963)  can0  012   [8]  E8 03 10 00 00 00 00 00
 (1652893325.586029)  can0  014   [5]  00 00 00 10 27
 (1652893325.587616)  can0  1E5   [8]  1C FF 73 10 00 00 01 DA
 (1652893325.587965)  can0  012   [8]  E8 03 10 00 00 00 00 00
 (1652893325.596026)  can0  014   [5]  00 00 00 10 27
 (1652893325.597771)  can0  1E5   [8]  1C FF 73 30 00 00 01 FA
 (1652893325.597959)  can0  012   [8]  E8 03 10 00 00 00 00 00
 (1652893325.606031)  can0  014   [5]  00 00 00 10 27
 (1652893325.607779)  can0  1E5   [8]  1C FF 73 50 00 00 02 1A
 (1652893325.607964)  can0  012   [8]  E8 03 10 00 00 00 00 00
 (1652893325.616030)  can0  014   [5]  00 00 00 10 27
 (1652893325.617764)  can0  1E5   [8]  1C FF 73 70 00 00 02 3A
 (1652893325.617964)  can0  012   [8]  E8 03 10 00 00 00 00 00
 (1652893325.625970)  can0  014   [5]  00 00 00 10 27
 (1652893325.627771)  can0  1E5   [8]  1C FF 73 10 00 00 01 DA
 (1652893325.627961)  can0  012   [8]  E8 03 10 00 00 00 00 00
 (1652893325.635540)  can0  010   [4]  26 73 00 00
 (1652893325.635810)  can0  014   [5]  FF 0F 00 13 27
 (1652893325.637773)  can0  1E5   [8]  1C FF 73 30 00 00 01 FA
 (1652893325.637956)  can0  012   [8]  E8 03 10 00 00 00 00 00
 (1652893325.646024)  can0  014   [5]  00 F0 FF 0D 27
 (1652893325.647807)  can0  1E5   [8]  1C FF 73 50 00 00 02 1A
 (1652893325.647951)  can0  012   [8]  E8 03 10 00 00 00 00 00
 (1652893325.656028)  can0  014   [5]  00 00 00 10 27
 (1652893325.657772)  can0  1E5   [8]  1C FF 73 70 00 00 02 3A
 (1652893325.657956)  can0  012   [8]  E8 03 10 00 00 00 00 00
 (1652893325.666044)  can0  014   [5]  00 00 00 10 27
 (1652893325.667772)  can0  1E5   [8]  1C FF 73 10 00 00 01 DA
 (1652893325.667957)  can0  012   [8]  E8 03 10 00 00 00 00 00
 (1652893325.676069)  can0  014   [5]  00 00 00 10 27
 (1652893325.677761)  can0  1E5   [8]  1C FF 73 30 00 00 01 FA
 (1652893325.677948)  can0  012   [8]  E8 03 10 00 00 00 00 00
 (1652893325.686093)  can0  014   [5]  00 00 00 10 27
 (1652893325.687765)  can0  1E5   [8]  1C FF 73 50 00 00 02 1A
 (1652893325.687965)  can0  012   [8]  E8 03 10 00 00 00 00 00
 (1652893325.696112)  can0  014   [5]  00 00 00 10 27
 (1652893325.697792)  can0  1E5   [8]  1C FF 73 70 00 00 02 3A
 (1652893325.697962)  can0  012   [8]  E8 03 10 00 00 00 00 00
 (1652893325.705836)  can0  014   [5]  00 00 00 10 27
 (1652893325.707570)  can0  1E5   [8]  1C FF 72 10 00 00 01 D9
 (1652893325.707963)  can0  012   [8]  E8 03 10 00 00 00 00 00
 (1652893325.715876)  can0  014   [5]  00 00 00 10 27
 (1652893325.717628)  can0  1E5   [8]  1C FF 73 30 00 00 01 FA
 (1652893325.718012)  can0  012   [8]  E8 03 10 00 00 00 00 00
 (1652893325.726014)  can0  014   [5]  FF 0F 00 10 27
 (1652893325.727745)  can0  1E5   [8]  1C FF 73 50 00 00 02 1A
 (1652893325.728003)  can0  012   [8]  E8 03 10 00 00 00 00 00
 (1652893325.735542)  can0  010   [4]  26 73 00 00
 (1652893325.735850)  can0  014   [5]  00 00 00 13 27
 (1652893325.737591)  can0  1E5   [8]  1C FF 73 70 00 00 02 3A
 (1652893325.737997)  can0  012   [8]  E8 03 10 00 00 00 00 00
 (1652893325.746031)  can0  014   [5]  00 00 00 0D 27
 (1652893325.747767)  can0  1E5   [8]  1C FF 72 10 00 00 01 D9
 (1652893325.748002)  can0  012   [8]  E8 03 10 00 00 00 00 00
 (1652893325.756073)  can0  014   [5]  00 F0 FF 10 27
 (1652893325.757764)  can0  1E5   [8]  1C FF 73 30 00 00 01 FA
 (1652893325.758008)  can0  012   [8]  E8 03 10 00 00 00 00 00
 (1652893325.766040)  can0  014   [5]  00 00 00 10 27
 (1652893325.767756)  can0  1E5   [8]  1C FF 73 50 00 00 02 1A
 (1652893325.768009)  can0  012   [8]  E8 03 10 00 00 00 00 00
 (1652893325.776054)  can0  014   [5]  00 00 00 10 27
 (1652893325.777767)  can0  1E5   [8]  1C FF 73 70 00 00 02 3A
 (1652893325.778000)  can0  012   [8]  E8 03 10 00 00 00 00 00
 (1652893325.786045)  can0  014   [5]  00 00 00 10 27
 (1652893325.787767)  can0  1E5   [8]  1C FF 73 10 00 00 01 DA
 (1652893325.788002)  can0  012   [8]  E8 03 10 00 00 00 00 00
 (1652893325.796051)  can0  014   [5]  00 00 00 10 27
 (1652893325.797785)  can0  1E5   [8]  1C FF 73 30 00 00 01 FA
 (1652893325.797994)  can0  012   [8]  E8 03 10 00 00 00 00 00
 (1652893325.806049)  can0  014   [5]  00 00 00 10 27
 (1652893325.807759)  can0  1E5   [8]  1C FF 73 50 00 00 02 1A
 (1652893325.808002)  can0  012   [8]  E8 03 10 00 00 00 00 00
 (1652893325.816038)  can0  014   [5]  00 00 00 10 27
 (1652893325.817768)  can0  1E5   [8]  1C FF 73 70 00 00 02 3A
 (1652893325.818000)  can0  012   [8]  E8 03 10 00 00 00 00 00
 (1652893325.826040)  can0  014   [5]  00 00 00 10 27
 (1652893325.827759)  can0  1E5   [8]  1C FF 73 10 00 00 01 DA
 (1652893325.828008)  can0  012   [8]  E8 03 10 00 00 00 00 00
 (1652893325.835363)  can0  010   [4]  26 73 00 00
 (1652893325.835846)  can0  014   [5]  00 00 00 13 27
 (1652893325.837764)  can0  1E5   [8]  1C FF 73 30 00 00 01 FA
 (1652893325.838008)  can0  012   [8]  E8 03 10 00 00 00 00 00
 (1652893325.846024)  can0  014   [5]  00 00 00 0D 27
 (1652893325.847756)  can0  1E5   [8]  1C FF 73 50 00 00 02 1A
 (1652893325.848008)  can0  012   [8]  E8 03 10 00 00 00 00 00
 (1652893325.856087)  can0  014   [5]  00 00 00 10 27
 (1652893325.857756)  can0  1E5   [8]  1C FF 73 70 00 00 02 3A
 (1652893325.858007)  can0  012   [8]  E8 03 10 00 00 00 00 00
 (1652893325.866039)  can0  014   [5]  FF 0F 00 10 27
 (1652893325.867762)  can0  1E5   [8]  1C FF 72 10 00 00 01 D9
 (1652893325.867949)  can0  012   [8]  E8 03 10 00 00 00 00 00
 (1652893325.876037)  can0  014   [5]  00 F0 FF 10 27
 (1652893325.877785)  can0  1E5   [8]  1C FF 73 30 00 00 01 FA
 (1652893325.877999)  can0  012   [8]  E8 03 10 00 00 00 00 00
 (1652893325.886026)  can0  014   [5]  00 00 00 10 27
 (1652893325.887782)  can0  1E5   [8]  1C FF 73 50 00 00 02 1A
 (1652893325.888000)  can0  012   [8]  E8 03 10 00 00 00 00 00
 (1652893325.896028)  can0  014   [5]  00 00 00 10 27
 (1652893325.897771)  can0  1E5   [8]  1C FF 73 70 00 00 02 3A
 (1652893325.897986)  can0  012   [8]  E8 03 10 00 00 00 00 00
 (1652893325.906038)  can0  014   [5]  00 00 00 10 27
 (1652893325.907793)  can0  1E5   [8]  1C FF 73 10 00 00 01 DA
 (1652893325.908006)  can0  012   [8]  E8 03 10 00 00 00 00 00
 (1652893325.916042)  can0  014   [5]  00 00 00 10 27
 (1652893325.917765)  can0  1E5   [8]  1C FF 73 30 00 00 01 FA
 (1652893325.918009)  can0  012   [8]  E8 03 10 00 00 00 00 00
 (1652893325.926043)  can0  014   [5]  00 00 00 10 27
 (1652893325.927782)  can0  1E5   [8]  1C FF 73 50 00 00 02 1A
 (1652893325.927999)  can0  012   [8]  E8 03 10 00 00 00 00 00
 (1652893325.935540)  can0  010   [4]  26 73 00 00
 (1652893325.935867)  can0  014   [5]  00 00 00 13 27
 (1652893325.937836)  can0  1E5   [8]  1C FF 72 70 00 00 02 39
 (1652893325.937993)  can0  012   [8]  E8 03 10 00 00 00 00 00
 (1652893325.946028)  can0  014   [5]  00 00 00 0D 27
 (1652893325.947573)  can0  1E5   [8]  1C FF 73 10 00 00 01 DA
 (1652893325.947953)  can0  012   [8]  E8 03 10 00 00 00 00 00
 (1652893325.956054)  can0  014   [5]  FF FF FF 10 27
 (1652893325.957868)  can0  1E5   [8]  1C FF 72 30 00 00 01 F9
 (1652893325.957999)  can0  012   [8]  E8 03 10 00 00 00 00 00
 (1652893325.966026)  can0  014   [5]  00 00 00 10 27
 (1652893325.967883)  can0  1E5   [8]  1C FF 73 50 00 00 02 1A
 (1652893325.967992)  can0  012   [8]  E8 03 10 00 00 00 00 00
 (1652893325.976029)  can0  014   [5]  00 00 00 10 27
 (1652893325.977889)  can0  1E5   [8]  1C FF 73 70 00 00 02 3A
 (1652893325.977983)  can0  012   [8]  E8 03 10 00 00 00 00 00
 (1652893325.986057)  can0  014   [5]  00 00 00 10 27
 (1652893325.987913)  can0  1E5   [8]  1C FF 73 10 00 00 01 DA
 (1652893325.987966)  can0  012   [8]  E8 03 10 00 00 00 00 00
 (1652893325.996030)  can0  014   [5]  00 00 00 10 27
 (1652893325.997764)  can0  1E5   [8]  1C FF 73 30 00 00 01 FA
 (1652893325.998009)  can0  012   [8]  E8 03 10 00 00 00 00 00
 (1652893326.006037)  can0  014   [5]  00 00 00 10 27
 (1652893326.007766)  can0  1E5   [8]  1C FF 73 50 00 00 02 1A
 (1652893326.007996)  can0  012   [8]  E8 03 10 00 00 00 00 00
 (1652893326.016023)  can0  014   [5]  00 00 00 10 27
 (1652893326.017754)  can0  1E5   [8]  1C FF 72 70 00 00 02 39
 (1652893326.018002)  can0  012   [8]  E8 03 10 00 00 00 00 00
 (1652893326.026025)  can0  014   [5]  00 00 00 10 27
 (1652893326.027693)  can0  1E5   [8]  1C FF 73 10 00 00 01 DA
 (1652893326.028001)  can0  012   [8]  E8 03 10 00 00 00 00 00
 (1652893326.035540)  can0  010   [4]  26 73 00 00
 (1652893326.035863)  can0  014   [5]  00 00 00 13 27
 (1652893326.037605)  can0  1E5   [8]  1C FF 72 30 00 00 01 F9
 (1652893326.038009)  can0  012   [8]  E8 03 10 00 00 00 00 00
