 (1652892740.434927)  can0  012   [8]  E8 03 10 00 00 00 00 00
 (1652892740.436598)  can0  014   [5]  00 00 00 10 27
 (1652892740.441526)  can0  1E5   [8]  1C FF 08 30 02 00 01 91
 (1652892740.444763)  can0  012   [8]  E8 03 10 00 00 00 00 00
 (1652892740.446693)  can0  014   [5]  00 00 00 10 27
 (1652892740.451353)  can0  1E5   [8]  1C FF 08 50 02 00 01 B1
 (1652892740.454912)  can0  012   [8]  E8 03 10 00 00 00 00 00
 (1652892740.456463)  can0  014   [5]  00 00 00 10 27
 (1652892740.461367)  can0  1E5   [8]  1C FF 06 70 00 00 01 CD
 (1652892740.464951)  can0  012   [8]  E8 03 10 00 00 00 00 00
 (1652892740.466537)  can0  014   [5]  00 00 00 10 27
 (1652892740.471533)  can0  1E5   [8]  1C FF 06 10 00 00 01 6D
 (1652892740.474944)  can0  012   [8]  E8 03 10 00 00 00 00 00
 (1652892740.476556)  can0  014   [5]  00 00 00 10 27
 (1652892740.481525)  can0  1E5   [8]  1C FF 05 3F FF 00 02 9A
 (1652892740.484933)  can0  012   [8]  E8 03 10 00 00 00 00 00
 (1652892740.486617)  can0  014   [5]  00 00 00 10 27
 (1652892740.491515)  can0  1E5   [8]  1C FF 05 5F FF 00 02 BA
 (1652892740.494980)  can0  012   [8]  E8 03 10 00 00 00 00 00
 (1652892740.496651)  can0  014   [5]  00 00 00 10 27
 (1652892740.501527)  can0  1E5   [8]  1C FF 05 7F FF 00 02 DA
 (1652892740.504799)  can0  010   [4]  26 73 00 00
 (1652892740.504853)  can0  012   [8]  E8 03 10 00 00 00 00 00
 (1652892740.506279)  can0  014   [5]  00 00 00 13 27
 (1652892740.511530)  can0  1E5   [8]  1C FF 05 1F FF 00 02 7A
 (1652892740.514741)  can0  012   [8]  E8 03 10 00 00 00 00 00
 (1652892740.516251)  can0  014   [5]  00 00 00 0D 27
 (1652892740.521374)  can0  1E5   [8]  1C FF 03 3F FE 00 02 97
 (1652892740.524936)  can0  012   [8]  E8 03 10 00 00 00 00 00
 (1652892740.526251)  can0  014   [5]  00 00 00 10 27
 (1652892740.531522)  can0  1E5   [8]  1C FF 05 50 00 00 01 AC
 (1652892740.534950)  can0  012   [8]  E8 03 10 00 00 00 00 00
 (1652892740.536259)  can0  014   [5]  00 00 00 10 27
 (1652892740.541541)  can0  1E5   [8]  1C FF 03 70 00 00 01 CA
 (1652892740.544951)  can0  012   [8]  E8 03 10 00 00 00 00 00
 (1652892740.546272)  can0  014   [5]  00 00 00 10 27
 (1652892740.551354)  can0  1E5   [8]  1C FF 03 10 00 00 01 6A
 (1652892740.554930)  can0  012   [8]  E8 03 10 00 00 00 00 00
 (1652892740.556281)  can0  014   [5]  00 00 00 10 27
 (1652892740.561522)  can0  1E5   [8]  1C FF 03 30 00 00 01 8A
 (1652892740.564947)  can0  012   [8]  E8 03 10 00 00 00 00 00
 (1652892740.566280)  can0  014   [5]  00 00 00 10 27
 (1652892740.571536)  can0  1E5   [8]  1C FF 05 50 00 00 01 AC
 (1652892740.574926)  can0  012   [8]  E8 03 10 00 00 00 00 00
 (1652892740.576276)  can0  014   [5]  00 00 00 10 27
 (1652892740.581375)  can0  1E5   [8]  1C FF 05 70 00 00 01 CC
 (1652892740.584936)  can0  012   [8]  E8 03 10 00 00 00 00 00
 (1652892740.586281)  can0  014   [5]  00 00 00 10 27
 (1652892740.591373)  can0  1E5   [8]  1C FF 05 10 00 00 01 6C
 (1652892740.594941)  can0  012   [8]  E8 03 10 00 00 00 00 00
 (1652892740.596264)  can0  014   [5]  00 00 00 10 27
 (1652892740.601397)  can0  1E5   [8]  1C FF 05 30 00 00 01 8C
 (1652892740.604790)  can0  010   [4]  26 73 00 00
 (1652892740.604846)  can0  012   [8]  E8 03 10 00 00 00 00 00
 (1652892740.606267)  can0  014   [5]  00 00 00 13 27
 (1652892740.611347)  can0  1E5   [8]  1C FF 05 50 00 00 01 AC
 (1652892740.614994)  can0  012   [8]  E8 03 10 00 00 00 00 00
 (1652892740.616276)  can0  014   [5]  00 00 00 0D 27
 (1652892740.621332)  can0  1E5   [8]  1C FF 05 70 00 00 01 CC
 (1652892740.624946)  can0  012   [8]  E8 03 10 00 00 00 00 00
 (1652892740.626255)  can0  014   [5]  00 00 00 10 27
 (1652892740.631330)  can0  1E5   [8]  1C FF 05 10 00 00 01 6C
 (1652892740.634943)  can0  012   [8]  E8 03 10 00 00 00 00 00
 (1652892740.636274)  can0  014   [5]  00 00 00 10 27
 (1652892740.641327)  can0  1E5   [8]  1C FF 05 30 00 00 01 8C
 (1652892740.644946)  can0  012   [8]  E8 03 10 00 00 00 00 00
 (1652892740.646280)  can0  014   [5]  00 00 00 10 27
 (1652892740.651343)  can0  1E5   [8]  1C FF 05 50 00 00 01 AC
 (1652892740.654947)  can0  012   [8]  E8 03 10 00 00 00 00 00
 (1652892740.656281)  can0  014   [5]  00 00 00 10 27
 (1652892740.661360)  can0  1E5   [8]  1C FF 05 70 00 00 01 CC
 (1652892740.664937)  can0  012   [8]  E8 03 10 00 00 00 00 00
 (1652892740.666287)  can0  014   [5]  00 00 00 10 27
 (1652892740.671332)  can0  1E5   [8]  1C FF 05 10 00 00 01 6C
 (1652892740.674779)  can0  012   [8]  E8 03 10 00 00 00 00 00
 (1652892740.676439)  can0  014   [5]  00 00 00 10 27
 (1652892740.681324)  can0  1E5   [8]  1C FF 05 30 00 00 01 8C
 (1652892740.684925)  can0  012   [8]  E8 03 10 00 00 00 00 00
 (1652892740.686280)  can0  014   [5]  00 00 00 10 27
 (1652892740.691332)  can0  1E5   [8]  1C FF 05 50 00 00 01 AC
 (1652892740.694937)  can0  012   [8]  E8 03 10 00 00 00 00 00
 (1652892740.696274)  can0  014   [5]  00 00 00 10 27
 (1652892740.701360)  can0  1E5   [8]  1C FF 05 70 00 00 01 CC
 (1652892740.704856)  can0  010   [4]  26 73 00 00
 (1652892740.704865)  can0  012   [8]  E8 03 10 00 00 00 00 00
 (1652892740.706255)  can0  014   [5]  00 00 00 13 27
 (1652892740.711338)  can0  1E5   [8]  1C FF 05 10 00 00 01 6C
 (1652892740.714952)  can0  012   [8]  E8 03 10 00 00 00 00 00
 (1652892740.716269)  can0  014   [5]  00 00 00 0D 27
 (1652892740.721354)  can0  1E5   [8]  1C FF 05 30 00 00 01 8C
 (1652892740.724931)  can0  012   [8]  E8 03 10 00 00 00 00 00
 (1652892740.726279)  can0  014   [5]  00 00 00 10 27
 (1652892740.731329)  can0  1E5   [8]  1C FF 05 50 00 00 01 AC
 (1652892740.734936)  can0  012   [8]  E8 03 10 00 00 00 00 00
 (1652892740.736288)  can0  014   [5]  00 00 00 10 27
 (1652892740.741351)  can0  1E5   [8]  1C FF 05 70 00 00 01 CC
 (1652892740.744947)  can0  012   [8]  E8 03 10 00 00 00 00 00
 (1652892740.746276)  can0  014   [5]  00 00 00 10 27
 (1652892740.751357)  can0  1E5   [8]  1C FF 05 10 00 00 01 6C
 (1652892740.754736)  can0  012   [8]  E8 03 10 00 00 00 00 00
 (1652892740.756416)  can0  014   [5]  00 00 00 10 27
 (1652892740.761324)  can0  1E5   [8]  1C FF 05 30 00 00 01 8C
 (1652892740.765067)  can0  012   [8]  E8 03 10 00 00 00 00 00
 (1652892740.766269)  can0  014   [5]  00 00 00 10 27
 (1652892740.771343)  can0  1E5   [8]  1C FF 05 50 00 00 01 AC
 (1652892740.774940)  can0  012   [8]  E8 03 10 00 00 00 00 00
 (1652892740.776291)  can0  014   [5]  00 00 00 10 27
 (1652892740.781541)  can0  1E5   [8]  1C FF 05 70 00 00 01 CC
 (1652892740.784953)  can0  012   [8]  E8 03 10 00 00 00 00 00
 (1652892740.786248)  can0  014   [5]  00 00 00 10 27
 (1652892740.791327)  can0  1E5   [8]  1C FF 05 10 00 00 01 6C
 (1652892740.794930)  can0  012   [8]  E8 03 10 00 00 00 00 00
 (1652892740.796281)  can0  014   [5]  00 00 00 10 27
 (1652892740.801356)  can0  1E5   [8]  1C FF 05 30 00 00 01 8C
 (1652892740.804801)  can0  010   [4]  26 73 00 00
 (1652892740.804855)  can0  012   [8]  E8 03 10 00 00 00 00 00
 (1652892740.806280)  can0  014   [5]  00 00 00 13 27
 (1652892740.811398)  can0  1E5   [8]  1C FF 05 50 00 00 01 AC
 (1652892740.814969)  can0  012   [8]  E8 03 10 00 00 00 00 00
 (1652892740.816262)  can0  014   [5]  00 00 00 0D 27
 (1652892740.821347)  can0  1E5   [8]  1C FF 05 70 00 00 01 CC
 (1652892740.824994)  can0  012   [8]  E8 03 10 00 00 00 00 00
 (1652892740.826233)  can0  014   [5]  FF 0F 00 10 27
 (1652892740.831360)  can0  1E5   [8]  1C FF 05 10 00 00 01 6C
 (1652892740.835009)  can0  012   [8]  E8 03 10 00 00 00 00 00
 (1652892740.836267)  can0  014   [5]  00 00 00 10 27
 (1652892740.841344)  can0  1E5   [8]  1C FF 05 30 00 00 01 8C
 (1652892740.845034)  can0  012   [8]  E8 03 10 00 00 00 00 00
 (1652892740.846256)  can0  014   [5]  00 00 00 10 27
 (1652892740.851345)  can0  1E5   [8]  1C FF 05 50 00 00 01 AC
 (1652892740.855050)  can0  012   [8]  E8 03 10 00 00 00 00 00
 (1652892740.856262)  can0  014   [5]  00 00 00 10 27
 (1652892740.861343)  can0  1E5   [8]  1C FF 05 70 00 00 01 CC
 (1652892740.865071)  can0  012   [8]  E8 03 10 00 00 00 00 00
 (1652892740.866266)  can0  014   [5]  00 00 00 10 27
 (1652892740.871349)  can0  1E5   [8]  1C FF 05 10 00 00 01 6C
 (1652892740.874948)  can0  012   [8]  E8 03 10 00 00 00 00 00
 (1652892740.876273)  can0  014   [5]  00 00 00 10 27
 (1652892740.881342)  can0  1E5   [8]  1C FF 05 30 00 00 01 8C
 (1652892740.884943)  can0  012   [8]  E8 03 10 00 00 00 00 00
 (1652892740.886260)  can0  014   [5]  00 00 00 10 27
 (1652892740.891518)  can0  1E5   [8]  1C FF 05 50 00 00 01 AC
 (1652892740.894950)  can0  012   [8]  E8 03 10 00 00 00 00 00
 (1652892740.896429)  can0  014   [5]  00 00 00 10 27
 (1652892740.901525)  can0  1E5   [8]  1C FF 05 70 00 00 01 CC
 (1652892740.904795)  can0  010   [4]  26 73 00 00
 (1652892740.904849)  can0  012   [8]  E8 03 10 00 00 00 00 00
 (1652892740.906402)  can0  014   [5]  00 00 00 13 27
 (1652892740.911352)  can0  1E5   [8]  1C FF 05 10 00 00 01 6C
 (1652892740.914988)  can0  012   [8]  E8 03 10 00 00 00 00 00
 (1652892740.916228)  can0  014   [5]  00 00 00 0D 27
 (1652892740.921344)  can0  1E5   [8]  1C FF 05 30 00 00 01 8C
 (1652892740.924939)  can0  012   [8]  E8 03 10 00 00 00 00 00
 (1652892740.926270)  can0  014   [5]  00 00 00 10 27
 (1652892740.931346)  can0  1E5   [8]  1C FF 05 50 00 00 01 AC
 (1652892740.934773)  can0  012   [8]  E8 03 10 00 00 00 00 00
 (1652892740.936252)  can0  014   [5]  00 00 00 10 27
 (1652892740.941364)  can0  1E5   [8]  1C FF 05 70 00 00 01 CC
 (1652892740.944951)  can0  012   [8]  E8 03 10 00 00 00 00 00
 (1652892740.946241)  can0  014   [5]  00 00 00 10 27
 (1652892740.951360)  can0  1E5   [8]  1C FF 05 10 00 00 01 6C
 (1652892740.954789)  can0  012   [8]  E8 03 10 00 00 00 00 00
 (1652892740.956240)  can0  014   [5]  00 00 00 10 27
 (1652892740.961512)  can0  1E5   [8]  1C FF 05 30 00 00 01 8C
 (1652892740.964945)  can0  012   [8]  E8 03 10 00 00 00 00 00
 (1652892740.966248)  can0  014   [5]  00 00 00 10 27
 (1652892740.971680)  can0  1E5   [8]  1C FF 05 50 00 00 01 AC
 (1652892740.974947)  can0  012   [8]  E8 03 10 00 00 00 00 00
 (1652892740.976250)  can0  014   [5]  00 00 00 10 27
 (1652892740.981509)  can0  1E5   [8]  1C FF 05 70 00 00 01 CC
 (1652892740.984958)  can0  012   [8]  E8 03 10 00 00 00 00 00
 (1652892740.986579)  can0  014   [5]  00 00 00 10 27
 (1652892740.991511)  can0  1E5   [8]  1C FF 05 10 00 00 01 6C
 (1652892740.994925)  can0  012   [8]  E8 03 10 00 00 00 00 00
 (1652892740.996547)  can0  014   [5]  00 00 00 10 27
 (1652892741.001525)  can0  1E5   [8]  1C FF 05 30 00 00 01 8C
 (1652892741.004794)  can0  010   [4]  26 73 00 00
 (1652892741.004848)  can0  012   [8]  E8 03 10 00 00 00 00 00
 (1652892741.004998)  can0  0E2   [2]  E8 01
 (1652892741.005089)  can0  0E3   [2]  E8 01
 (1652892741.006283)  can0  014   [5]  00 00 00 19 27
 (1652892741.006355)  can0  0E4   [2]  E8 01
 (1652892741.011350)  can0  1E5   [8]  1C FF 05 50 00 00 01 AC
 (1652892741.014958)  can0  012   [8]  E8 03 10 00 00 00 00 00
 (1652892741.016243)  can0  014   [5]  00 00 00 07 27
 (1652892741.021361)  can0  1E5   [8]  1C FF 05 70 00 00 01 CC
 (1652892741.024944)  can0  012   [8]  E8 03 10 00 00 00 00 00
 (1652892741.026605)  can0  014   [5]  00 00 00 10 27
 (1652892741.031514)  can0  1E5   [8]  1C FF 05 10 00 00 01 6C
 (1652892741.034942)  can0  012   [8]  E8 03 10 00 00 00 00 00
 (1652892741.036252)  can0  014   [5]  00 00 00 10 27
 (1652892741.041352)  can0  1E5   [8]  1C FF 05 30 00 00 01 8C
 (1652892741.044932)  can0  012   [8]  E8 03 10 00 00 00 00 00
 (1652892741.046433)  can0  014   [5]  00 00 00 10 27
 (1652892741.051505)  can0  1E5   [8]  1C FF 05 50 00 00 01 AC
 (1652892741.054940)  can0  012   [8]  E8 03 10 00 00 00 00 00
 (1652892741.056457)  can0  014   [5]  00 00 00 10 27
 (1652892741.061510)  can0  1E5   [8]  1C FF 05 70 00 00 01 CC
 (1652892741.064932)  can0  012   [8]  E8 03 10 00 00 00 00 00
 (1652892741.066453)  can0  014   [5]  00 00 00 10 27
 (1652892741.071522)  can0  1E5   [8]  1C FF 05 10 00 00 01 6C
 (1652892741.074947)  can0  012   [8]  E8 03 10 00 00 00 00 00
 (1652892741.076460)  can0  014   [5]  00 00 00 10 27
 (1652892741.081516)  can0  1E5   [8]  1C FF 05 30 00 00 01 8C
 (1652892741.084918)  can0  012   [8]  E8 03 10 00 00 00 00 00
 (1652892741.086441)  can0  014   [5]  00 00 00 10 27
 (1652892741.091505)  can0  1E5   [8]  1C FF 05 50 00 00 01 AC
 (1652892741.094940)  can0  012   [8]  E8 03 10 00 00 00 00 00
 (1652892741.096459)  can0  014   [5]  00 00 00 10 27
 (1652892741.101527)  can0  1E5   [8]  1C FF 05 70 00 00 01 CC
 (1652892741.104797)  can0  010   [4]  26 73 00 00
 (1652892741.104850)  can0  012   [8]  E8 03 10 00 00 00 00 00
 (1652892741.106487)  can0  014   [5]  00 00 00 13 27
 (1652892741.111554)  can0  1E5   [8]  1C FF 05 10 00 00 01 6C
 (1652892741.114947)  can0  012   [8]  E8 03 10 00 00 00 00 00
 (1652892741.116453)  can0  014   [5]  00 00 00 0D 27
 (1652892741.121574)  can0  1E5   [8]  1C FF 05 30 00 00 01 8C
 (1652892741.124974)  can0  012   [8]  E8 03 10 00 00 00 00 00
 (1652892741.126484)  can0  014   [5]  00 00 00 10 27
 (1652892741.131587)  can0  1E5   [8]  1C FF 05 50 00 00 01 AC
 (1652892741.134941)  can0  012   [8]  E8 03 10 00 00 00 00 00
 (1652892741.136270)  can0  014   [5]  00 00 00 10 27
 (1652892741.141339)  can0  1E5   [8]  1C FF 05 70 00 00 01 CC
 (1652892741.144944)  can0  012   [8]  E8 03 10 00 00 00 00 00
 (1652892741.146265)  can0  014   [5]  00 00 00 10 27
 (1652892741.151354)  can0  1E5   [8]  1C FF 05 10 00 00 01 6C
 (1652892741.154925)  can0  012   [8]  E8 03 10 00 00 00 00 00
 (1652892741.156282)  can0  014   [5]  00 00 00 10 27
 (1652892741.161647)  can0  1E5   [8]  1C FF 05 30 00 00 01 8C
 (1652892741.164939)  can0  012   [8]  E8 03 10 00 00 00 00 00
 (1652892741.166281)  can0  014   [5]  00 00 00 10 27
 (1652892741.171521)  can0  1E5   [8]  1C FF 05 50 00 00 01 AC
 (1652892741.174940)  can0  012   [8]  E8 03 10 00 00 00 00 00
 (1652892741.176264)  can0  014   [5]  00 00 00 10 27
 (1652892741.181522)  can0  1E5   [8]  1C FF 05 70 00 00 01 CC
 (1652892741.184931)  can0  012   [8]  E8 03 10 00 00 00 00 00
 (1652892741.186282)  can0  014   [5]  00 00 00 10 27
 (1652892741.191512)  can0  1E5   [8]  1C FF 05 10 00 00 01 6C
 (1652892741.194939)  can0  012   [8]  E8 03 10 00 00 00 00 00
 (1652892741.196281)  can0  014   [5]  00 00 00 10 27
 (1652892741.201520)  can0  1E5   [8]  1C FF 05 30 00 00 01 8C
 (1652892741.204804)  can0  010   [4]  26 73 00 00
 (1652892741.204820)  can0  012   [8]  E8 03 10 00 00 00 00 00
 (1652892741.206260)  can0  014   [5]  00 00 00 13 27
 (1652892741.211333)  can0  1E5   [8]  1C FF 05 50 00 00 01 AC
 (1652892741.215001)  can0  012   [8]  E8 03 10 00 00 00 00 00
 (1652892741.216262)  can0  014   [5]  00 00 00 0D 27
 (1652892741.221350)  can0  1E5   [8]  1C FF 05 70 00 00 01 CC
 (1652892741.224939)  can0  012   [8]  E8 03 10 00 00 00 00 00
 (1652892741.226251)  can0  014   [5]  00 00 00 10 27
 (1652892741.231550)  can0  1E5   [8]  1C FF 05 10 00 00 01 6C
 (1652892741.234927)  can0  012   [8]  E8 03 10 00 00 00 00 00
 (1652892741.236244)  can0  014   [5]  00 00 00 10 27
 (1652892741.241306)  can0  1E5   [8]  1C FF 05 30 00 00 01 8C
 (1652892741.244722)  can0  012   [8]  E8 03 10 00 00 00 00 00
 (1652892741.246237)  can0  014   [5]  00 00 00 10 27
 (1652892741.251428)  can0  1E5   [8]  1C FF 05 50 00 00 01 AC
 (1652892741.254940)  can0  012   [8]  E8 03 10 00 00 00 00 00
 (1652892741.256287)  can0  014   [5]  00 00 00 10 27
 (1652892741.261515)  can0  1E5   [8]  1C FF 05 70 00 00 01 CC
 (1652892741.264941)  can0  012   [8]  E8 03 10 00 00 00 00 00
 (1652892741.266263)  can0  014   [5]  00 00 00 10 27
 (1652892741.271514)  can0  1E5   [8]  1C FF 05 10 00 00 01 6C
 (1652892741.274930)  can0  012   [8]  E8 03 10 00 00 00 00 00
 (1652892741.276439)  can0  014   [5]  00 00 00 10 27
 (1652892741.281504)  can0  1E5   [8]  1C FF 05 30 00 00 01 8C
 (1652892741.284948)  can0  012   [8]  E8 03 10 00 00 00 00 00
 (1652892741.286437)  can0  014   [5]  00 00 00 10 27
 (1652892741.291491)  can0  1E5   [8]  1C FF 05 50 00 00 01 AC
 (1652892741.294795)  can0  012   [8]  E8 03 10 00 00 00 00 00
 (1652892741.296272)  can0  014   [5]  00 00 00 10 27
 (1652892741.301498)  can0  1E5   [8]  1C FF 05 70 00 00 01 CC
 (1652892741.304920)  can0  010   [4]  26 73 00 00
 (1652892741.304928)  can0  012   [8]  E8 03 10 00 00 00 00 00
 (1652892741.306275)  can0  014   [5]  00 00 00 13 27
 (1652892741.311335)  can0  1E5   [8]  1C FF 05 10 00 00 01 6C
 (1652892741.314947)  can0  012   [8]  E8 03 10 00 00 00 00 00
 (1652892741.316275)  can0  014   [5]  00 00 00 0D 27
 (1652892741.321326)  can0  1E5   [8]  1C FF 05 30 00 00 01 8C
 (1652892741.324955)  can0  012   [8]  E8 03 10 00 00 00 00 00
 (1652892741.326445)  can0  014   [5]  00 00 00 10 27
 (1652892741.331341)  can0  1E5   [8]  1C FF 05 50 00 00 01 AC
 (1652892741.335031)  can0  012   [8]  E8 03 10 00 00 00 00 00
 (1652892741.336286)  can0  014   [5]  00 00 00 10 27
 (1652892741.341353)  can0  1E5   [8]  1C FF 05 70 00 00 01 CC
 (1652892741.345010)  can0  012   [8]  E8 03 10 00 00 00 00 00
 (1652892741.346266)  can0  014   [5]  00 00 00 10 27
 (1652892741.351505)  can0  1E5   [8]  1C FF 05 10 00 00 01 6C
 (1652892741.355030)  can0  012   [8]  E8 03 10 00 00 00 00 00
 (1652892741.356269)  can0  014   [5]  00 00 00 10 27
 (1652892741.361496)  can0  1E5   [8]  1C FF 05 30 00 00 01 8C
 (1652892741.365033)  can0  012   [8]  E8 03 10 00 00 00 00 00
 (1652892741.366262)  can0  014   [5]  00 00 00 10 27
 (1652892741.371339)  can0  1E5   [8]  1C FF 05 50 00 00 01 AC
 (1652892741.375047)  can0  012   [8]  E8 03 10 00 00 00 00 00
 (1652892741.376284)  can0  014   [5]  00 00 00 10 27
 (1652892741.381345)  can0  1E5   [8]  1C FF 05 70 00 00 01 CC
 (1652892741.385070)  can0  012   [8]  E8 03 10 00 00 00 00 00
 (1652892741.386269)  can0  014   [5]  00 00 00 10 27
 (1652892741.391331)  can0  1E5   [8]  1C FF 05 10 00 00 01 6C
 (1652892741.394938)  can0  012   [8]  E8 03 10 00 00 00 00 00
 (1652892741.396287)  can0  014   [5]  00 00 00 10 27
 (1652892741.401347)  can0  1E5   [8]  1C FF 05 30 00 00 01 8C
 (1652892741.404794)  can0  010   [4]  26 73 00 00
 (1652892741.404847)  can0  012   [8]  E8 03 10 00 00 00 00 00
 (1652892741.406264)  can0  014   [5]  00 00 00 13 27
 (1652892741.411327)  can0  1E5   [8]  1C FF 05 50 00 00 01 AC
 (1652892741.414929)  can0  012   [8]  E8 03 10 00 00 00 00 00
 (1652892741.416280)  can0  014   [5]  00 00 00 0D 27
 (1652892741.421342)  can0  1E5   [8]  1C FF 05 70 00 00 01 CC
 (1652892741.424942)  can0  012   [8]  E8 03 10 00 00 00 00 00
 (1652892741.426446)  can0  014   [5]  00 00 00 10 27
 (1652892741.431508)  can0  1E5   [8]  1C FF 05 10 00 00 01 6C
 (1652892741.434930)  can0  012   [8]  E8 03 10 00 00 00 00 00
 (1652892741.436270)  can0  014   [5]  00 00 00 10 27
 (1652892741.441365)  can0  1E5   [8]  1C FF 05 30 00 00 01 8C
 (1652892741.444940)  can0  012   [8]  E8 03 10 00 00 00 00 00
 (1652892741.446280)  can0  014   [5]  00 00 00 10 27
 (1652892741.451330)  can0  1E5   [8]  1C FF 05 50 00 00 01 AC
 (1652892741.454934)  can0  012   [8]  E8 03 10 00 00 00 00 00
 (1652892741.456279)  can0  014   [5]  00 00 00 10 27
 (1652892741.461350)  can0  1E5   [8]  1C FF 05 70 00 00 01 CC
 (1652892741.464943)  can0  012   [8]  E8 03 10 00 00 00 00 00
 (1652892741.466284)  can0  014   [5]  00 00 00 10 27
 (1652892741.471490)  can0  1E5   [8]  1C FF 05 10 00 00 01 6C
 (1652892741.474927)  can0  012   [8]  E8 03 10 00 00 00 00 00
 (1652892741.476266)  can0  014   [5]  00 00 00 10 27
 (1652892741.481341)  can0  1E5   [8]  1C FF 05 30 00 00 01 8C
 (1652892741.484930)  can0  012   [8]  E8 03 10 00 00 00 00 00
 (1652892741.486279)  can0  014   [5]  00 00 00 10 27
 (1652892741.491484)  can0  1E5   [8]  1C FF 05 50 00 00 01 AC
 (1652892741.494934)  can0  012   [8]  E8 03 10 00 00 00 00 00
 (1652892741.496286)  can0  014   [5]  00 00 00 10 27
 (1652892741.501509)  can0  1E5   [8]  1C FF 05 70 00 00 01 CC
 (1652892741.504804)  can0  010   [4]  26 73 00 00
 (1652892741.504859)  can0  012   [8]  E8 03 10 00 00 00 00 00
 (1652892741.506356)  can0  014   [5]  01 00 00 13 27
 (1652892741.511334)  can0  1E5   [8]  1C FF 05 10 00 00 01 6C
 (1652892741.514933)  can0  012   [8]  E8 03 10 00 00 00 00 00
 (1652892741.516278)  can0  014   [5]  00 00 00 0D 27
 (1652892741.521504)  can0  1E5   [8]  1C FF 05 30 00 00 01 8C
 (1652892741.524933)  can0  012   [8]  E8 03 10 00 00 00 00 00
 (1652892741.526281)  can0  014   [5]  00 00 00 10 27
 (1652892741.531478)  can0  1E5   [8]  1C FF 05 50 00 00 01 AC
 (1652892741.534926)  can0  012   [8]  E8 03 10 00 00 00 00 00
 (1652892741.536263)  can0  014   [5]  00 00 00 10 27
 (1652892741.541488)  can0  1E5   [8]  1C FF 05 70 00 00 01 CC
 (1652892741.544973)  can0  012   [8]  E8 03 10 00 00 00 00 00
 (1652892741.546272)  can0  014   [5]  00 00 00 10 27
 (1652892741.551328)  can0  1E5   [8]  1C FF 05 10 00 00 01 6C
 (1652892741.554939)  can0  012   [8]  E8 03 10 00 00 00 00 00
 (1652892741.556286)  can0  014   [5]  00 00 00 10 27
 (1652892741.561490)  can0  1E5   [8]  1C FF 05 30 00 00 01 8C
 (1652892741.564938)  can0  012   [8]  E8 03 10 00 00 00 00 00
 (1652892741.566286)  can0  014   [5]  00 00 00 10 27
 (1652892741.571330)  can0  1E5   [8]  1C FF 05 50 00 00 01 AC
 (1652892741.574933)  can0  012   [8]  E8 03 10 00 00 00 00 00
 (1652892741.576279)  can0  014   [5]  00 00 00 10 27
 (1652892741.581495)  can0  1E5   [8]  1C FF 05 70 00 00 01 CC
 (1652892741.584940)  can0  012   [8]  E8 03 10 00 00 00 00 00
 (1652892741.586284)  can0  014   [5]  00 00 00 10 27
 (1652892741.591492)  can0  1E5   [8]  1C FF 05 10 00 00 01 6C
 (1652892741.594930)  can0  012   [8]  E8 03 10 00 00 00 00 00
 (1652892741.596262)  can0  014   [5]  00 00 00 10 27
 (1652892741.601515)  can0  1E5   [8]  1C FF 05 30 00 00 01 8C
 (1652892741.604783)  can0  010   [4]  26 73 00 00
 (1652892741.604837)  can0  012   [8]  E8 03 10 00 00 00 00 00
 (1652892741.606266)  can0  014   [5]  00 00 00 13 27
 (1652892741.611296)  can0  1E5   [8]  1C FF 05 50 00 00 01 AC
 (1652892741.614939)  can0  012   [8]  E8 03 10 00 00 00 00 00
 (1652892741.616285)  can0  014   [5]  00 00 00 0D 27
 (1652892741.621551)  can0  1E5   [8]  1C FF 05 70 00 00 01 CC
 (1652892741.624931)  can0  012   [8]  E8 03 10 00 00 00 00 00
 (1652892741.626274)  can0  014   [5]  00 00 00 10 27
 (1652892741.631540)  can0  1E5   [8]  1C FF 05 10 00 00 01 6C
 (1652892741.634931)  can0  012   [8]  E8 03 10 00 00 00 00 00
 (1652892741.636447)  can0  014   [5]  00 00 00 10 27
 (1652892741.641577)  can0  1E5   [8]  1C FF 05 30 00 00 01 8C
 (1652892741.644946)  can0  012   [8]  E8 03 10 00 00 00 00 00
 (1652892741.646267)  can0  014   [5]  00 00 00 10 27
 (1652892741.651366)  can0  1E5   [8]  1C FF 05 50 00 00 01 AC
 (1652892741.654945)  can0  012   [8]  E8 03 10 00 00 00 00 00
 (1652892741.656269)  can0  014   [5]  00 00 00 10 27
 (1652892741.661341)  can0  1E5   [8]  1C FF 05 70 00 00 01 CC
 (1652892741.664925)  can0  012   [8]  E8 03 10 00 00 00 00 00
 (1652892741.666278)  can0  014   [5]  00 00 00 10 27
 (1652892741.671320)  can0  1E5   [8]  1C FF 05 10 00 00 01 6C
 (1652892741.674924)  can0  012   [8]  E8 03 10 00 00 00 00 00
 (1652892741.676273)  can0  014   [5]  00 00 00 10 27
 (1652892741.681326)  can0  1E5   [8]  1C FF 05 30 00 00 01 8C
 (1652892741.684932)  can0  012   [8]  E8 03 10 00 00 00 00 00
 (1652892741.686280)  can0  014   [5]  FF 0F 00 10 27
 (1652892741.691329)  can0  1E5   [8]  1C FF 05 50 00 00 01 AC
 (1652892741.694939)  can0  012   [8]  E8 03 10 00 00 00 00 00
 (1652892741.696286)  can0  014   [5]  00 00 00 10 27
 (1652892741.701334)  can0  1E5   [8]  1C FF 05 70 00 00 01 CC
 (1652892741.704790)  can0  010   [4]  26 73 00 00
 (1652892741.704846)  can0  012   [8]  E8 03 10 00 00 00 00 00
 (1652892741.706261)  can0  014   [5]  00 00 00 13 27
 (1652892741.711327)  can0  1E5   [8]  1C FF 05 10 00 00 01 6C
 (1652892741.714926)  can0  012   [8]  E8 03 10 00 00 00 00 00
 (1652892741.716280)  can0  014   [5]  00 00 00 0D 27
 (1652892741.721485)  can0  1E5   [8]  1C FF 05 30 00 00 01 8C
 (1652892741.724785)  can0  012   [8]  E8 03 10 00 00 00 00 00
 (1652892741.726475)  can0  014   [5]  00 00 00 10 27
 (1652892741.731488)  can0  1E5   [8]  1C FF 05 50 00 00 01 AC
 (1652892741.734953)  can0  012   [8]  E8 03 10 00 00 00 00 00
 (1652892741.736264)  can0  014   [5]  00 00 00 10 27
 (1652892741.741328)  can0  1E5   [8]  1C FF 05 70 00 00 01 CC
 (1652892741.744923)  can0  012   [8]  E8 03 10 00 00 00 00 00
 (1652892741.746278)  can0  014   [5]  00 00 00 10 27
 (1652892741.751382)  can0  1E5   [8]  1C FF 05 10 00 00 01 6C
 (1652892741.754771)  can0  012   [8]  E8 03 10 00 00 00 00 00
 (1652892741.756258)  can0  014   [5]  00 00 00 10 27
 (1652892741.761318)  can0  1E5   [8]  1C FF 05 30 00 00 01 8C
 (1652892741.765099)  can0  012   [8]  E8 03 10 00 00 00 00 00
 (1652892741.766224)  can0  014   [5]  00 00 00 10 27
 (1652892741.771314)  can0  1E5   [8]  1C FF 05 50 00 00 01 AC
 (1652892741.774933)  can0  012   [8]  E8 03 10 00 00 00 00 00
