 (1652893237.635092)  can0  1E5   [8]  1C FF 33 1F FC 00 02 A5
 (1652893237.636288)  can0  014   [5]  FF FF FF 0D 27
 (1652893237.642378)  can0  012   [8]  E8 03 10 00 00 00 00 00
 (1652893237.645243)  can0  1E5   [8]  1C FF 32 3F FB 00 02 C3
 (1652893237.646269)  can0  014   [5]  00 00 00 10 27
 (1652893237.652329)  can0  012   [8]  E8 03 10 00 00 00 00 00
 (1652893237.655084)  can0  1E5   [8]  1C FF 32 5F FB 00 02 E3
 (1652893237.656287)  can0  014   [5]  FF 0F 00 10 27
 (1652893237.662360)  can0  012   [8]  E8 03 10 00 00 00 00 00
 (1652893237.665280)  can0  1E5   [8]  1C FF 32 7F FB 00 03 03
 (1652893237.666263)  can0  014   [5]  00 00 00 10 27
 (1652893237.672349)  can0  012   [8]  E8 03 10 00 00 00 00 00
 (1652893237.675286)  can0  1E5   [8]  1C FF 32 1F FB 00 02 A3
 (1652893237.676288)  can0  014   [5]  FF FF FF 10 27
 (1652893237.682358)  can0  012   [8]  E8 03 10 00 00 00 00 00
 (1652893237.685264)  can0  1E5   [8]  1C FF 30 3F FA 00 02 C0
 (1652893237.686277)  can0  014   [5]  00 00 00 10 27
 (1652893237.692334)  can0  012   [8]  E8 03 10 00 00 00 00 00
 (1652893237.695268)  can0  1E5   [8]  1C FF 30 5F FA 00 02 E0
 (1652893237.696284)  can0  014   [5]  FF FF FF 10 27
 (1652893237.702359)  can0  012   [8]  E8 03 10 00 00 00 00 00
 (1652893237.705110)  can0  1E5   [8]  1C FF 32 70 00 00 01 F9
 (1652893237.706277)  can0  014   [5]  00 00 00 10 27
 (1652893237.712341)  can0  012   [8]  E8 03 10 00 00 00 00 00
 (1652893237.715257)  can0  1E5   [8]  1C FF 30 10 00 00 01 97
 (1652893237.716275)  can0  014   [5]  FF 0F 00 10 27
 (1652893237.722335)  can0  012   [8]  E8 03 10 00 00 00 00 00
 (1652893237.722739)  can0  010   [4]  26 73 00 00
 (1652893237.725264)  can0  1E5   [8]  1C FF 30 30 00 00 01 B7
 (1652893237.726247)  can0  014   [5]  FF 0F 00 13 27
 (1652893237.732353)  can0  012   [8]  E8 03 10 00 00 00 00 00
 (1652893237.735267)  can0  1E5   [8]  1C FF 30 50 00 00 01 D7
 (1652893237.736252)  can0  014   [5]  00 F0 FF 0D 27
 (1652893237.742340)  can0  012   [8]  E8 03 10 00 00 00 00 00
 (1652893237.745267)  can0  1E5   [8]  1C FF 30 70 00 00 01 F7
 (1652893237.746264)  can0  014   [5]  FF 0F 00 10 27
 (1652893237.752351)  can0  012   [8]  E8 03 10 00 00 00 00 00
 (1652893237.755307)  can0  1E5   [8]  1C FF 30 10 00 00 01 97
 (1652893237.756252)  can0  014   [5]  00 00 00 10 27
 (1652893237.762347)  can0  012   [8]  E8 03 10 00 00 00 00 00
 (1652893237.765254)  can0  1E5   [8]  1C FF 30 30 00 00 01 B7
 (1652893237.766253)  can0  014   [5]  FF FF FF 10 27
 (1652893237.772351)  can0  012   [8]  E8 03 10 00 00 00 00 00
 (1652893237.775276)  can0  1E5   [8]  1C FF 30 50 00 00 01 D7
 (1652893237.776258)  can0  014   [5]  00 00 00 10 27
 (1652893237.782321)  can0  012   [8]  E8 03 10 00 00 00 00 00
 (1652893237.785279)  can0  1E5   [8]  1C FF 30 70 00 00 01 F7
 (1652893237.786257)  can0  014   [5]  FF 0F 00 10 27
 (1652893237.792327)  can0  012   [8]  E8 03 10 00 00 00 00 00
 (1652893237.795278)  can0  1E5   [8]  1C FF 30 10 00 00 01 97
 (1652893237.796252)  can0  014   [5]  FF 0F 00 10 27
 (1652893237.802319)  can0  012   [8]  E8 03 10 00 00 00 00 00
 (1652893237.805096)  can0  1E5   [8]  1C FF 30 30 00 00 01 B7
 (1652893237.806246)  can0  014   [5]  00 F0 FF 10 27
 (1652893237.812334)  can0  012   [8]  E8 03 10 00 00 00 00 00
 (1652893237.815266)  can0  1E5   [8]  1C FF 30 50 00 00 01 D7
 (1652893237.816249)  can0  014   [5]  FF 0F 00 10 27
 (1652893237.816368)  can0  0E4   [2]  28 00
 (1652893237.822327)  can0  012   [8]  E8 03 10 00 00 00 00 00
 (1652893237.822723)  can0  010   [4]  26 73 00 00
 (1652893237.825262)  can0  1E5   [8]  1C FF 30 70 00 00 01 F7
 (1652893237.826257)  can0  014   [5]  00 00 00 13 27
 (1652893237.832393)  can0  012   [8]  E8 03 10 00 00 00 00 00
 (1652893237.835252)  can0  1E5   [8]  1C FF 2E 1F FF 00 02 A3
 (1652893237.836263)  can0  014   [5]  00 00 00 0D 27
 (1652893237.842404)  can0  012   [8]  E8 03 10 00 00 00 00 00
 (1652893237.845243)  can0  1E5   [8]  1C FF 2E 3F FF 00 02 C3
 (1652893237.846258)  can0  014   [5]  00 00 00 10 27
 (1652893237.852388)  can0  012   [8]  E8 03 10 00 00 00 00 00
 (1652893237.855089)  can0  1E5   [8]  1C FF 2E 5F FF 00 02 E3
 (1652893237.856248)  can0  014   [5]  00 00 00 10 27
 (1652893237.862331)  can0  012   [8]  E8 03 10 00 00 00 00 00
 (1652893237.865262)  can0  1E5   [8]  1C FF 2E 7F FF 00 03 03
 (1652893237.866297)  can0  014   [5]  FF 0F 00 10 27
 (1652893237.872344)  can0  012   [8]  E8 03 10 00 00 00 00 00
 (1652893237.875246)  can0  1E5   [8]  1C FF 2E 1F FF 00 02 A3
 (1652893237.876247)  can0  014   [5]  00 F0 FF 10 27
 (1652893237.882324)  can0  012   [8]  E8 03 10 00 00 00 00 00
 (1652893237.885266)  can0  1E5   [8]  1C FF 2E 3F FF 00 02 C3
 (1652893237.886261)  can0  014   [5]  00 00 00 10 27
 (1652893237.892332)  can0  012   [8]  E8 03 10 00 00 00 00 00
 (1652893237.895244)  can0  1E5   [8]  1C FF 2E 5F FF 00 02 E3
 (1652893237.896262)  can0  014   [5]  FF 0F 00 10 27
 (1652893237.902326)  can0  012   [8]  E8 03 10 00 00 00 00 00
 (1652893237.905101)  can0  1E5   [8]  1C FF 2E 7F FF 00 03 03
 (1652893237.906290)  can0  014   [5]  00 00 00 10 27
 (1652893237.912323)  can0  012   [8]  E8 03 10 00 00 00 00 00
 (1652893237.915296)  can0  1E5   [8]  1C FF 2E 1F FF 00 02 A3
 (1652893237.916276)  can0  014   [5]  FF FF FF 10 27
 (1652893237.922356)  can0  012   [8]  E8 03 10 00 00 00 00 00
 (1652893237.922741)  can0  010   [4]  26 73 00 00
 (1652893237.925241)  can0  1E5   [8]  1C FF 2E 3F FF 00 02 C3
 (1652893237.926284)  can0  014   [5]  FF 0F 00 13 27
 (1652893237.932352)  can0  012   [8]  E8 03 10 00 00 00 00 00
 (1652893237.935255)  can0  1E5   [8]  1C FF 2E 50 00 00 01 D5
 (1652893237.936290)  can0  014   [5]  00 00 00 0D 27
 (1652893237.942367)  can0  012   [8]  E8 03 10 00 00 00 00 00
 (1652893237.945246)  can0  1E5   [8]  1C FF 2E 70 00 00 01 F5
 (1652893237.946284)  can0  014   [5]  FF FF FF 10 27
 (1652893237.952358)  can0  012   [8]  E8 03 10 00 00 00 00 00
 (1652893237.955058)  can0  1E5   [8]  1C FF 2E 10 00 00 01 95
 (1652893237.956276)  can0  014   [5]  FF 0F 00 10 27
 (1652893237.962326)  can0  012   [8]  E8 03 10 00 00 00 00 00
 (1652893237.965253)  can0  1E5   [8]  1C FF 2E 30 00 00 01 B5
 (1652893237.966272)  can0  014   [5]  00 F0 FF 10 27
 (1652893237.972356)  can0  012   [8]  E8 03 10 00 00 00 00 00
 (1652893237.975259)  can0  1E5   [8]  1C FF 2E 50 00 00 01 D5
 (1652893237.976258)  can0  014   [5]  FF 0F 00 10 27
 (1652893237.982328)  can0  012   [8]  E8 03 10 00 00 00 00 00
 (1652893237.985250)  can0  1E5   [8]  1C FF 2E 70 00 00 01 F5
 (1652893237.986263)  can0  014   [5]  00 F0 FF 10 27
 (1652893237.992336)  can0  012   [8]  E8 03 10 00 00 00 00 00
 (1652893237.995258)  can0  1E5   [8]  1C FF 2E 10 00 00 01 95
 (1652893237.996277)  can0  014   [5]  00 00 00 10 27
 (1652893238.002353)  can0  012   [8]  E8 03 10 00 00 00 00 00
 (1652893238.005088)  can0  1E5   [8]  1C FF 2E 30 00 00 01 B5
 (1652893238.006289)  can0  014   [5]  FF FF FF 10 27
 (1652893238.012348)  can0  012   [8]  E8 03 10 00 00 00 00 00
 (1652893238.015242)  can0  1E5   [8]  1C FF 2E 50 00 00 01 D5
 (1652893238.016246)  can0  014   [5]  00 00 00 10 27
 (1652893238.022355)  can0  012   [8]  E8 03 10 00 00 00 00 00
 (1652893238.022709)  can0  010   [4]  26 73 00 00
 (1652893238.025259)  can0  1E5   [8]  1C FF 2E 70 00 00 01 F5
 (1652893238.026258)  can0  014   [5]  00 00 00 13 27
 (1652893238.032324)  can0  012   [8]  E8 03 10 00 00 00 00 00
 (1652893238.035253)  can0  1E5   [8]  1C FF 2D 1F FF 00 02 A2
 (1652893238.036259)  can0  014   [5]  FF FF FF 0D 27
 (1652893238.042400)  can0  012   [8]  E8 03 10 00 00 00 00 00
 (1652893238.045253)  can0  1E5   [8]  1C FF 2D 3F FF 00 02 C2
 (1652893238.046252)  can0  014   [5]  00 00 00 10 27
 (1652893238.052326)  can0  012   [8]  E8 03 10 00 00 00 00 00
 (1652893238.055084)  can0  1E5   [8]  1C FF 2D 5F FF 00 02 E2
 (1652893238.056264)  can0  014   [5]  FF FF FF 10 27
 (1652893238.062330)  can0  012   [8]  E8 03 10 00 00 00 00 00
 (1652893238.065284)  can0  1E5   [8]  1C FF 2D 7F FF 00 03 02
 (1652893238.066252)  can0  014   [5]  00 00 00 10 27
 (1652893238.072356)  can0  012   [8]  E8 03 10 00 00 00 00 00
 (1652893238.075306)  can0  1E5   [8]  1C FF 2D 1F FF 00 02 A2
 (1652893238.076258)  can0  014   [5]  00 00 00 10 27
 (1652893238.082324)  can0  012   [8]  E8 03 10 00 00 00 00 00
 (1652893238.085329)  can0  1E5   [8]  1C FF 2D 3F FF 00 02 C2
 (1652893238.086258)  can0  014   [5]  FF FF FF 10 27
 (1652893238.092318)  can0  012   [8]  E8 03 10 00 00 00 00 00
 (1652893238.095351)  can0  1E5   [8]  1C FF 2D 5F FF 00 02 E2
 (1652893238.096236)  can0  014   [5]  00 00 00 10 27
 (1652893238.102355)  can0  012   [8]  E8 03 10 00 00 00 00 00
 (1652893238.105101)  can0  1E5   [8]  1C FF 2D 7F FF 00 03 02
 (1652893238.106269)  can0  014   [5]  00 00 00 10 27
 (1652893238.112354)  can0  012   [8]  E8 03 10 00 00 00 00 00
 (1652893238.115393)  can0  1E5   [8]  1C FF 2D 1F FF 00 02 A2
 (1652893238.116265)  can0  014   [5]  FF FF FF 10 27
 (1652893238.122358)  can0  012   [8]  E8 03 10 00 00 00 00 00
 (1652893238.122715)  can0  010   [4]  26 73 00 00
 (1652893238.125248)  can0  1E5   [8]  1C FF 2D 3F FF 00 02 C2
 (1652893238.126283)  can0  014   [5]  00 00 00 13 27
 (1652893238.132357)  can0  012   [8]  E8 03 10 00 00 00 00 00
 (1652893238.135086)  can0  1E5   [8]  1C FF 2D 50 00 00 01 D4
 (1652893238.136258)  can0  014   [5]  00 00 00 0D 27
 (1652893238.142413)  can0  012   [8]  E8 03 10 00 00 00 00 00
 (1652893238.145250)  can0  1E5   [8]  1C FF 2D 70 00 00 01 F4
 (1652893238.146274)  can0  014   [5]  FF 0F 00 10 27
 (1652893238.152344)  can0  012   [8]  E8 03 10 00 00 00 00 00
 (1652893238.155085)  can0  1E5   [8]  1C FF 2D 10 00 00 01 94
 (1652893238.156272)  can0  014   [5]  00 F0 FF 10 27
 (1652893238.162345)  can0  012   [8]  E8 03 10 00 00 00 00 00
 (1652893238.165081)  can0  1E5   [8]  1C FF 2D 30 00 00 01 B4
 (1652893238.166278)  can0  014   [5]  00 00 00 10 27
 (1652893238.172356)  can0  012   [8]  E8 03 10 00 00 00 00 00
 (1652893238.175244)  can0  1E5   [8]  1C FF 2D 50 00 00 01 D4
 (1652893238.176280)  can0  014   [5]  FF 0F 00 10 27
 (1652893238.182349)  can0  012   [8]  E8 03 10 00 00 00 00 00
 (1652893238.185250)  can0  1E5   [8]  1C FF 2D 70 00 00 01 F4
 (1652893238.186283)  can0  014   [5]  00 00 00 10 27
 (1652893238.192342)  can0  012   [8]  E8 03 10 00 00 00 00 00
 (1652893238.195255)  can0  1E5   [8]  1C FF 2D 10 00 00 01 94
 (1652893238.196283)  can0  014   [5]  00 00 00 10 27
 (1652893238.202353)  can0  012   [8]  E8 03 10 00 00 00 00 00
 (1652893238.205085)  can0  1E5   [8]  1C FF 2D 30 00 00 01 B4
 (1652893238.206277)  can0  014   [5]  00 F0 FF 10 27
 (1652893238.212323)  can0  012   [8]  E8 03 10 00 00 00 00 00
 (1652893238.215251)  can0  1E5   [8]  1C FF 2D 50 00 00 01 D4
 (1652893238.216279)  can0  014   [5]  FF 0F 00 10 27
 (1652893238.222360)  can0  012   [8]  E8 03 10 00 00 00 00 00
 (1652893238.222741)  can0  010   [4]  26 73 00 00
 (1652893238.225295)  can0  1E5   [8]  1C FF 2D 70 00 00 01 F4
 (1652893238.226270)  can0  014   [5]  00 00 00 13 27
 (1652893238.232352)  can0  012   [8]  E8 03 10 00 00 00 00 00
 (1652893238.235249)  can0  1E5   [8]  1C FF 2D 10 00 00 01 94
 (1652893238.236280)  can0  014   [5]  00 F0 FF 0D 27
 (1652893238.242342)  can0  012   [8]  E8 03 10 00 00 00 00 00
 (1652893238.245252)  can0  1E5   [8]  1C FF 2D 30 00 00 01 B4
 (1652893238.246280)  can0  014   [5]  00 00 00 10 27
 (1652893238.252358)  can0  012   [8]  E8 03 10 00 00 00 00 00
 (1652893238.255053)  can0  1E5   [8]  1C FF 2D 50 00 00 01 D4
 (1652893238.256248)  can0  014   [5]  FF 0F 00 10 27
 (1652893238.262327)  can0  012   [8]  E8 03 10 00 00 00 00 00
 (1652893238.265248)  can0  1E5   [8]  1C FF 2D 70 00 00 01 F4
 (1652893238.266270)  can0  014   [5]  00 00 00 10 27
 (1652893238.272352)  can0  012   [8]  E8 03 10 00 00 00 00 00
 (1652893238.275260)  can0  1E5   [8]  1C FF 2D 10 00 00 01 94
 (1652893238.276264)  can0  014   [5]  00 F0 FF 10 27
 (1652893238.282329)  can0  012   [8]  E8 03 10 00 00 00 00 00
 (1652893238.285253)  can0  1E5   [8]  1C FF 2D 30 00 00 01 B4
 (1652893238.286264)  can0  014   [5]  FF 0F 00 10 27
 (1652893238.292360)  can0  012   [8]  E8 03 10 00 00 00 00 00
 (1652893238.295242)  can0  1E5   [8]  1C FF 2D 50 00 00 01 D4
 (1652893238.296258)  can0  014   [5]  00 00 00 10 27
 (1652893238.302375)  can0  012   [8]  E8 03 10 00 00 00 00 00
 (1652893238.305090)  can0  1E5   [8]  1C FF 2D 70 00 00 01 F4
 (1652893238.306254)  can0  014   [5]  00 00 00 10 27
 (1652893238.312328)  can0  012   [8]  E8 03 10 00 00 00 00 00
 (1652893238.315239)  can0  1E5   [8]  1C FF 2D 10 00 00 01 94
 (1652893238.316253)  can0  014   [5]  00 F0 FF 10 27
 (1652893238.322325)  can0  012   [8]  E8 03 10 00 00 00 00 00
 (1652893238.322702)  can0  010   [4]  26 73 00 00
 (1652893238.325256)  can0  1E5   [8]  1C FF 2D 30 00 00 01 B4
 (1652893238.326247)  can0  014   [5]  FF 0F 00 13 27
 (1652893238.332360)  can0  012   [8]  E8 03 10 00 00 00 00 00
 (1652893238.335239)  can0  1E5   [8]  1C FF 2D 50 00 00 01 D4
 (1652893238.336246)  can0  014   [5]  00 00 00 0D 27
 (1652893238.342393)  can0  012   [8]  E8 03 10 00 00 00 00 00
 (1652893238.345244)  can0  1E5   [8]  1C FF 2D 70 00 00 01 F4
 (1652893238.346258)  can0  014   [5]  00 00 00 10 27
 (1652893238.352316)  can0  012   [8]  E8 03 10 00 00 00 00 00
 (1652893238.355312)  can0  1E5   [8]  1C FF 2D 10 00 00 01 94
 (1652893238.356258)  can0  014   [5]  00 00 00 10 27
 (1652893238.362325)  can0  012   [8]  E8 03 10 00 00 00 00 00
 (1652893238.365240)  can0  1E5   [8]  1C FF 2D 30 00 00 01 B4
 (1652893238.366258)  can0  014   [5]  00 F0 FF 10 27
 (1652893238.372336)  can0  012   [8]  E8 03 10 00 00 00 00 00
 (1652893238.375230)  can0  1E5   [8]  1C FF 2D 50 00 00 01 D4
 (1652893238.376271)  can0  014   [5]  FF 0F 00 10 27
 (1652893238.382335)  can0  012   [8]  E8 03 10 00 00 00 00 00
 (1652893238.385241)  can0  1E5   [8]  1C FF 2D 70 00 00 01 F4
 (1652893238.386277)  can0  014   [5]  00 00 00 10 27
 (1652893238.392353)  can0  012   [8]  E8 03 10 00 00 00 00 00
 (1652893238.395233)  can0  1E5   [8]  1C FF 2D 10 00 00 01 94
 (1652893238.396268)  can0  014   [5]  00 F0 FF 10 27
 (1652893238.402330)  can0  012   [8]  E8 03 10 00 00 00 00 00
 (1652893238.405079)  can0  1E5   [8]  1C FF 2D 30 00 00 01 B4
 (1652893238.406282)  can0  014   [5]  00 00 00 10 27
 (1652893238.412366)  can0  012   [8]  E8 03 10 00 00 00 00 00
 (1652893238.415253)  can0  1E5   [8]  1C FF 2D 50 00 00 01 D4
 (1652893238.416284)  can0  014   [5]  00 00 00 10 27
 (1652893238.422347)  can0  012   [8]  E8 03 10 00 00 00 00 00
 (1652893238.422747)  can0  010   [4]  26 73 00 00
 (1652893238.425244)  can0  1E5   [8]  1C FF 2D 70 00 00 01 F4
 (1652893238.426279)  can0  014   [5]  FF 0F 00 13 27
 (1652893238.432346)  can0  012   [8]  E8 03 10 00 00 00 00 00
 (1652893238.435065)  can0  1E5   [8]  1C FF 2D 10 00 00 01 94
 (1652893238.436264)  can0  014   [5]  00 00 00 0D 27
 (1652893238.442327)  can0  012   [8]  E8 03 10 00 00 00 00 00
 (1652893238.445205)  can0  1E5   [8]  1C FF 2D 30 00 00 01 B4
 (1652893238.446246)  can0  014   [5]  00 F0 FF 10 27
 (1652893238.452334)  can0  012   [8]  E8 03 10 00 00 00 00 00
 (1652893238.455113)  can0  1E5   [8]  1C FF 2D 50 00 00 01 D4
 (1652893238.456256)  can0  014   [5]  00 00 00 10 27
 (1652893238.462339)  can0  012   [8]  E8 03 10 00 00 00 00 00
 (1652893238.465224)  can0  1E5   [8]  1C FF 2D 70 00 00 01 F4
 (1652893238.466259)  can0  014   [5]  FF 0F 00 10 27
 (1652893238.472327)  can0  012   [8]  E8 03 10 00 00 00 00 00
 (1652893238.475240)  can0  1E5   [8]  1C FF 2D 10 00 00 01 94
 (1652893238.476252)  can0  014   [5]  00 00 00 10 27
 (1652893238.482334)  can0  012   [8]  E8 03 10 00 00 00 00 00
 (1652893238.485230)  can0  1E5   [8]  1C FF 2D 30 00 00 01 B4
 (1652893238.486252)  can0  014   [5]  00 F0 FF 10 27
 (1652893238.492328)  can0  012   [8]  E8 03 10 00 00 00 00 00
 (1652893238.495225)  can0  1E5   [8]  1C FF 2D 50 00 00 01 D4
 (1652893238.496272)  can0  014   [5]  FF 0F 00 10 27
 (1652893238.502325)  can0  012   [8]  E8 03 10 00 00 00 00 00
 (1652893238.505079)  can0  1E5   [8]  1C FF 2D 70 00 00 01 F4
 (1652893238.506282)  can0  014   [5]  00 00 00 10 27
 (1652893238.512329)  can0  012   [8]  E8 03 10 00 00 00 00 00
 (1652893238.515230)  can0  1E5   [8]  1C FF 2D 10 00 00 01 94
 (1652893238.516284)  can0  014   [5]  00 00 00 10 27
 (1652893238.522353)  can0  012   [8]  E8 03 10 00 00 00 00 00
 (1652893238.522435)  can0  0E3   [2]  50 00
 (1652893238.522743)  can0  010   [4]  26 73 00 00
 (1652893238.522842)  can0  0E2   [2]  50 00
 (1652893238.525161)  can0  1E5   [8]  1C FF 2D 30 00 00 01 B4
 (1652893238.526275)  can0  014   [5]  00 F0 FF 19 27
 (1652893238.532351)  can0  012   [8]  E8 03 10 00 00 00 00 00
 (1652893238.535274)  can0  1E5   [8]  1C FF 2D 50 00 00 01 D4
 (1652893238.536283)  can0  014   [5]  00 00 00 07 27
 (1652893238.542354)  can0  012   [8]  E8 03 10 00 00 00 00 00
 (1652893238.545229)  can0  1E5   [8]  1C FF 2D 70 00 00 01 F4
 (1652893238.546275)  can0  014   [5]  FF 0F 00 10 27
 (1652893238.552335)  can0  012   [8]  E8 03 10 00 00 00 00 00
 (1652893238.555067)  can0  1E5   [8]  1C FF 2D 10 00 00 01 94
 (1652893238.556270)  can0  014   [5]  00 00 00 10 27
 (1652893238.562343)  can0  012   [8]  E8 03 10 00 00 00 00 00
 (1652893238.565252)  can0  1E5   [8]  1C FF 2D 30 00 00 01 B4
 (1652893238.566278)  can0  014   [5]  00 F0 FF 10 27
 (1652893238.572345)  can0  012   [8]  E8 03 10 00 00 00 00 00
 (1652893238.575280)  can0  1E5   [8]  1C FF 2D 50 00 00 01 D4
 (1652893238.576263)  can0  014   [5]  00 00 00 10 27
 (1652893238.582324)  can0  012   [8]  E8 03 10 00 00 00 00 00
 (1652893238.585295)  can0  1E5   [8]  1C FF 2D 70 00 00 01 F4
 (1652893238.586245)  can0  014   [5]  00 00 00 10 27
 (1652893238.592344)  can0  012   [8]  E8 03 10 00 00 00 00 00
 (1652893238.595314)  can0  1E5   [8]  1C FF 2D 10 00 00 01 94
 (1652893238.596258)  can0  014   [5]  FF 0F 00 10 27
 (1652893238.602346)  can0  012   [8]  E8 03 10 00 00 00 00 00
 (1652893238.605068)  can0  1E5   [8]  1C FF 2D 30 00 00 01 B4
 (1652893238.606255)  can0  014   [5]  00 00 00 10 27
 (1652893238.612323)  can0  012   [8]  E8 03 10 00 00 00 00 00
 (1652893238.615354)  can0  1E5   [8]  1C FF 2D 50 00 00 01 D4
 (1652893238.616258)  can0  014   [5]  00 F0 FF 10 27
 (1652893238.622339)  can0  012   [8]  E8 03 10 00 00 00 00 00
 (1652893238.622707)  can0  010   [4]  26 73 00 00
 (1652893238.625369)  can0  1E5   [8]  1C FF 2D 70 00 00 01 F4
 (1652893238.626274)  can0  014   [5]  00 00 00 13 27
 (1652893238.632334)  can0  012   [8]  E8 03 10 00 00 00 00 00
 (1652893238.635232)  can0  1E5   [8]  1C FF 2D 10 00 00 01 94
 (1652893238.636246)  can0  014   [5]  00 00 00 0D 27
 (1652893238.642354)  can0  012   [8]  E8 03 10 00 00 00 00 00
 (1652893238.645228)  can0  1E5   [8]  1C FF 2D 30 00 00 01 B4
 (1652893238.646258)  can0  014   [5]  FF 0F 00 10 27
 (1652893238.652366)  can0  012   [8]  E8 03 10 00 00 00 00 00
 (1652893238.655051)  can0  1E5   [8]  1C FF 2D 50 00 00 01 D4
 (1652893238.656256)  can0  014   [5]  00 00 00 10 27
 (1652893238.662317)  can0  012   [8]  E8 03 10 00 00 00 00 00
 (1652893238.665235)  can0  1E5   [8]  1C FF 2D 70 00 00 01 F4
 (1652893238.666242)  can0  014   [5]  00 F0 FF 10 27
 (1652893238.672327)  can0  012   [8]  E8 03 10 00 00 00 00 00
 (1652893238.675228)  can0  1E5   [8]  1C FF 2D 10 00 00 01 94
 (1652893238.676254)  can0  014   [5]  00 00 00 10 27
 (1652893238.682318)  can0  012   [8]  E8 03 10 00 00 00 00 00
 (1652893238.685236)  can0  1E5   [8]  1C FF 2D 30 00 00 01 B4
 (1652893238.686253)  can0  014   [5]  00 00 00 10 27
 (1652893238.692326)  can0  012   [8]  E8 03 10 00 00 00 00 00
 (1652893238.695229)  can0  1E5   [8]  1C FF 2D 50 00 00 01 D4
 (1652893238.696248)  can0  014   [5]  FF 0F 00 10 27
 (1652893238.702323)  can0  012   [8]  E8 03 10 00 00 00 00 00
 (1652893238.705052)  can0  1E5   [8]  1C FF 2D 70 00 00 01 F4
 (1652893238.706279)  can0  014   [5]  00 00 00 10 27
 (1652893238.712342)  can0  012   [8]  E8 03 10 00 00 00 00 00
 (1652893238.715224)  can0  1E5   [8]  1C FF 2D 10 00 00 01 94
 (1652893238.716279)  can0  014   [5]  00 00 00 10 27
 (1652893238.722316)  can0  012   [8]  E8 03 10 00 00 00 00 00
 (1652893238.722734)  can0  010   [4]  26 73 00 00
 (1652893238.725236)  can0  1E5   [8]  1C FF 2D 30 00 00 01 B4
 (1652893238.726285)  can0  014   [5]  00 F0 FF 13 27
 (1652893238.732347)  can0  012   [8]  E8 03 10 00 00 00 00 00
 (1652893238.735219)  can0  1E5   [8]  1C FF 2D 50 00 00 01 D4
 (1652893238.736251)  can0  014   [5]  00 00 00 0D 27
 (1652893238.742322)  can0  012   [8]  E8 03 10 00 00 00 00 00
 (1652893238.745241)  can0  1E5   [8]  1C FF 2D 70 00 00 01 F4
 (1652893238.746283)  can0  014   [5]  00 00 00 10 27
 (1652893238.752336)  can0  012   [8]  E8 03 10 00 00 00 00 00
 (1652893238.755067)  can0  1E5   [8]  1C FF 2D 10 00 00 01 94
 (1652893238.756277)  can0  014   [5]  FF 0F 00 10 27
 (1652893238.762323)  can0  012   [8]  E8 03 10 00 00 00 00 00
 (1652893238.765223)  can0  1E5   [8]  1C FF 2D 30 00 00 01 B4
 (1652893238.766284)  can0  014   [5]  00 00 00 10 27
 (1652893238.772339)  can0  012   [8]  E8 03 10 00 00 00 00 00
 (1652893238.775213)  can0  1E5   [8]  1C FF 2D 50 00 00 01 D4
 (1652893238.776268)  can0  014   [5]  00 F0 FF 10 27
 (1652893238.782324)  can0  012   [8]  E8 03 10 00 00 00 00 00
 (1652893238.785053)  can0  1E5   [8]  1C FF 2D 70 00 00 01 F4
 (1652893238.786274)  can0  014   [5]  00 00 00 10 27
 (1652893238.792348)  can0  012   [8]  E8 03 10 00 00 00 00 00
 (1652893238.795224)  can0  1E5   [8]  1C FF 2D 10 00 00 01 94
 (1652893238.796283)  can0  014   [5]  00 00 00 10 27
 (1652893238.802345)  can0  012   [8]  E8 03 10 00 00 00 00 00
 (1652893238.805072)  can0  1E5   [8]  1C FF 2D 30 00 00 01 B4
 (1652893238.806278)  can0  014   [5]  00 00 00 10 27
 (1652893238.812344)  can0  012   [8]  E8 03 10 00 00 00 00 00
 (1652893238.815229)  can0  1E5   [8]  1C FF 2D 50 00 00 01 D4
 (1652893238.816304)  can0  014   [5]  00 00 00 10 27
 (1652893238.816371)  can0  0E4   [2]  50 00
 (1652893238.822364)  can0  012   [8]  E8 03 10 00 00 00 00 00
 (1652893238.822780)  can0  010   [4]  26 73 00 00
 (1652893238.825227)  can0  1E5   [8]  1C FF 2D 70 00 00 01 F4
 (1652893238.826278)  can0  014   [5]  FF 0F 00 13 27
 (1652893238.832327)  can0  012   [8]  E8 03 10 00 00 00 00 00
 (1652893238.835213)  can0  1E5   [8]  1C FF 2D 10 00 00 01 94
 (1652893238.836284)  can0  014   [5]  00 00 00 0D 27
 (1652893238.842355)  can0  012   [8]  E8 03 10 00 00 00 00 00
 (1652893238.845267)  can0  1E5   [8]  1C FF 2D 30 00 00 01 B4
 (1652893238.846271)  can0  014   [5]  00 F0 FF 10 27
 (1652893238.852356)  can0  012   [8]  E8 03 10 00 00 00 00 00
 (1652893238.855060)  can0  1E5   [8]  1C FF 2D 50 00 00 01 D4
 (1652893238.856285)  can0  014   [5]  00 00 00 10 27
 (1652893238.862322)  can0  012   [8]  E8 03 10 00 00 00 00 00
 (1652893238.865227)  can0  1E5   [8]  1C FF 2D 70 00 00 01 F4
 (1652893238.866281)  can0  014   [5]  00 00 00 10 27
 (1652893238.872321)  can0  012   [8]  E8 03 10 00 00 00 00 00
 (1652893238.875205)  can0  1E5   [8]  1C FF 2D 10 00 00 01 94
 (1652893238.876283)  can0  014   [5]  00 00 00 10 27
 (1652893238.882500)  can0  012   [8]  E8 03 10 00 00 00 00 00
 (1652893238.885216)  can0  1E5   [8]  1C FF 2D 30 00 00 01 B4
 (1652893238.886271)  can0  014   [5]  00 00 00 10 27
 (1652893238.892347)  can0  012   [8]  E8 03 10 00 00 00 00 00
 (1652893238.895216)  can0  1E5   [8]  1C FF 2B 5F FF 00 02 E0
 (1652893238.896278)  can0  014   [5]  FF 0F 00 10 27
 (1652893238.902360)  can0  012   [8]  E8 03 10 00 00 00 00 00
 (1652893238.905067)  can0  1E5   [8]  1C FF 2D 70 00 00 01 F4
 (1652893238.906284)  can0  014   [5]  00 F0 FF 10 27
 (1652893238.912325)  can0  012   [8]  E8 03 10 00 00 00 00 00
 (1652893238.915060)  can0  1E5   [8]  1C FF 2D 10 00 00 01 94
 (1652893238.916292)  can0  014   [5]  00 00 00 10 27
 (1652893238.922345)  can0  012   [8]  E8 03 10 00 00 00 00 00
 (1652893238.922715)  can0  010   [4]  26 73 00 00
 (1652893238.925210)  can0  1E5   [8]  1C FF 2D 30 00 00 01 B4
 (1652893238.926246)  can0  014   [5]  00 00 00 13 27
 (1652893238.932351)  can0  012   [8]  E8 03 10 00 00 00 00 00
 (1652893238.935224)  can0  1E5   [8]  1C FF 2D 50 00 00 01 D4
 (1652893238.936246)  can0  014   [5]  00 00 00 0D 27
 (1652893238.942348)  can0  012   [8]  E8 03 10 00 00 00 00 00
 (1652893238.945221)  can0  1E5   [8]  1C FF 2D 70 00 00 01 F4
 (1652893238.946258)  can0  014   [5]  FF 0F 00 10 27
 (1652893238.952309)  can0  012   [8]  E8 03 10 00 00 00 00 00
 (1652893238.955018)  can0  1E5   [8]  1C FF 2D 10 00 00 01 94
 (1652893238.956267)  can0  014   [5]  00 00 00 10 27
 (1652893238.962354)  can0  012   [8]  E8 03 10 00 00 00 00 00
 (1652893238.965227)  can0  1E5   [8]  1C FF 2D 30 00 00 01 B4
 (1652893238.966258)  can0  014   [5]  00 00 00 10 27
 (1652893238.972327)  can0  012   [8]  E8 03 10 00 00 00 00 00
