 (1652905425.296681)  can0  014   [5]  00 00 00 0D 27
 (1652905425.298442)  can0  1E5   [8]  1C 00 05 10 00 00 00 6D
 (1652905425.305809)  can0  012   [8]  E8 03 10 00 00 00 00 00
 (1652905425.306689)  can0  014   [5]  00 00 00 10 27
 (1652905425.308402)  can0  1E5   [8]  1C 00 05 30 00 00 00 8D
 (1652905425.315836)  can0  012   [8]  E8 03 10 00 00 00 00 00
 (1652905425.316705)  can0  014   [5]  00 00 00 10 27
 (1652905425.318402)  can0  1E5   [8]  1C 00 05 50 00 00 00 AD
 (1652905425.325995)  can0  012   [8]  E8 03 10 00 00 00 00 00
 (1652905425.326658)  can0  014   [5]  00 00 00 10 27
 (1652905425.328452)  can0  1E5   [8]  1C 00 05 70 00 00 00 CD
 (1652905425.336254)  can0  012   [8]  E8 03 10 00 00 00 00 00
 (1652905425.336660)  can0  014   [5]  00 00 00 10 27
 (1652905425.338615)  can0  1E5   [8]  1C 00 05 10 00 00 00 6D
 (1652905425.345856)  can0  012   [8]  E8 03 10 00 00 00 00 00
 (1652905425.346700)  can0  014   [5]  00 00 00 10 27
 (1652905425.348612)  can0  1E5   [8]  1C 00 05 30 00 00 00 8D
 (1652905425.356011)  can0  012   [8]  E8 03 10 00 00 00 00 00
 (1652905425.356674)  can0  014   [5]  00 00 00 10 27
 (1652905425.358609)  can0  1E5   [8]  1C 00 04 50 00 00 00 AC
 (1652905425.366011)  can0  012   [8]  E8 03 10 00 00 00 00 00
 (1652905425.366679)  can0  014   [5]  00 00 00 10 27
 (1652905425.368594)  can0  1E5   [8]  1C 00 04 70 00 00 00 CC
 (1652905425.376016)  can0  012   [8]  E8 03 10 00 00 00 00 00
 (1652905425.376677)  can0  014   [5]  00 00 00 10 27
 (1652905425.378602)  can0  1E5   [8]  1C 00 05 10 00 00 00 6D
 (1652905425.386016)  can0  012   [8]  E8 03 10 00 00 00 00 00
 (1652905425.386139)  can0  010   [4]  26 73 00 00
 (1652905425.386660)  can0  014   [5]  00 00 00 13 27
 (1652905425.388606)  can0  1E5   [8]  1C 00 04 30 00 00 00 8C
 (1652905425.395819)  can0  012   [8]  E8 03 10 00 00 00 00 00
 (1652905425.396668)  can0  014   [5]  00 00 00 0D 27
 (1652905425.398611)  can0  1E5   [8]  1C 00 05 50 00 00 00 AD
 (1652905425.405994)  can0  012   [8]  E8 03 10 00 00 00 00 00
 (1652905425.406673)  can0  014   [5]  00 00 00 10 27
 (1652905425.408404)  can0  1E5   [8]  1C 00 04 70 00 00 00 CC
 (1652905425.415836)  can0  012   [8]  E8 03 10 00 00 00 00 00
 (1652905425.416680)  can0  014   [5]  00 00 00 10 27
 (1652905425.418604)  can0  1E5   [8]  1C 00 04 10 00 00 00 6C
 (1652905425.425998)  can0  012   [8]  E8 03 10 00 00 00 00 00
 (1652905425.426670)  can0  014   [5]  00 00 00 10 27
 (1652905425.428681)  can0  1E5   [8]  1C 00 04 30 00 00 00 8C
 (1652905425.435989)  can0  012   [8]  E8 03 10 00 00 00 00 00
 (1652905425.436755)  can0  014   [5]  00 00 00 10 27
 (1652905425.438590)  can0  1E5   [8]  1C 00 05 50 00 00 00 AD
 (1652905425.446076)  can0  012   [8]  E8 03 10 00 00 00 00 00
 (1652905425.446671)  can0  014   [5]  00 00 00 10 27
 (1652905425.448595)  can0  1E5   [8]  1C 00 04 70 00 00 00 CC
 (1652905425.455997)  can0  012   [8]  E8 03 10 00 00 00 00 00
 (1652905425.456680)  can0  014   [5]  00 00 00 10 27
 (1652905425.458599)  can0  1E5   [8]  1C 00 05 10 00 00 00 6D
 (1652905425.465997)  can0  012   [8]  E8 03 10 00 00 00 00 00
 (1652905425.466770)  can0  014   [5]  00 00 00 10 27
 (1652905425.468597)  can0  1E5   [8]  1C 00 05 30 00 00 00 8D
 (1652905425.475988)  can0  012   [8]  E8 03 10 00 00 00 00 00
 (1652905425.476758)  can0  014   [5]  00 00 00 10 27
 (1652905425.478594)  can0  1E5   [8]  1C 00 05 50 00 00 00 AD
 (1652905425.485987)  can0  012   [8]  E8 03 10 00 00 00 00 00
 (1652905425.486145)  can0  010   [4]  26 73 00 00
 (1652905425.486666)  can0  014   [5]  00 00 00 13 27
 (1652905425.488596)  can0  1E5   [8]  1C 00 05 70 00 00 00 CD
 (1652905425.496018)  can0  012   [8]  E8 03 10 00 00 00 00 00
 (1652905425.496674)  can0  014   [5]  00 00 00 0D 27
 (1652905425.498592)  can0  1E5   [8]  1C 00 05 10 00 00 00 6D
 (1652905425.505995)  can0  012   [8]  E8 03 10 00 00 00 00 00
 (1652905425.506685)  can0  014   [5]  00 00 00 10 27
 (1652905425.508600)  can0  1E5   [8]  1C 00 05 30 00 00 00 8D
 (1652905425.515994)  can0  012   [8]  E8 03 10 00 00 00 00 00
 (1652905425.516665)  can0  014   [5]  00 00 00 10 27
 (1652905425.518604)  can0  1E5   [8]  1C 00 05 50 00 00 00 AD
 (1652905425.525989)  can0  012   [8]  E8 03 10 00 00 00 00 00
 (1652905425.526664)  can0  014   [5]  00 00 00 10 27
 (1652905425.528608)  can0  1E5   [8]  1C 00 04 70 00 00 00 CC
 (1652905425.535991)  can0  012   [8]  E8 03 10 00 00 00 00 00
 (1652905425.536666)  can0  014   [5]  00 00 00 10 27
 (1652905425.538591)  can0  1E5   [8]  1C 00 04 10 00 00 00 6C
 (1652905425.546030)  can0  012   [8]  E8 03 10 00 00 00 00 00
 (1652905425.546676)  can0  014   [5]  00 00 00 10 27
 (1652905425.548426)  can0  1E5   [8]  1C 00 04 30 00 00 00 8C
 (1652905425.555986)  can0  012   [8]  E8 03 10 00 00 00 00 00
 (1652905425.556658)  can0  014   [5]  00 F0 FF 10 27
 (1652905425.558602)  can0  1E5   [8]  1C 00 04 50 00 00 00 AC
 (1652905425.565986)  can0  012   [8]  E8 03 10 00 00 00 00 00
 (1652905425.566658)  can0  014   [5]  00 00 00 10 27
 (1652905425.568585)  can0  1E5   [8]  1C 00 04 70 00 00 00 CC
 (1652905425.575979)  can0  012   [8]  E8 03 10 00 00 00 00 00
 (1652905425.576669)  can0  014   [5]  00 00 00 10 27
 (1652905425.578602)  can0  1E5   [8]  1C 00 04 10 00 00 00 6C
 (1652905425.585997)  can0  012   [8]  E8 03 10 00 00 00 00 00
 (1652905425.586151)  can0  010   [4]  26 73 00 00
 (1652905425.586664)  can0  014   [5]  00 00 00 13 27
 (1652905425.588599)  can0  1E5   [8]  1C 00 04 30 00 00 00 8C
 (1652905425.596034)  can0  012   [8]  E8 03 10 00 00 00 00 00
 (1652905425.596682)  can0  014   [5]  00 00 00 0D 27
 (1652905425.598595)  can0  1E5   [8]  1C 00 04 50 00 00 00 AC
 (1652905425.606006)  can0  012   [8]  E8 03 10 00 00 00 00 00
 (1652905425.606660)  can0  014   [5]  00 00 00 10 27
 (1652905425.608610)  can0  1E5   [8]  1C 00 04 70 00 00 00 CC
 (1652905425.615990)  can0  012   [8]  E8 03 10 00 00 00 00 00
 (1652905425.616664)  can0  014   [5]  00 00 00 10 27
 (1652905425.618606)  can0  1E5   [8]  1C 00 04 10 00 00 00 6C
 (1652905425.625999)  can0  012   [8]  E8 03 10 00 00 00 00 00
 (1652905425.626671)  can0  014   [5]  00 00 00 10 27
 (1652905425.628597)  can0  1E5   [8]  1C 00 04 30 00 00 00 8C
 (1652905425.635985)  can0  012   [8]  E8 03 10 00 00 00 00 00
 (1652905425.636674)  can0  014   [5]  00 00 00 10 27
 (1652905425.638592)  can0  1E5   [8]  1C 00 04 50 00 00 00 AC
 (1652905425.646020)  can0  012   [8]  E8 03 10 00 00 00 00 00
 (1652905425.646679)  can0  014   [5]  00 00 00 10 27
 (1652905425.648595)  can0  1E5   [8]  1C 00 04 70 00 00 00 CC
 (1652905425.656030)  can0  012   [8]  E8 03 10 00 00 00 00 00
 (1652905425.656685)  can0  014   [5]  00 00 00 10 27
 (1652905425.658616)  can0  1E5   [8]  1C 00 04 10 00 00 00 6C
 (1652905425.665980)  can0  012   [8]  E8 03 10 00 00 00 00 00
 (1652905425.666679)  can0  014   [5]  00 00 00 10 27
 (1652905425.668388)  can0  1E5   [8]  1C 00 04 30 00 00 00 8C
 (1652905425.675990)  can0  012   [8]  E8 03 10 00 00 00 00 00
 (1652905425.676666)  can0  014   [5]  00 00 00 10 27
 (1652905425.678617)  can0  1E5   [8]  1C 00 04 50 00 00 00 AC
 (1652905425.685986)  can0  012   [8]  E8 03 10 00 00 00 00 00
 (1652905425.686151)  can0  010   [4]  26 73 00 00
 (1652905425.686661)  can0  014   [5]  00 00 00 13 27
 (1652905425.688641)  can0  1E5   [8]  1C 00 04 70 00 00 00 CC
 (1652905425.696027)  can0  012   [8]  E8 03 10 00 00 00 00 00
 (1652905425.696671)  can0  014   [5]  FF 0F 00 0D 27
 (1652905425.698664)  can0  1E5   [8]  1C 00 04 10 00 00 00 6C
 (1652905425.705984)  can0  012   [8]  E8 03 10 00 00 00 00 00
 (1652905425.706662)  can0  014   [5]  00 00 00 10 27
 (1652905425.708672)  can0  1E5   [8]  1C 00 04 30 00 00 00 8C
 (1652905425.715974)  can0  012   [8]  E8 03 10 00 00 00 00 00
 (1652905425.716677)  can0  014   [5]  00 00 00 10 27
 (1652905425.718682)  can0  1E5   [8]  1C 00 04 50 00 00 00 AC
 (1652905425.726023)  can0  012   [8]  E8 03 10 00 00 00 00 00
 (1652905425.726669)  can0  014   [5]  00 00 00 10 27
 (1652905425.728705)  can0  1E5   [8]  1C 00 04 70 00 00 00 CC
 (1652905425.736011)  can0  012   [8]  E8 03 10 00 00 00 00 00
 (1652905425.736670)  can0  014   [5]  00 00 00 10 27
 (1652905425.738731)  can0  1E5   [8]  1C 00 04 10 00 00 00 6C
 (1652905425.746038)  can0  012   [8]  E8 03 10 00 00 00 00 00
 (1652905425.746680)  can0  014   [5]  00 00 00 10 27
 (1652905425.748608)  can0  1E5   [8]  1C 00 04 30 00 00 00 8C
 (1652905425.756041)  can0  012   [8]  E8 03 10 00 00 00 00 00
 (1652905425.756696)  can0  014   [5]  00 00 00 10 27
 (1652905425.758611)  can0  1E5   [8]  1C 00 04 50 00 00 00 AC
 (1652905425.766019)  can0  012   [8]  E8 03 10 00 00 00 00 00
 (1652905425.766654)  can0  014   [5]  00 00 00 10 27
 (1652905425.768591)  can0  1E5   [8]  1C 00 04 70 00 00 00 CC
 (1652905425.776032)  can0  012   [8]  E8 03 10 00 00 00 00 00
 (1652905425.776674)  can0  014   [5]  00 00 00 10 27
 (1652905425.778607)  can0  1E5   [8]  1C 00 04 10 00 00 00 6C
 (1652905425.786059)  can0  012   [8]  E8 03 10 00 00 00 00 00
 (1652905425.786140)  can0  010   [4]  26 73 00 00
 (1652905425.786696)  can0  014   [5]  00 00 00 13 27
 (1652905425.788591)  can0  1E5   [8]  1C 00 04 30 00 00 00 8C
 (1652905425.795810)  can0  012   [8]  E8 03 10 00 00 00 00 00
 (1652905425.796668)  can0  014   [5]  00 00 00 0D 27
 (1652905425.798440)  can0  1E5   [8]  1C 00 04 50 00 00 00 AC
 (1652905425.805837)  can0  012   [8]  E8 03 10 00 00 00 00 00
 (1652905425.806687)  can0  014   [5]  00 00 00 10 27
 (1652905425.808423)  can0  1E5   [8]  1C 00 04 70 00 00 00 CC
 (1652905425.816148)  can0  012   [8]  E8 03 10 00 00 00 00 00
 (1652905425.816682)  can0  014   [5]  00 00 00 10 27
 (1652905425.818388)  can0  1E5   [8]  1C 00 02 1F FF 00 01 78
 (1652905425.826005)  can0  012   [8]  E8 03 10 00 00 00 00 00
 (1652905425.826682)  can0  014   [5]  00 00 00 10 27
 (1652905425.828591)  can0  1E5   [8]  1C 00 04 30 00 00 00 8C
 (1652905425.835822)  can0  012   [8]  E8 03 10 00 00 00 00 00
 (1652905425.836674)  can0  014   [5]  00 00 00 10 27
 (1652905425.838598)  can0  1E5   [8]  1C 00 02 50 00 00 00 AA
 (1652905425.845812)  can0  012   [8]  E8 03 10 00 00 00 00 00
 (1652905425.846662)  can0  014   [5]  00 00 00 10 27
 (1652905425.848599)  can0  1E5   [8]  1C 00 02 70 00 00 00 CA
 (1652905425.856188)  can0  012   [8]  E8 03 10 00 00 00 00 00
 (1652905425.856670)  can0  014   [5]  00 00 00 10 27
 (1652905425.858388)  can0  1E5   [8]  1C 00 02 10 00 00 00 6A
 (1652905425.865820)  can0  012   [8]  E8 03 10 00 00 00 00 00
 (1652905425.866667)  can0  014   [5]  00 00 00 10 27
 (1652905425.868605)  can0  1E5   [8]  1C 00 02 30 00 00 00 8A
 (1652905425.876013)  can0  012   [8]  E8 03 10 00 00 00 00 00
 (1652905425.876669)  can0  014   [5]  00 00 00 10 27
 (1652905425.878595)  can0  1E5   [8]  1C 00 02 50 00 00 00 AA
 (1652905425.885991)  can0  012   [8]  E8 03 10 00 00 00 00 00
 (1652905425.886146)  can0  010   [4]  26 73 00 00
 (1652905425.886661)  can0  014   [5]  00 00 00 13 27
 (1652905425.888587)  can0  1E5   [8]  1C 00 02 70 00 00 00 CA
 (1652905425.896217)  can0  012   [8]  E8 03 10 00 00 00 00 00
 (1652905425.896675)  can0  014   [5]  00 00 00 0D 27
 (1652905425.898415)  can0  1E5   [8]  1C 00 02 10 00 00 00 6A
 (1652905425.905998)  can0  012   [8]  E8 03 10 00 00 00 00 00
 (1652905425.906672)  can0  014   [5]  00 00 00 10 27
 (1652905425.908600)  can0  1E5   [8]  1C 00 02 30 00 00 00 8A
 (1652905425.916009)  can0  012   [8]  E8 03 10 00 00 00 00 00
 (1652905425.916682)  can0  014   [5]  00 00 00 10 27
 (1652905425.918584)  can0  1E5   [8]  1C 00 02 50 00 00 00 AA
 (1652905425.925992)  can0  012   [8]  E8 03 10 00 00 00 00 00
 (1652905425.926689)  can0  014   [5]  00 00 00 10 27
 (1652905425.928593)  can0  1E5   [8]  1C 00 02 70 00 00 00 CA
 (1652905425.936007)  can0  012   [8]  E8 03 10 00 00 00 00 00
 (1652905425.936680)  can0  014   [5]  00 00 00 10 27
 (1652905425.938590)  can0  1E5   [8]  1C 00 02 10 00 00 00 6A
 (1652905425.945813)  can0  012   [8]  E8 03 10 00 00 00 00 00
 (1652905425.946662)  can0  014   [5]  00 00 00 10 27
 (1652905425.948590)  can0  1E5   [8]  1C 00 02 30 00 00 00 8A
 (1652905425.955986)  can0  012   [8]  E8 03 10 00 00 00 00 00
 (1652905425.956755)  can0  014   [5]  00 00 00 10 27
 (1652905425.958595)  can0  1E5   [8]  1C 00 02 50 00 00 00 AA
 (1652905425.966031)  can0  012   [8]  E8 03 10 00 00 00 00 00
 (1652905425.966690)  can0  014   [5]  00 00 00 10 27
 (1652905425.968599)  can0  1E5   [8]  1C 00 02 70 00 00 00 CA
 (1652905425.975993)  can0  012   [8]  E8 03 10 00 00 00 00 00
 (1652905425.976671)  can0  014   [5]  00 00 00 10 27
 (1652905425.978588)  can0  1E5   [8]  1C 00 02 10 00 00 00 6A
 (1652905425.985989)  can0  012   [8]  E8 03 10 00 00 00 00 00
 (1652905425.986145)  can0  010   [4]  26 73 00 00
 (1652905425.986671)  can0  014   [5]  00 00 00 13 27
 (1652905425.988586)  can0  1E5   [8]  1C 00 02 30 00 00 00 8A
 (1652905425.996097)  can0  012   [8]  E8 03 10 00 00 00 00 00
 (1652905425.996676)  can0  014   [5]  00 00 00 0D 27
 (1652905425.998577)  can0  1E5   [8]  1C 00 02 50 00 00 00 AA
 (1652905426.005988)  can0  012   [8]  E8 03 10 00 00 00 00 00
 (1652905426.006681)  can0  014   [5]  00 00 00 10 27
 (1652905426.008585)  can0  1E5   [8]  1C 00 02 70 00 00 00 CA
 (1652905426.015985)  can0  012   [8]  E8 03 10 00 00 00 00 00
 (1652905426.016662)  can0  014   [5]  00 F0 FF 10 27
 (1652905426.018471)  can0  1E5   [8]  1C 00 02 10 00 00 00 6A
 (1652905426.025971)  can0  012   [8]  E8 03 10 00 00 00 00 00
 (1652905426.026669)  can0  014   [5]  00 00 00 10 27
 (1652905426.028433)  can0  1E5   [8]  1C 00 02 30 00 00 00 8A
 (1652905426.035978)  can0  012   [8]  E8 03 10 00 00 00 00 00
 (1652905426.036682)  can0  014   [5]  FF 0F 00 10 27
 (1652905426.038592)  can0  1E5   [8]  1C 00 02 50 00 00 00 AA
 (1652905426.046025)  can0  012   [8]  E8 03 10 00 00 00 00 00
 (1652905426.046665)  can0  014   [5]  00 00 00 10 27
 (1652905426.048590)  can0  1E5   [8]  1C 00 04 70 00 00 00 CC
 (1652905426.055995)  can0  012   [8]  E8 03 10 00 00 00 00 00
 (1652905426.056668)  can0  014   [5]  00 00 00 10 27
 (1652905426.058589)  can0  1E5   [8]  1C 00 04 10 00 00 00 6C
 (1652905426.066042)  can0  012   [8]  E8 03 10 00 00 00 00 00
 (1652905426.066696)  can0  014   [5]  00 00 00 10 27
 (1652905426.068588)  can0  1E5   [8]  1C 00 04 30 00 00 00 8C
 (1652905426.075996)  can0  012   [8]  E8 03 10 00 00 00 00 00
 (1652905426.076672)  can0  014   [5]  00 00 00 10 27
 (1652905426.078586)  can0  1E5   [8]  1C 00 04 50 00 00 00 AC
 (1652905426.085997)  can0  012   [8]  E8 03 10 00 00 00 00 00
 (1652905426.086146)  can0  010   [4]  26 73 00 00
 (1652905426.086674)  can0  014   [5]  00 00 00 13 27
 (1652905426.088573)  can0  1E5   [8]  1C 00 04 70 00 00 00 CC
 (1652905426.096014)  can0  012   [8]  E8 03 10 00 00 00 00 00
 (1652905426.096675)  can0  014   [5]  00 00 00 0D 27
 (1652905426.098647)  can0  1E5   [8]  1C 00 04 10 00 00 00 6C
 (1652905426.105981)  can0  012   [8]  E8 03 10 00 00 00 00 00
 (1652905426.106670)  can0  014   [5]  00 00 00 10 27
 (1652905426.108585)  can0  1E5   [8]  1C 00 04 30 00 00 00 8C
 (1652905426.115984)  can0  012   [8]  E8 03 10 00 00 00 00 00
 (1652905426.116671)  can0  014   [5]  00 00 00 10 27
 (1652905426.118585)  can0  1E5   [8]  1C 00 04 50 00 00 00 AC
 (1652905426.125981)  can0  012   [8]  E8 03 10 00 00 00 00 00
 (1652905426.126670)  can0  014   [5]  00 00 00 10 27
 (1652905426.128572)  can0  1E5   [8]  1C 00 04 70 00 00 00 CC
 (1652905426.135980)  can0  012   [8]  E8 03 10 00 00 00 00 00
 (1652905426.136670)  can0  014   [5]  00 00 00 10 27
 (1652905426.138588)  can0  1E5   [8]  1C 00 04 10 00 00 00 6C
 (1652905426.146018)  can0  012   [8]  E8 03 10 00 00 00 00 00
 (1652905426.146665)  can0  014   [5]  00 00 00 10 27
 (1652905426.148571)  can0  1E5   [8]  1C 00 04 30 00 00 00 8C
 (1652905426.155982)  can0  012   [8]  E8 03 10 00 00 00 00 00
 (1652905426.156677)  can0  014   [5]  00 00 00 10 27
 (1652905426.158571)  can0  1E5   [8]  1C 00 04 50 00 00 00 AC
 (1652905426.165972)  can0  012   [8]  E8 03 10 00 00 00 00 00
 (1652905426.166677)  can0  014   [5]  00 00 00 10 27
 (1652905426.168594)  can0  1E5   [8]  1C 00 04 70 00 00 00 CC
 (1652905426.175995)  can0  012   [8]  E8 03 10 00 00 00 00 00
 (1652905426.176674)  can0  014   [5]  00 00 00 10 27
 (1652905426.178599)  can0  1E5   [8]  1C 00 04 10 00 00 00 6C
 (1652905426.185978)  can0  012   [8]  E8 03 10 00 00 00 00 00
 (1652905426.185986)  can0  0E3   [2]  08 02
 (1652905426.186139)  can0  010   [4]  26 73 00 00
 (1652905426.186272)  can0  0E2   [2]  08 02
 (1652905426.186670)  can0  014   [5]  00 00 00 19 27
 (1652905426.186803)  can0  0E4   [2]  08 02
 (1652905426.188597)  can0  1E5   [8]  1C 00 04 30 00 00 00 8C
 (1652905426.196011)  can0  012   [8]  E8 03 10 00 00 00 00 00
 (1652905426.196669)  can0  014   [5]  00 00 00 07 27
 (1652905426.198621)  can0  1E5   [8]  1C 00 04 50 00 00 00 AC
 (1652905426.205975)  can0  012   [8]  E8 03 10 00 00 00 00 00
 (1652905426.206670)  can0  014   [5]  00 00 00 10 27
 (1652905426.208650)  can0  1E5   [8]  1C 00 04 70 00 00 00 CC
 (1652905426.216015)  can0  012   [8]  E8 03 10 00 00 00 00 00
 (1652905426.216674)  can0  014   [5]  00 00 00 10 27
 (1652905426.218661)  can0  1E5   [8]  1C 00 04 10 00 00 00 6C
 (1652905426.225992)  can0  012   [8]  E8 03 10 00 00 00 00 00
 (1652905426.226689)  can0  014   [5]  00 00 00 10 27
 (1652905426.228375)  can0  1E5   [8]  1C 00 04 30 00 00 00 8C
 (1652905426.235980)  can0  012   [8]  E8 03 10 00 00 00 00 00
 (1652905426.236678)  can0  014   [5]  00 00 00 10 27
 (1652905426.238671)  can0  1E5   [8]  1C 00 04 50 00 00 00 AC
 (1652905426.245991)  can0  012   [8]  E8 03 10 00 00 00 00 00
 (1652905426.246681)  can0  014   [5]  00 00 00 10 27
 (1652905426.248707)  can0  1E5   [8]  1C 00 04 70 00 00 00 CC
 (1652905426.255825)  can0  012   [8]  E8 03 10 00 00 00 00 00
 (1652905426.256658)  can0  014   [5]  00 00 00 10 27
 (1652905426.258726)  can0  1E5   [8]  1C 00 04 10 00 00 00 6C
 (1652905426.265977)  can0  012   [8]  E8 03 10 00 00 00 00 00
 (1652905426.266671)  can0  014   [5]  00 00 00 10 27
 (1652905426.268572)  can0  1E5   [8]  1C 00 04 30 00 00 00 8C
 (1652905426.276029)  can0  012   [8]  E8 03 10 00 00 00 00 00
 (1652905426.276680)  can0  014   [5]  00 00 00 10 27
 (1652905426.278580)  can0  1E5   [8]  1C 00 04 50 00 00 00 AC
 (1652905426.285992)  can0  012   [8]  E8 03 10 00 00 00 00 00
 (1652905426.286145)  can0  010   [4]  26 73 00 00
 (1652905426.286659)  can0  014   [5]  00 00 00 13 27
 (1652905426.288539)  can0  1E5   [8]  1C 00 04 70 00 00 00 CC
 (1652905426.296139)  can0  012   [8]  E8 03 10 00 00 00 00 00
 (1652905426.296671)  can0  014   [5]  00 00 00 0D 27
 (1652905426.298578)  can0  1E5   [8]  1C 00 04 10 00 00 00 6C
 (1652905426.306079)  can0  012   [8]  E8 03 10 00 00 00 00 00
 (1652905426.306687)  can0  014   [5]  FF 0F 00 10 27
 (1652905426.308398)  can0  1E5   [8]  1C 00 04 30 00 00 00 8C
 (1652905426.315952)  can0  012   [8]  E8 03 10 00 00 00 00 00
 (1652905426.316721)  can0  014   [5]  00 00 00 10 27
 (1652905426.318569)  can0  1E5   [8]  1C 00 04 50 00 00 00 AC
 (1652905426.326098)  can0  012   [8]  E8 03 10 00 00 00 00 00
 (1652905426.326677)  can0  014   [5]  00 00 00 10 27
 (1652905426.328370)  can0  1E5   [8]  1C 00 05 70 01 00 00 CE
 (1652905426.335875)  can0  012   [8]  E8 03 10 00 00 00 00 00
 (1652905426.336683)  can0  014   [5]  00 00 00 10 27
 (1652905426.338567)  can0  1E5   [8]  1C 00 05 10 01 00 00 6E
 (1652905426.346091)  can0  012   [8]  E8 03 10 00 00 00 00 00
 (1652905426.346718)  can0  014   [5]  00 00 00 10 27
 (1652905426.348575)  can0  1E5   [8]  1C 00 05 30 01 00 00 8E
 (1652905426.356150)  can0  012   [8]  E8 03 10 00 00 00 00 00
 (1652905426.356703)  can0  014   [5]  00 00 00 10 27
 (1652905426.358585)  can0  1E5   [8]  1C 00 05 50 01 00 00 AE
 (1652905426.366010)  can0  012   [8]  E8 03 10 00 00 00 00 00
 (1652905426.366702)  can0  014   [5]  00 00 00 10 27
 (1652905426.368565)  can0  1E5   [8]  1C 00 05 70 01 00 00 CE
 (1652905426.376231)  can0  012   [8]  E8 03 10 00 00 00 00 00
 (1652905426.376710)  can0  014   [5]  00 F0 FF 10 27
 (1652905426.378578)  can0  1E5   [8]  1C 00 05 10 01 00 00 6E
 (1652905426.385992)  can0  012   [8]  E8 03 10 00 00 00 00 00
 (1652905426.386189)  can0  010   [4]  26 73 00 00
 (1652905426.386699)  can0  014   [5]  00 00 00 13 27
 (1652905426.388574)  can0  1E5   [8]  1C 00 05 30 01 00 00 8E
 (1652905426.396180)  can0  012   [8]  E8 03 10 00 00 00 00 00
 (1652905426.396709)  can0  014   [5]  00 00 00 0D 27
 (1652905426.398573)  can0  1E5   [8]  1C 00 05 50 01 00 00 AE
 (1652905426.406008)  can0  012   [8]  E8 03 10 00 00 00 00 00
 (1652905426.406710)  can0  014   [5]  00 00 00 10 27
 (1652905426.408560)  can0  1E5   [8]  1C 00 05 70 01 00 00 CE
 (1652905426.415978)  can0  012   [8]  E8 03 10 00 00 00 00 00
 (1652905426.416683)  can0  014   [5]  00 00 00 10 27
 (1652905426.418568)  can0  1E5   [8]  1C 00 05 10 01 00 00 6E
 (1652905426.425808)  can0  012   [8]  E8 03 10 00 00 00 00 00
 (1652905426.426695)  can0  014   [5]  00 00 00 10 27
 (1652905426.428367)  can0  1E5   [8]  1C 00 05 30 00 00 00 8D
 (1652905426.435817)  can0  012   [8]  E8 03 10 00 00 00 00 00
 (1652905426.436724)  can0  014   [5]  00 00 00 10 27
 (1652905426.438397)  can0  1E5   [8]  1C 00 05 50 00 00 00 AD
 (1652905426.445800)  can0  012   [8]  E8 03 10 00 00 00 00 00
 (1652905426.446655)  can0  014   [5]  00 00 00 10 27
 (1652905426.448388)  can0  1E5   [8]  1C 00 05 70 00 00 00 CD
 (1652905426.455805)  can0  012   [8]  E8 03 10 00 00 00 00 00
 (1652905426.456666)  can0  014   [5]  00 00 00 10 27
 (1652905426.458389)  can0  1E5   [8]  1C 00 05 10 00 00 00 6D
 (1652905426.465825)  can0  012   [8]  E8 03 10 00 00 00 00 00
 (1652905426.466697)  can0  014   [5]  00 00 00 10 27
 (1652905426.468401)  can0  1E5   [8]  1C 00 05 30 00 00 00 8D
 (1652905426.475818)  can0  012   [8]  E8 03 10 00 00 00 00 00
 (1652905426.476678)  can0  014   [5]  00 00 00 10 27
 (1652905426.478402)  can0  1E5   [8]  1C 00 05 50 00 00 00 AD
 (1652905426.485832)  can0  012   [8]  E8 03 10 00 00 00 00 00
 (1652905426.486152)  can0  010   [4]  26 73 00 00
 (1652905426.486694)  can0  014   [5]  00 00 00 13 27
 (1652905426.488577)  can0  1E5   [8]  1C 00 05 70 00 00 00 CD
 (1652905426.495819)  can0  012   [8]  E8 03 10 00 00 00 00 00
 (1652905426.496672)  can0  014   [5]  00 00 00 0D 27
 (1652905426.498554)  can0  1E5   [8]  1C 00 05 10 00 00 00 6D
 (1652905426.506010)  can0  012   [8]  E8 03 10 00 00 00 00 00
 (1652905426.506668)  can0  014   [5]  00 00 00 10 27
 (1652905426.508362)  can0  1E5   [8]  1C 00 05 30 00 00 00 8D
 (1652905426.515792)  can0  012   [8]  E8 03 10 00 00 00 00 00
 (1652905426.516689)  can0  014   [5]  00 00 00 10 27
 (1652905426.518563)  can0  1E5   [8]  1C 00 05 50 00 00 00 AD
 (1652905426.525836)  can0  012   [8]  E8 03 10 00 00 00 00 00
 (1652905426.526694)  can0  014   [5]  00 00 00 10 27
 (1652905426.528556)  can0  1E5   [8]  1C 00 05 70 00 00 00 CD
 (1652905426.536012)  can0  012   [8]  E8 03 10 00 00 00 00 00
 (1652905426.536709)  can0  014   [5]  00 00 00 10 27
 (1652905426.538569)  can0  1E5   [8]  1C 00 05 10 00 00 00 6D
 (1652905426.545793)  can0  012   [8]  E8 03 10 00 00 00 00 00
 (1652905426.546664)  can0  014   [5]  00 00 00 10 27
 (1652905426.548406)  can0  1E5   [8]  1C 00 05 30 00 00 00 8D
 (1652905426.555811)  can0  012   [8]  E8 03 10 00 00 00 00 00
 (1652905426.556708)  can0  014   [5]  00 00 00 10 27
 (1652905426.558364)  can0  1E5   [8]  1C 00 05 50 00 00 00 AD
 (1652905426.565837)  can0  012   [8]  E8 03 10 00 00 00 00 00
 (1652905426.566682)  can0  014   [5]  00 00 00 10 27
 (1652905426.568404)  can0  1E5   [8]  1C 00 05 70 00 00 00 CD
 (1652905426.575813)  can0  012   [8]  E8 03 10 00 00 00 00 00
 (1652905426.576684)  can0  014   [5]  00 00 00 10 27
 (1652905426.578392)  can0  1E5   [8]  1C 00 05 10 00 00 00 6D
 (1652905426.585991)  can0  012   [8]  E8 03 10 00 00 00 00 00
 (1652905426.586134)  can0  010   [4]  26 73 00 00
 (1652905426.586672)  can0  014   [5]  00 00 00 13 27
 (1652905426.588577)  can0  1E5   [8]  1C 00 05 30 00 00 00 8D
 (1652905426.596112)  can0  012   [8]  E8 03 10 00 00 00 00 00
 (1652905426.596660)  can0  014   [5]  00 00 00 0D 27
 (1652905426.598396)  can0  1E5   [8]  1C 00 05 50 00 00 00 AD
 (1652905426.605974)  can0  012   [8]  E8 03 10 00 00 00 00 00
 (1652905426.606713)  can0  014   [5]  00 00 00 10 27
 (1652905426.608372)  can0  1E5   [8]  1C 00 05 70 00 00 00 CD
 (1652905426.616006)  can0  012   [8]  E8 03 10 00 00 00 00 00
 (1652905426.616709)  can0  014   [5]  00 00 00 10 27
 (1652905426.618539)  can0  1E5   [8]  1C 00 05 10 00 00 00 6D
 (1652905426.625811)  can0  012   [8]  E8 03 10 00 00 00 00 00
 (1652905426.626665)  can0  014   [5]  00 00 00 10 27
 (1652905426.628384)  can0  1E5   [8]  1C 00 05 30 00 00 00 8D
 (1652905426.635821)  can0  012   [8]  E8 03 10 00 00 00 00 00
 (1652905426.636680)  can0  014   [5]  FF 0F 00 10 27
 (1652905426.638381)  can0  1E5   [8]  1C 00 05 50 00 00 00 AD
 (1652905426.645788)  can0  012   [8]  E8 03 10 00 00 00 00 00
 (1652905426.646675)  can0  014   [5]  00 00 00 10 27
 (1652905426.648351)  can0  1E5   [8]  1C 00 05 70 00 00 00 CD
 (1652905426.655834)  can0  012   [8]  E8 03 10 00 00 00 00 00
 (1652905426.656686)  can0  014   [5]  00 00 00 10 27
 (1652905426.658376)  can0  1E5   [8]  1C 00 04 10 00 00 00 6C
 (1652905426.665994)  can0  012   [8]  E8 03 10 00 00 00 00 00
 (1652905426.666709)  can0  014   [5]  00 00 00 10 27
 (1652905426.668600)  can0  1E5   [8]  1C 00 04 30 00 00 00 8C
 (1652905426.675776)  can0  012   [8]  E8 03 10 00 00 00 00 00
 (1652905426.676664)  can0  014   [5]  00 00 00 10 27
 (1652905426.678349)  can0  1E5   [8]  1C 00 04 50 00 00 00 AC
 (1652905426.685974)  can0  012   [8]  E8 03 10 00 00 00 00 00
 (1652905426.686183)  can0  010   [4]  26 73 00 00
 (1652905426.686705)  can0  014   [5]  00 00 00 13 27
 (1652905426.688397)  can0  1E5   [8]  1C 00 04 70 00 00 00 CC
 (1652905426.695812)  can0  012   [8]  E8 03 10 00 00 00 00 00
 (1652905426.696661)  can0  014   [5]  00 F0 FF 0D 27
 (1652905426.698397)  can0  1E5   [8]  1C 00 04 10 00 00 00 6C
 (1652905426.705828)  can0  012   [8]  E8 03 10 00 00 00 00 00
 (1652905426.706701)  can0  014   [5]  00 00 00 10 27
 (1652905426.708341)  can0  1E5   [8]  1C 00 04 30 00 00 00 8C
 (1652905426.715835)  can0  012   [8]  E8 03 10 00 00 00 00 00
 (1652905426.716676)  can0  014   [5]  00 00 00 10 27
 (1652905426.718378)  can0  1E5   [8]  1C 00 04 50 00 00 00 AC
 (1652905426.725815)  can0  012   [8]  E8 03 10 00 00 00 00 00
 (1652905426.726670)  can0  014   [5]  00 00 00 10 27
 (1652905426.728365)  can0  1E5   [8]  1C 00 04 70 00 00 00 CC
 (1652905426.736004)  can0  012   [8]  E8 03 10 00 00 00 00 00
 (1652905426.736677)  can0  014   [5]  00 00 00 10 27
 (1652905426.738382)  can0  1E5   [8]  1C 00 04 10 00 00 00 6C
 (1652905426.745806)  can0  012   [8]  E8 03 10 00 00 00 00 00
 (1652905426.746703)  can0  014   [5]  00 00 00 10 27
 (1652905426.748398)  can0  1E5   [8]  1C 00 04 30 00 00 00 8C
 (1652905426.755991)  can0  012   [8]  E8 03 10 00 00 00 00 00
 (1652905426.756659)  can0  014   [5]  00 00 00 10 27
 (1652905426.758392)  can0  1E5   [8]  1C 00 04 50 00 00 00 AC
 (1652905426.765797)  can0  012   [8]  E8 03 10 00 00 00 00 00
 (1652905426.766705)  can0  014   [5]  00 00 00 10 27
 (1652905426.768534)  can0  1E5   [8]  1C 00 04 70 00 00 00 CC
 (1652905426.775789)  can0  012   [8]  E8 03 10 00 00 00 00 00
 (1652905426.776667)  can0  014   [5]  00 00 00 10 27
 (1652905426.778353)  can0  1E5   [8]  1C 00 02 1F FF 00 01 78
 (1652905426.785834)  can0  012   [8]  E8 03 10 00 00 00 00 00
 (1652905426.786188)  can0  010   [4]  26 73 00 00
 (1652905426.786696)  can0  014   [5]  00 00 00 13 27
 (1652905426.788806)  can0  1E5   [8]  1C 00 02 3F FF 00 01 98
 (1652905426.795805)  can0  012   [8]  E8 03 10 00 00 00 00 00
 (1652905426.796683)  can0  014   [5]  00 00 00 0D 27
 (1652905426.798399)  can0  1E5   [8]  1C 00 02 5F FF 00 01 B8
 (1652905426.805972)  can0  012   [8]  E8 03 10 00 00 00 00 00
 (1652905426.806710)  can0  014   [5]  00 00 00 10 27
 (1652905426.808390)  can0  1E5   [8]  1C 00 02 7F FF 00 01 D8
 (1652905426.815879)  can0  012   [8]  E8 03 10 00 00 00 00 00
 (1652905426.816703)  can0  014   [5]  00 00 00 10 27
 (1652905426.818389)  can0  1E5   [8]  1C 00 02 1F FF 00 01 78
 (1652905426.825936)  can0  012   [8]  E8 03 10 00 00 00 00 00
 (1652905426.826706)  can0  014   [5]  00 00 00 10 27
 (1652905426.828354)  can0  1E5   [8]  1C 00 02 3F FF 00 01 98
 (1652905426.835883)  can0  012   [8]  E8 03 10 00 00 00 00 00
 (1652905426.836709)  can0  014   [5]  00 00 00 10 27
 (1652905426.838902)  can0  1E5   [8]  1C 00 04 50 00 00 00 AC
 (1652905426.845785)  can0  012   [8]  E8 03 10 00 00 00 00 00
 (1652905426.846670)  can0  014   [5]  00 00 00 10 27
 (1652905426.848391)  can0  1E5   [8]  1C 00 02 70 00 00 00 CA
 (1652905426.855982)  can0  012   [8]  E8 03 10 00 00 00 00 00
 (1652905426.856694)  can0  014   [5]  00 00 00 10 27
 (1652905426.858335)  can0  1E5   [8]  1C 00 02 10 00 00 00 6A
 (1652905426.865807)  can0  012   [8]  E8 03 10 00 00 00 00 00
 (1652905426.866704)  can0  014   [5]  00 00 00 10 27
 (1652905426.868565)  can0  1E5   [8]  1C 00 02 30 00 00 00 8A
 (1652905426.875807)  can0  012   [8]  E8 03 10 00 00 00 00 00
 (1652905426.876658)  can0  014   [5]  00 00 00 10 27
 (1652905426.878376)  can0  1E5   [8]  1C 00 02 50 00 00 00 AA
 (1652905426.885832)  can0  012   [8]  E8 03 10 00 00 00 00 00
 (1652905426.886194)  can0  010   [4]  26 73 00 00
 (1652905426.886671)  can0  014   [5]  00 00 00 13 27
 (1652905426.888963)  can0  1E5   [8]  1C 00 02 70 00 00 00 CA
 (1652905426.895940)  can0  012   [8]  E8 03 10 00 00 00 00 00
 (1652905426.896673)  can0  014   [5]  00 00 00 0D 27
 (1652905426.898382)  can0  1E5   [8]  1C 00 04 10 00 00 00 6C
 (1652905426.905826)  can0  012   [8]  E8 03 10 00 00 00 00 00
 (1652905426.906678)  can0  014   [5]  00 00 00 10 27
 (1652905426.908401)  can0  1E5   [8]  1C 00 02 30 00 00 00 8A
 (1652905426.915999)  can0  012   [8]  E8 03 10 00 00 00 00 00
 (1652905426.916710)  can0  014   [5]  FF 0F 00 10 27
 (1652905426.918386)  can0  1E5   [8]  1C 00 02 50 00 00 00 AA
 (1652905426.925793)  can0  012   [8]  E8 03 10 00 00 00 00 00
 (1652905426.926682)  can0  014   [5]  00 00 00 10 27
 (1652905426.928351)  can0  1E5   [8]  1C 00 04 70 00 00 00 CC
 (1652905426.935807)  can0  012   [8]  E8 03 10 00 00 00 00 00
 (1652905426.936707)  can0  014   [5]  00 00 00 10 27
 (1652905426.938384)  can0  1E5   [8]  1C 00 04 10 00 00 00 6C
 (1652905426.945821)  can0  012   [8]  E8 03 10 00 00 00 00 00
 (1652905426.946685)  can0  014   [5]  00 00 00 10 27
 (1652905426.948405)  can0  1E5   [8]  1C 00 02 30 00 00 00 8A
 (1652905426.955806)  can0  012   [8]  E8 03 10 00 00 00 00 00
 (1652905426.956700)  can0  014   [5]  00 00 00 10 27
 (1652905426.958390)  can0  1E5   [8]  1C 00 04 50 00 00 00 AC
 (1652905426.965877)  can0  012   [8]  E8 03 10 00 00 00 00 00
 (1652905426.966671)  can0  014   [5]  00 00 00 10 27
 (1652905426.968531)  can0  1E5   [8]  1C 00 02 70 00 00 00 CA
 (1652905426.975783)  can0  012   [8]  E8 03 10 00 00 00 00 00
 (1652905426.976659)  can0  014   [5]  00 00 00 10 27
 (1652905426.978353)  can0  1E5   [8]  1C 00 02 10 00 00 00 6A
 (1652905426.986013)  can0  012   [8]  E8 03 10 00 00 00 00 00
 (1652905426.986140)  can0  010   [4]  26 73 00 00
 (1652905426.986660)  can0  014   [5]  00 00 00 13 27
 (1652905426.989042)  can0  1E5   [8]  1C 00 02 30 00 00 00 8A
 (1652905426.995804)  can0  012   [8]  E8 03 10 00 00 00 00 00
 (1652905426.996672)  can0  014   [5]  00 00 00 0D 27
 (1652905426.998354)  can0  1E5   [8]  1C 00 04 50 00 00 00 AC
 (1652905427.005828)  can0  012   [8]  E8 03 10 00 00 00 00 00
 (1652905427.006677)  can0  014   [5]  00 00 00 10 27
 (1652905427.008384)  can0  1E5   [8]  1C 00 02 70 00 00 00 CA
 (1652905427.015813)  can0  012   [8]  E8 03 10 00 00 00 00 00
 (1652905427.016674)  can0  014   [5]  00 00 00 10 27
 (1652905427.018351)  can0  1E5   [8]  1C 00 02 10 00 00 00 6A
 (1652905427.025793)  can0  012   [8]  E8 03 10 00 00 00 00 00
 (1652905427.026678)  can0  014   [5]  00 00 00 10 27
 (1652905427.028359)  can0  1E5   [8]  1C 00 04 30 00 00 00 8C
 (1652905427.035789)  can0  012   [8]  E8 03 10 00 00 00 00 00
 (1652905427.036694)  can0  014   [5]  00 00 00 10 27
 (1652905427.039141)  can0  1E5   [8]  1C 00 04 50 00 00 00 AC
 (1652905427.046033)  can0  012   [8]  E8 03 10 00 00 00 00 00
 (1652905427.046659)  can0  014   [5]  00 00 00 10 27
 (1652905427.048345)  can0  1E5   [8]  1C 00 04 70 00 00 00 CC
 (1652905427.055793)  can0  012   [8]  E8 03 10 00 00 00 00 00
 (1652905427.056699)  can0  014   [5]  00 00 00 10 27
 (1652905427.058356)  can0  1E5   [8]  1C 00 04 10 00 00 00 6C
 (1652905427.066009)  can0  012   [8]  E8 03 10 00 00 00 00 00
 (1652905427.066710)  can0  014   [5]  00 F0 FF 10 27
 (1652905427.068370)  can0  1E5   [8]  1C 00 04 30 00 00 00 8C
 (1652905427.075798)  can0  012   [8]  E8 03 10 00 00 00 00 00
 (1652905427.076666)  can0  014   [5]  00 00 00 10 27
 (1652905427.078344)  can0  1E5   [8]  1C 00 04 50 00 00 00 AC
 (1652905427.086014)  can0  012   [8]  E8 03 10 00 00 00 00 00
 (1652905427.086170)  can0  010   [4]  26 73 00 00
 (1652905427.086696)  can0  014   [5]  00 00 00 13 27
 (1652905427.089127)  can0  1E5   [8]  1C 00 04 70 00 00 00 CC
 (1652905427.095814)  can0  012   [8]  E8 03 10 00 00 00 00 00
 (1652905427.096703)  can0  014   [5]  00 00 00 0D 27
 (1652905427.098546)  can0  1E5   [8]  1C 00 04 10 00 00 00 6C
 (1652905427.105800)  can0  012   [8]  E8 03 10 00 00 00 00 00
 (1652905427.106677)  can0  014   [5]  00 00 00 10 27
 (1652905427.108382)  can0  1E5   [8]  1C 00 04 30 00 00 00 8C
 (1652905427.115818)  can0  012   [8]  E8 03 10 00 00 00 00 00
 (1652905427.116684)  can0  014   [5]  00 00 00 10 27
 (1652905427.118355)  can0  1E5   [8]  1C 00 04 50 00 00 00 AC
 (1652905427.125783)  can0  012   [8]  E8 03 10 00 00 00 00 00
 (1652905427.126673)  can0  014   [5]  00 00 00 10 27
 (1652905427.128335)  can0  1E5   [8]  1C 00 04 70 00 00 00 CC
 (1652905427.135967)  can0  012   [8]  E8 03 10 00 00 00 00 00
 (1652905427.136708)  can0  014   [5]  00 00 00 10 27
 (1652905427.138388)  can0  1E5   [8]  1C 00 04 10 00 00 00 6C
 (1652905427.146083)  can0  012   [8]  E8 03 10 00 00 00 00 00
 (1652905427.146674)  can0  014   [5]  00 00 00 10 27
 (1652905427.148373)  can0  1E5   [8]  1C 00 04 30 00 00 00 8C
 (1652905427.155799)  can0  012   [8]  E8 03 10 00 00 00 00 00
 (1652905427.156700)  can0  014   [5]  00 00 00 10 27
 (1652905427.158365)  can0  1E5   [8]  1C 00 04 50 00 00 00 AC
 (1652905427.165992)  can0  012   [8]  E8 03 10 00 00 00 00 00
 (1652905427.166698)  can0  014   [5]  00 00 00 10 27
 (1652905427.168557)  can0  1E5   [8]  1C 00 04 70 00 00 00 CC
 (1652905427.175805)  can0  012   [8]  E8 03 10 00 00 00 00 00
 (1652905427.176689)  can0  014   [5]  00 00 00 10 27
 (1652905427.178388)  can0  1E5   [8]  1C 00 04 10 00 00 00 6C
 (1652905427.185964)  can0  012   [8]  E8 03 10 00 00 00 00 00
 (1652905427.185973)  can0  0E3   [2]  30 02
 (1652905427.186180)  can0  010   [4]  26 73 00 00
 (1652905427.186291)  can0  0E2   [2]  30 02
 (1652905427.186721)  can0  014   [5]  00 00 00 19 27
 (1652905427.186796)  can0  0E4   [2]  30 02
 (1652905427.188391)  can0  1E5   [8]  1C 00 04 30 00 00 00 8C
 (1652905427.195816)  can0  012   [8]  E8 03 10 00 00 00 00 00
 (1652905427.196727)  can0  014   [5]  FF 0F 00 07 27
 (1652905427.198703)  can0  1E5   [8]  1C 00 04 50 00 00 00 AC
 (1652905427.205830)  can0  012   [8]  E8 03 10 00 00 00 00 00
 (1652905427.206682)  can0  014   [5]  00 00 00 10 27
 (1652905427.208368)  can0  1E5   [8]  1C 00 04 70 00 00 00 CC
 (1652905427.215776)  can0  012   [8]  E8 03 10 00 00 00 00 00
 (1652905427.216710)  can0  014   [5]  00 00 00 10 27
 (1652905427.218377)  can0  1E5   [8]  1C 00 04 10 00 00 00 6C
 (1652905427.225792)  can0  012   [8]  E8 03 10 00 00 00 00 00
 (1652905427.226703)  can0  014   [5]  00 00 00 10 27
 (1652905427.228392)  can0  1E5   [8]  1C 00 04 30 00 00 00 8C
 (1652905427.235994)  can0  012   [8]  E8 03 10 00 00 00 00 00
 (1652905427.236709)  can0  014   [5]  00 00 00 10 27
 (1652905427.238366)  can0  1E5   [8]  1C 00 04 50 00 00 00 AC
 (1652905427.245801)  can0  012   [8]  E8 03 10 00 00 00 00 00
 (1652905427.246705)  can0  014   [5]  00 00 00 10 27
 (1652905427.248382)  can0  1E5   [8]  1C 00 04 70 00 00 00 CC
 (1652905427.256426)  can0  012   [8]  E8 03 10 00 00 00 00 00
 (1652905427.256706)  can0  014   [5]  00 00 00 10 27
 (1652905427.258556)  can0  1E5   [8]  1C 00 04 10 00 00 00 6C
 (1652905427.265821)  can0  012   [8]  E8 03 10 00 00 00 00 00
 (1652905427.266671)  can0  014   [5]  00 00 00 10 27
 (1652905427.268750)  can0  1E5   [8]  1C 00 04 30 00 00 00 8C
 (1652905427.275807)  can0  012   [8]  E8 03 10 00 00 00 00 00
 (1652905427.276666)  can0  014   [5]  00 00 00 10 27
 (1652905427.278333)  can0  1E5   [8]  1C 00 04 50 00 00 00 AC
 (1652905427.285816)  can0  012   [8]  E8 03 10 00 00 00 00 00
 (1652905427.286147)  can0  010   [4]  26 73 00 00
 (1652905427.286692)  can0  014   [5]  00 00 00 13 27
 (1652905427.288825)  can0  1E5   [8]  1C 00 04 70 00 00 00 CC
 (1652905427.295779)  can0  012   [8]  E8 03 10 00 00 00 00 00
 (1652905427.296666)  can0  014   [5]  00 00 00 0D 27
 (1652905427.298354)  can0  1E5   [8]  1C 00 04 10 00 00 00 6C
 (1652905427.305956)  can0  012   [8]  E8 03 10 00 00 00 00 00
 (1652905427.306716)  can0  014   [5]  00 00 00 10 27
 (1652905427.308333)  can0  1E5   [8]  1C 00 04 30 00 00 00 8C
 (1652905427.316113)  can0  012   [8]  E8 03 10 00 00 00 00 00
 (1652905427.316712)  can0  014   [5]  00 00 00 10 27
 (1652905427.318379)  can0  1E5   [8]  1C 00 04 50 00 00 00 AC
 (1652905427.325779)  can0  012   [8]  E8 03 10 00 00 00 00 00
 (1652905427.326699)  can0  014   [5]  00 00 00 10 27
 (1652905427.328342)  can0  1E5   [8]  1C 00 04 70 00 00 00 CC
 (1652905427.335811)  can0  012   [8]  E8 03 10 00 00 00 00 00
 (1652905427.336691)  can0  014   [5]  00 00 00 10 27
 (1652905427.338372)  can0  1E5   [8]  1C 00 04 10 00 00 00 6C
 (1652905427.345784)  can0  012   [8]  E8 03 10 00 00 00 00 00
 (1652905427.346699)  can0  014   [5]  00 00 00 10 27
 (1652905427.348368)  can0  1E5   [8]  1C 00 04 30 00 00 00 8C
 (1652905427.355814)  can0  012   [8]  E8 03 10 00 00 00 00 00
 (1652905427.356685)  can0  014   [5]  00 00 00 10 27
 (1652905427.358371)  can0  1E5   [8]  1C 00 04 50 00 00 00 AC
 (1652905427.365816)  can0  012   [8]  E8 03 10 00 00 00 00 00
 (1652905427.366687)  can0  014   [5]  00 00 00 10 27
 (1652905427.368377)  can0  1E5   [8]  1C 00 04 70 00 00 00 CC
 (1652905427.375784)  can0  012   [8]  E8 03 10 00 00 00 00 00
 (1652905427.376682)  can0  014   [5]  00 00 00 10 27
 (1652905427.378346)  can0  1E5   [8]  1C 00 04 10 00 00 00 6C
 (1652905427.385832)  can0  012   [8]  E8 03 10 00 00 00 00 00
 (1652905427.386185)  can0  010   [4]  26 73 00 00
 (1652905427.386681)  can0  014   [5]  00 00 00 13 27
 (1652905427.388366)  can0  1E5   [8]  1C 00 04 30 00 00 00 8C
 (1652905427.395814)  can0  012   [8]  E8 03 10 00 00 00 00 00
 (1652905427.396694)  can0  014   [5]  00 00 00 0D 27
 (1652905427.398361)  can0  1E5   [8]  1C 00 02 50 00 00 00 AA
 (1652905427.405818)  can0  012   [8]  E8 03 10 00 00 00 00 00
 (1652905427.406719)  can0  014   [5]  00 00 00 10 27
 (1652905427.408361)  can0  1E5   [8]  1C 00 04 70 00 00 00 CC
 (1652905427.415800)  can0  012   [8]  E8 03 10 00 00 00 00 00
 (1652905427.416718)  can0  014   [5]  00 00 00 10 27
 (1652905427.418363)  can0  1E5   [8]  1C 00 04 10 00 00 00 6C
 (1652905427.425788)  can0  012   [8]  E8 03 10 00 00 00 00 00
 (1652905427.426693)  can0  014   [5]  00 F0 FF 10 27
 (1652905427.428344)  can0  1E5   [8]  1C 00 04 30 00 00 00 8C
 (1652905427.435883)  can0  012   [8]  E8 03 10 00 00 00 00 00
 (1652905427.436678)  can0  014   [5]  00 00 00 10 27
 (1652905427.438371)  can0  1E5   [8]  1C 00 02 50 00 00 00 AA
 (1652905427.445805)  can0  012   [8]  E8 03 10 00 00 00 00 00
 (1652905427.446684)  can0  014   [5]  00 00 00 10 27
 (1652905427.448381)  can0  1E5   [8]  1C 00 02 70 00 00 00 CA
 (1652905427.455810)  can0  012   [8]  E8 03 10 00 00 00 00 00
 (1652905427.456696)  can0  014   [5]  00 00 00 10 27
 (1652905427.458358)  can0  1E5   [8]  1C 00 02 10 00 00 00 6A
 (1652905427.465824)  can0  012   [8]  E8 03 10 00 00 00 00 00
 (1652905427.466695)  can0  014   [5]  00 00 00 10 27
 (1652905427.468383)  can0  1E5   [8]  1C 00 02 30 00 00 00 8A
 (1652905427.475774)  can0  012   [8]  E8 03 10 00 00 00 00 00
 (1652905427.476679)  can0  014   [5]  00 00 00 10 27
 (1652905427.478375)  can0  1E5   [8]  1C 00 02 50 00 00 00 AA
 (1652905427.485814)  can0  012   [8]  E8 03 10 00 00 00 00 00
 (1652905427.486189)  can0  010   [4]  26 73 00 00
 (1652905427.486663)  can0  014   [5]  FF 0F 00 13 27
 (1652905427.488375)  can0  1E5   [8]  1C 00 02 70 00 00 00 CA
 (1652905427.495811)  can0  012   [8]  E8 03 10 00 00 00 00 00
 (1652905427.496661)  can0  014   [5]  00 00 00 0D 27
 (1652905427.498374)  can0  1E5   [8]  1C 00 02 10 00 00 00 6A
 (1652905427.505793)  can0  012   [8]  E8 03 10 00 00 00 00 00
 (1652905427.506675)  can0  014   [5]  00 00 00 10 27
 (1652905427.508333)  can0  1E5   [8]  1C 00 02 30 00 00 00 8A
 (1652905427.515782)  can0  012   [8]  E8 03 10 00 00 00 00 00
 (1652905427.516679)  can0  014   [5]  00 00 00 10 27
 (1652905427.518376)  can0  1E5   [8]  1C 00 02 50 00 00 00 AA
 (1652905427.525802)  can0  012   [8]  E8 03 10 00 00 00 00 00
 (1652905427.526706)  can0  014   [5]  00 00 00 10 27
 (1652905427.528342)  can0  1E5   [8]  1C 00 02 70 00 00 00 CA
 (1652905427.535810)  can0  012   [8]  E8 03 10 00 00 00 00 00
 (1652905427.536700)  can0  014   [5]  00 00 00 10 27
 (1652905427.538376)  can0  1E5   [8]  1C 00 02 10 00 00 00 6A
 (1652905427.545927)  can0  012   [8]  E8 03 10 00 00 00 00 00
 (1652905427.546677)  can0  014   [5]  00 00 00 10 27
 (1652905427.548371)  can0  1E5   [8]  1C 00 02 30 00 00 00 8A
 (1652905427.555814)  can0  012   [8]  E8 03 10 00 00 00 00 00
 (1652905427.556711)  can0  014   [5]  00 00 00 10 27
 (1652905427.558340)  can0  1E5   [8]  1C 00 02 50 00 00 00 AA
 (1652905427.565833)  can0  012   [8]  E8 03 10 00 00 00 00 00
 (1652905427.566691)  can0  014   [5]  00 00 00 10 27
 (1652905427.568384)  can0  1E5   [8]  1C 00 02 70 00 00 00 CA
 (1652905427.575836)  can0  012   [8]  E8 03 10 00 00 00 00 00
 (1652905427.576674)  can0  014   [5]  00 00 00 10 27
 (1652905427.578317)  can0  1E5   [8]  1C 00 02 10 00 00 00 6A
 (1652905427.585864)  can0  012   [8]  E8 03 10 00 00 00 00 00
 (1652905427.586181)  can0  010   [4]  26 73 00 00
 (1652905427.586677)  can0  014   [5]  00 00 00 13 27
 (1652905427.588386)  can0  1E5   [8]  1C 00 02 30 00 00 00 8A
 (1652905427.595809)  can0  012   [8]  E8 03 10 00 00 00 00 00
 (1652905427.596671)  can0  014   [5]  00 00 00 0D 27
 (1652905427.598370)  can0  1E5   [8]  1C 00 02 50 00 00 00 AA
 (1652905427.605823)  can0  012   [8]  E8 03 10 00 00 00 00 00
 (1652905427.606690)  can0  014   [5]  00 00 00 10 27
 (1652905427.608367)  can0  1E5   [8]  1C 00 02 70 00 00 00 CA
 (1652905427.610712)  can0  0F0   [1]  01
 (1652905427.612105)  can0  011   [2]  10 01
 (1652905427.615827)  can0  012   [8]  E8 03 10 00 00 00 00 00
 (1652905427.616694)  can0  014   [5]  00 00 00 1A 27
 (1652905427.618362)  can0  1E5   [8]  1C 00 02 10 00 00 00 6A
 (1652905427.625839)  can0  012   [8]  E8 03 10 00 00 00 00 00
 (1652905427.626701)  can0  014   [5]  00 00 00 06 27
 (1652905427.628366)  can0  1E5   [8]  1C 00 02 30 00 00 00 8A
 (1652905427.635816)  can0  012   [8]  E8 03 10 00 00 00 00 00
 (1652905427.636690)  can0  014   [5]  00 00 00 10 27
 (1652905427.638364)  can0  1E5   [8]  1C 00 02 50 00 00 00 AA
 (1652905427.646095)  can0  012   [8]  E8 03 10 00 00 00 00 00
 (1652905427.646673)  can0  014   [5]  00 00 00 10 27
 (1652905427.648370)  can0  1E5   [8]  1C 00 01 7F FF 00 01 D7
 (1652905427.655812)  can0  012   [8]  E8 03 10 00 00 00 00 00
 (1652905427.656699)  can0  014   [5]  00 00 00 10 27
 (1652905427.658336)  can0  1E5   [8]  1C 00 01 1F FF 00 01 77
 (1652905427.665782)  can0  012   [8]  E8 03 10 00 00 00 00 00
 (1652905427.666691)  can0  014   [5]  00 00 00 10 27
 (1652905427.668390)  can0  1E5   [8]  1C 00 02 30 00 00 00 8A
 (1652905427.675801)  can0  012   [8]  E8 03 10 00 00 00 00 00
 (1652905427.676711)  can0  014   [5]  00 00 00 10 27
 (1652905427.678350)  can0  1E5   [8]  1C 00 02 50 00 00 00 AA
 (1652905427.685815)  can0  012   [8]  E8 03 10 00 00 00 00 00
 (1652905427.686178)  can0  010   [4]  3F 99 10 00
 (1652905427.686677)  can0  014   [5]  00 00 00 13 27
 (1652905427.688357)  can0  1E5   [8]  1C 00 01 70 00 00 00 C9
 (1652905427.695779)  can0  012   [8]  E8 03 10 00 00 00 00 00
 (1652905427.696656)  can0  014   [5]  00 00 00 0D 27
 (1652905427.698367)  can0  1E5   [8]  1C 00 01 10 00 00 00 69
 (1652905427.705782)  can0  012   [8]  E8 03 10 00 00 00 00 00
 (1652905427.706689)  can0  014   [5]  00 00 00 10 27
 (1652905427.708328)  can0  1E5   [8]  1C 00 01 30 00 00 00 89
 (1652905427.712600)  can0  0F0   [1]  01
 (1652905427.713545)  can0  011   [2]  10 01
 (1652905427.715830)  can0  012   [8]  E8 03 10 00 00 00 00 00
 (1652905427.716693)  can0  014   [5]  00 00 00 16 27
 (1652905427.718739)  can0  1E5   [8]  1C 00 01 50 00 00 00 A9
 (1652905427.725834)  can0  012   [8]  E8 03 10 00 00 00 00 00
 (1652905427.726680)  can0  014   [5]  00 00 00 0A 27
 (1652905427.728355)  can0  1E5   [8]  1C 00 01 70 00 00 00 C9
 (1652905427.735794)  can0  012   [8]  E8 03 10 00 00 00 00 00
 (1652905427.736705)  can0  014   [5]  00 00 00 10 27
 (1652905427.738358)  can0  1E5   [8]  1C 00 01 10 00 00 00 69
 (1652905427.745811)  can0  012   [8]  E8 03 10 00 00 00 00 00
 (1652905427.746704)  can0  014   [5]  00 00 00 10 27
 (1652905427.748357)  can0  1E5   [8]  1C 00 01 30 00 00 00 89
 (1652905427.755802)  can0  012   [8]  E8 03 10 00 00 00 00 00
 (1652905427.756718)  can0  014   [5]  00 00 00 10 27
 (1652905427.758376)  can0  1E5   [8]  1C 00 01 50 00 00 00 A9
 (1652905427.765980)  can0  012   [8]  E8 03 10 00 00 00 00 00
 (1652905427.766721)  can0  014   [5]  00 00 00 10 27
 (1652905427.768362)  can0  1E5   [8]  1C 00 01 70 00 00 00 C9
 (1652905427.775806)  can0  012   [8]  E8 03 10 00 00 00 00 00
 (1652905427.776714)  can0  014   [5]  00 00 00 10 27
 (1652905427.778367)  can0  1E5   [8]  1C 00 01 10 00 00 00 69
 (1652905427.785991)  can0  012   [8]  E8 03 10 00 00 00 00 00
 (1652905427.786174)  can0  010   [4]  3F 99 10 00
 (1652905427.786723)  can0  014   [5]  00 00 00 13 27
 (1652905427.788351)  can0  1E5   [8]  1C 00 01 30 00 00 00 89
 (1652905427.796086)  can0  012   [8]  E8 03 10 00 00 00 00 00
 (1652905427.796711)  can0  014   [5]  00 00 00 0D 27
 (1652905427.798372)  can0  1E5   [8]  1C 00 00 5F FF 00 01 B6
 (1652905427.806005)  can0  012   [8]  E8 03 10 00 00 00 00 00
 (1652905427.806710)  can0  014   [5]  00 00 00 10 27
 (1652905427.808369)  can0  1E5   [8]  1C 00 01 70 00 00 00 C9
 (1652905427.814229)  can0  0F0   [1]  01
 (1652905427.815235)  can0  011   [2]  10 01
 (1652905427.815851)  can0  012   [8]  E8 03 10 00 00 00 00 00
 (1652905427.816711)  can0  014   [5]  00 00 00 16 27
 (1652905427.818517)  can0  1E5   [8]  1C 00 00 10 00 00 00 68
 (1652905427.825945)  can0  012   [8]  E8 03 10 00 00 00 00 00
 (1652905427.826660)  can0  014   [5]  00 00 00 0A 27
 (1652905427.828343)  can0  1E5   [8]  1C 00 00 30 00 00 00 88
 (1652905427.835815)  can0  012   [8]  E8 03 10 00 00 00 00 00
 (1652905427.836700)  can0  014   [5]  00 00 00 10 27
 (1652905427.838529)  can0  1E5   [8]  1C 00 00 50 00 00 00 A8
 (1652905427.846124)  can0  012   [8]  E8 03 10 00 00 00 00 00
 (1652905427.846679)  can0  014   [5]  00 00 00 10 27
 (1652905427.848350)  can0  1E5   [8]  1C 00 00 70 00 00 00 C8
 (1652905427.856059)  can0  012   [8]  E8 03 10 00 00 00 00 00
 (1652905427.856706)  can0  014   [5]  00 00 00 10 27
 (1652905427.858344)  can0  1E5   [8]  1C 00 00 10 00 00 00 68
 (1652905427.865894)  can0  012   [8]  E8 03 10 00 00 00 00 00
 (1652905427.866707)  can0  014   [5]  00 00 00 10 27
 (1652905427.868367)  can0  1E5   [8]  1C FF FE 3F FF 00 03 93
 (1652905427.875797)  can0  012   [8]  E8 03 10 00 00 00 00 00
 (1652905427.876673)  can0  014   [5]  00 00 00 10 27
 (1652905427.878348)  can0  1E5   [8]  1C FF FE 5F FF 00 03 B3
 (1652905427.886148)  can0  012   [8]  E8 03 10 00 00 00 00 00
 (1652905427.886157)  can0  010   [4]  3F 99 10 00
 (1652905427.886711)  can0  014   [5]  00 00 00 13 27
 (1652905427.888531)  can0  1E5   [8]  1C FF FE 7F FF 00 03 D3
 (1652905427.896281)  can0  012   [8]  E8 03 10 00 00 00 00 00
 (1652905427.896660)  can0  014   [5]  00 00 00 0D 27
 (1652905427.898356)  can0  1E5   [8]  1C FF FE 1F FF 00 03 73
 (1652905427.905768)  can0  012   [8]  E8 03 10 00 00 00 00 00
 (1652905427.906668)  can0  014   [5]  00 00 00 10 27
 (1652905427.908319)  can0  1E5   [8]  1C FF FE 3F FF 00 03 93
 (1652905427.915811)  can0  012   [8]  E8 03 10 00 00 00 00 00
 (1652905427.916212)  can0  0F0   [1]  01
 (1652905427.916710)  can0  014   [5]  00 00 00 13 27
 (1652905427.917353)  can0  011   [2]  10 01
 (1652905427.918329)  can0  1E5   [8]  1C FF FE 5F FF 00 03 B3
 (1652905427.925785)  can0  012   [8]  E8 03 10 00 00 00 00 00
 (1652905427.926680)  can0  014   [5]  00 00 00 10 27
 (1652905427.928337)  can0  1E5   [8]  1C FF FE 7F FF 00 03 D3
 (1652905427.935801)  can0  012   [8]  E8 03 10 00 00 00 00 00
 (1652905427.936707)  can0  014   [5]  00 00 00 0D 27
 (1652905427.938316)  can0  1E5   [8]  1C FF FE 1F FF 00 03 73
 (1652905427.946049)  can0  012   [8]  E8 03 10 00 00 00 00 00
 (1652905427.946663)  can0  014   [5]  00 00 00 10 27
 (1652905427.948526)  can0  1E5   [8]  1C FF FE 3F FF 00 03 93
 (1652905427.955978)  can0  012   [8]  E8 03 10 00 00 00 00 00
 (1652905427.956669)  can0  014   [5]  00 00 00 10 27
 (1652905427.958302)  can0  1E5   [8]  1C FF FE 5F FF 00 03 B3
 (1652905427.965791)  can0  012   [8]  E8 03 10 00 00 00 00 00
 (1652905427.966719)  can0  014   [5]  00 00 00 10 27
 (1652905427.968520)  can0  1E5   [8]  1C FF FE 70 00 00 02 C5
 (1652905427.975798)  can0  012   [8]  E8 03 10 00 00 00 00 00
 (1652905427.976703)  can0  014   [5]  00 00 00 10 27
 (1652905427.978364)  can0  1E5   [8]  1C FF FE 10 00 00 02 65
 (1652905427.985970)  can0  012   [8]  E8 03 10 00 00 00 00 00
 (1652905427.986193)  can0  010   [4]  3F 99 10 00
 (1652905427.986706)  can0  014   [5]  00 00 00 13 27
 (1652905427.988350)  can0  1E5   [8]  1C FF FE 30 00 00 02 85
 (1652905427.995897)  can0  012   [8]  E8 03 10 00 00 00 00 00
 (1652905427.996691)  can0  014   [5]  00 00 00 0D 27
 (1652905427.998503)  can0  1E5   [8]  1C FF FE 50 00 00 02 A5
 (1652905428.005796)  can0  012   [8]  E8 03 10 00 00 00 00 00
 (1652905428.006711)  can0  014   [5]  00 00 00 10 27
 (1652905428.008324)  can0  1E5   [8]  1C FF FE 70 00 00 02 C5
 (1652905428.015806)  can0  012   [8]  E8 03 10 00 00 00 00 00
 (1652905428.016706)  can0  014   [5]  00 00 00 10 27
 (1652905428.018353)  can0  1E5   [8]  1C FF FE 10 00 00 02 65
 (1652905428.018823)  can0  0F0   [1]  01
 (1652905428.019890)  can0  011   [2]  10 01
 (1652905428.025787)  can0  012   [8]  E8 03 10 00 00 00 00 00
 (1652905428.026667)  can0  014   [5]  00 00 00 16 27
 (1652905428.028343)  can0  1E5   [8]  1C FF FE 30 00 00 02 85
 (1652905428.036114)  can0  012   [8]  E8 03 10 00 00 00 00 00
 (1652905428.036707)  can0  014   [5]  00 F0 FF 0A 27
 (1652905428.039233)  can0  1E5   [8]  1C FF FE 50 00 00 02 A5
 (1652905428.045774)  can0  012   [8]  E8 03 10 00 00 00 00 00
 (1652905428.046662)  can0  014   [5]  FF 0F 00 10 27
 (1652905428.048521)  can0  1E5   [8]  1C FF FE 70 00 00 02 C5
 (1652905428.055828)  can0  012   [8]  E8 03 10 00 00 00 00 00
 (1652905428.056709)  can0  014   [5]  00 00 00 10 27
 (1652905428.058334)  can0  1E5   [8]  1C FF FE 10 00 00 02 65
 (1652905428.065812)  can0  012   [8]  E8 03 10 00 00 00 00 00
 (1652905428.066715)  can0  014   [5]  00 00 00 10 27
 (1652905428.068508)  can0  1E5   [8]  1C FF FE 30 00 00 02 85
 (1652905428.075798)  can0  012   [8]  E8 03 10 00 00 00 00 00
 (1652905428.076692)  can0  014   [5]  00 00 00 10 27
 (1652905428.078517)  can0  1E5   [8]  1C FF FE 50 00 00 02 A5
 (1652905428.085810)  can0  012   [8]  E8 03 10 00 00 00 00 00
 (1652905428.086184)  can0  010   [4]  3F 99 10 00
 (1652905428.086713)  can0  014   [5]  00 00 00 13 27
 (1652905428.088520)  can0  1E5   [8]  1C FF FE 70 00 00 02 C5
 (1652905428.096062)  can0  012   [8]  E8 03 10 00 00 00 00 00
 (1652905428.096699)  can0  014   [5]  00 00 00 0D 27
 (1652905428.098511)  can0  1E5   [8]  1C FF FE 10 00 00 02 65
 (1652905428.105979)  can0  012   [8]  E8 03 10 00 00 00 00 00
 (1652905428.106699)  can0  014   [5]  00 00 00 10 27
 (1652905428.108374)  can0  1E5   [8]  1C FF FE 30 00 00 02 85
 (1652905428.115817)  can0  012   [8]  E8 03 10 00 00 00 00 00
 (1652905428.116709)  can0  014   [5]  00 00 00 10 27
 (1652905428.118499)  can0  1E5   [8]  1C FF FE 50 00 00 02 A5
 (1652905428.121043)  can0  0F0   [1]  01
 (1652905428.122045)  can0  011   [2]  10 01
 (1652905428.125849)  can0  012   [8]  E8 03 10 00 00 00 00 00
 (1652905428.126700)  can0  014   [5]  00 00 00 16 27
 (1652905428.128353)  can0  1E5   [8]  1C FF FE 70 00 00 02 C5
 (1652905428.135802)  can0  012   [8]  E8 03 10 00 00 00 00 00
 (1652905428.136707)  can0  014   [5]  00 00 00 0A 27
 (1652905428.138519)  can0  1E5   [8]  1C FF FE 10 00 00 02 65
 (1652905428.146078)  can0  012   [8]  E8 03 10 00 00 00 00 00
 (1652905428.146704)  can0  014   [5]  00 00 00 10 27
 (1652905428.148504)  can0  1E5   [8]  1C FF FE 30 00 00 02 85
 (1652905428.156000)  can0  012   [8]  E8 03 10 00 00 00 00 00
 (1652905428.156701)  can0  014   [5]  00 00 00 10 27
 (1652905428.158364)  can0  1E5   [8]  1C FF FE 50 00 00 02 A5
 (1652905428.165892)  can0  012   [8]  E8 03 10 00 00 00 00 00
 (1652905428.166716)  can0  014   [5]  00 00 00 10 27
 (1652905428.168499)  can0  1E5   [8]  1C FF FE 70 00 00 02 C5
 (1652905428.175812)  can0  012   [8]  E8 03 10 00 00 00 00 00
 (1652905428.176704)  can0  014   [5]  00 00 00 10 27
 (1652905428.178513)  can0  1E5   [8]  1C FF FE 10 00 00 02 65
 (1652905428.185960)  can0  012   [8]  E8 03 10 00 00 00 00 00
 (1652905428.185970)  can0  0E3   [2]  5A 02
 (1652905428.186176)  can0  010   [4]  3F 99 10 00
 (1652905428.186285)  can0  0E2   [2]  5A 02
 (1652905428.186720)  can0  014   [5]  00 00 00 19 27
 (1652905428.186823)  can0  0E4   [2]  5A 02
 (1652905428.188587)  can0  1E5   [8]  1C 00 00 30 00 00 00 88
 (1652905428.196073)  can0  012   [8]  E8 03 10 00 00 00 00 00
 (1652905428.196709)  can0  014   [5]  00 00 00 07 27
 (1652905428.198357)  can0  1E5   [8]  1C 00 00 50 00 00 00 A8
 (1652905428.206005)  can0  012   [8]  E8 03 10 00 00 00 00 00
 (1652905428.206707)  can0  014   [5]  00 00 00 10 27
 (1652905428.208356)  can0  1E5   [8]  1C 00 00 70 00 00 00 C8
 (1652905428.215810)  can0  012   [8]  E8 03 10 00 00 00 00 00
 (1652905428.216698)  can0  014   [5]  00 00 00 10 27
 (1652905428.218544)  can0  1E5   [8]  1C 00 00 10 00 00 00 68
 (1652905428.223627)  can0  0F0   [1]  01
 (1652905428.224178)  can0  011   [2]  10 01
 (1652905428.225771)  can0  012   [8]  E8 03 10 00 00 00 00 00
 (1652905428.226702)  can0  014   [5]  00 00 00 16 27
 (1652905428.228340)  can0  1E5   [8]  1C 00 00 30 00 00 00 88
 (1652905428.235794)  can0  012   [8]  E8 03 10 00 00 00 00 00
 (1652905428.236708)  can0  014   [5]  00 00 00 0A 27
 (1652905428.238589)  can0  1E5   [8]  1C 00 00 50 00 00 00 A8
 (1652905428.245812)  can0  012   [8]  E8 03 10 00 00 00 00 00
 (1652905428.246706)  can0  014   [5]  00 00 00 10 27
 (1652905428.248609)  can0  1E5   [8]  1C 00 00 70 00 00 00 C8
 (1652905428.255813)  can0  012   [8]  E8 03 10 00 00 00 00 00
 (1652905428.256699)  can0  014   [5]  00 00 00 10 27
 (1652905428.258483)  can0  1E5   [8]  1C 00 00 10 00 00 00 68
 (1652905428.265841)  can0  012   [8]  E8 03 10 00 00 00 00 00
 (1652905428.266705)  can0  014   [5]  00 00 00 10 27
 (1652905428.268364)  can0  1E5   [8]  1C 00 00 30 00 00 00 88
 (1652905428.275795)  can0  012   [8]  E8 03 10 00 00 00 00 00
 (1652905428.276718)  can0  014   [5]  00 00 00 10 27
 (1652905428.278349)  can0  1E5   [8]  1C 00 00 50 00 00 00 A8
 (1652905428.285967)  can0  012   [8]  E8 03 10 00 00 00 00 00
 (1652905428.286169)  can0  010   [4]  3F 99 10 01
 (1652905428.286701)  can0  014   [5]  00 F0 FF 13 27
 (1652905428.288639)  can0  1E5   [8]  1C 00 00 70 00 00 00 C8
 (1652905428.295786)  can0  012   [8]  E8 03 10 00 00 00 00 00
 (1652905428.296646)  can0  014   [5]  00 00 00 0D 27
 (1652905428.298330)  can0  1E5   [8]  1C 00 00 10 00 00 00 68
 (1652905428.305977)  can0  012   [8]  E8 03 10 00 00 00 00 00
 (1652905428.306706)  can0  014   [5]  00 00 00 10 27
 (1652905428.308357)  can0  1E5   [8]  1C 00 00 30 00 00 00 88
 (1652905428.315813)  can0  012   [8]  E8 03 10 00 00 00 00 00
 (1652905428.316707)  can0  014   [5]  00 00 00 10 27
 (1652905428.318502)  can0  1E5   [8]  1C 00 00 50 00 00 00 A8
 (1652905428.325772)  can0  012   [8]  E8 03 10 00 00 00 00 00
 (1652905428.325930)  can0  0F0   [1]  01
 (1652905428.326691)  can0  014   [5]  00 00 00 13 27
 (1652905428.327340)  can0  011   [2]  11 01
 (1652905428.328348)  can0  1E5   [8]  1C 00 00 70 00 00 00 C8
 (1652905428.336210)  can0  012   [8]  E8 03 10 00 00 00 00 00
 (1652905428.336704)  can0  014   [5]  FF 0F 00 10 27
 (1652905428.338501)  can0  1E5   [8]  1C 00 00 10 00 00 00 68
 (1652905428.346104)  can0  012   [8]  E8 03 10 00 00 00 00 00
 (1652905428.346699)  can0  014   [5]  00 00 00 0D 27
 (1652905428.348504)  can0  1E5   [8]  1C 00 00 30 00 00 00 88
 (1652905428.355830)  can0  012   [8]  E8 03 10 00 00 00 00 00
 (1652905428.356714)  can0  014   [5]  00 00 00 10 27
 (1652905428.358341)  can0  1E5   [8]  1C 00 00 50 00 00 00 A8
 (1652905428.365833)  can0  012   [8]  E8 03 10 00 00 00 00 00
 (1652905428.366708)  can0  014   [5]  00 00 00 10 27
 (1652905428.368347)  can0  1E5   [8]  1C 00 00 70 00 00 00 C8
 (1652905428.376542)  can0  012   [8]  E8 03 10 00 00 00 00 00
 (1652905428.376706)  can0  014   [5]  00 00 00 10 27
 (1652905428.378351)  can0  1E5   [8]  1C 00 00 10 00 00 00 68
 (1652905428.385898)  can0  012   [8]  E8 03 10 00 00 00 00 00
 (1652905428.386178)  can0  010   [4]  40 9B 11 01
 (1652905428.386712)  can0  014   [5]  00 00 00 13 27
 (1652905428.388856)  can0  1E5   [8]  1C 00 00 30 00 00 00 88
 (1652905428.395797)  can0  012   [8]  E8 03 10 00 00 00 00 00
 (1652905428.396700)  can0  014   [5]  00 00 00 0D 27
 (1652905428.398499)  can0  1E5   [8]  1C 00 00 50 00 00 00 A8
 (1652905428.405825)  can0  012   [8]  E8 03 10 00 00 00 00 00
 (1652905428.406700)  can0  014   [5]  00 00 00 10 27
 (1652905428.408347)  can0  1E5   [8]  1C 00 00 70 00 00 00 C8
 (1652905428.415833)  can0  012   [8]  E8 03 10 00 00 00 00 00
 (1652905428.416706)  can0  014   [5]  00 00 00 10 27
 (1652905428.418498)  can0  1E5   [8]  1C 00 00 10 00 00 00 68
 (1652905428.425779)  can0  012   [8]  E8 03 10 00 00 00 00 00
 (1652905428.426697)  can0  014   [5]  00 00 00 10 27
 (1652905428.428326)  can0  1E5   [8]  1C 00 01 30 01 00 00 8A
 (1652905428.428450)  can0  0F0   [1]  01
 (1652905428.429375)  can0  011   [2]  11 01
 (1652905428.435788)  can0  012   [8]  E8 03 10 00 00 00 00 00
 (1652905428.436670)  can0  014   [5]  00 00 00 16 27
 (1652905428.438493)  can0  1E5   [8]  1C 00 01 50 01 00 00 AA
 (1652905428.446280)  can0  012   [8]  E8 03 10 00 00 00 00 00
 (1652905428.446709)  can0  014   [5]  00 00 00 0A 27
 (1652905428.448361)  can0  1E5   [8]  1C 00 00 70 00 00 00 C8
 (1652905428.456218)  can0  012   [8]  E8 03 10 00 00 00 00 00
 (1652905428.456711)  can0  014   [5]  00 00 00 10 27
 (1652905428.458350)  can0  1E5   [8]  1C 00 01 10 00 00 00 69
 (1652905428.466280)  can0  012   [8]  E8 03 10 00 00 00 00 00
 (1652905428.466706)  can0  014   [5]  00 F0 FF 10 27
 (1652905428.468348)  can0  1E5   [8]  1C 00 01 30 00 00 00 89
 (1652905428.476748)  can0  012   [8]  E8 03 10 00 00 00 00 00
 (1652905428.476760)  can0  014   [5]  FF 0F 00 10 27
 (1652905428.478319)  can0  1E5   [8]  1C 00 01 50 00 00 00 A9
 (1652905428.485813)  can0  012   [8]  E8 03 10 00 00 00 00 00
 (1652905428.486197)  can0  010   [4]  40 9B 11 01
 (1652905428.486708)  can0  014   [5]  00 F0 FF 13 27
 (1652905428.488350)  can0  1E5   [8]  1C 00 01 70 00 00 00 C9
 (1652905428.495792)  can0  012   [8]  E8 03 10 00 00 00 00 00
 (1652905428.496708)  can0  014   [5]  00 00 00 0D 27
 (1652905428.498511)  can0  1E5   [8]  1C 00 01 10 00 00 00 69
 (1652905428.505972)  can0  012   [8]  E8 03 10 00 00 00 00 00
 (1652905428.506719)  can0  014   [5]  FF FF FF 10 27
 (1652905428.508362)  can0  1E5   [8]  1C 00 00 30 00 00 00 88
 (1652905428.516014)  can0  012   [8]  E8 03 10 00 00 00 00 00
 (1652905428.516704)  can0  014   [5]  00 00 00 10 27
 (1652905428.518492)  can0  1E5   [8]  1C 00 01 50 00 00 00 A9
 (1652905428.525802)  can0  012   [8]  E8 03 10 00 00 00 00 00
 (1652905428.526718)  can0  014   [5]  02 10 00 10 27
 (1652905428.528309)  can0  1E5   [8]  1C 00 00 70 00 00 00 C8
 (1652905428.530771)  can0  0F0   [1]  01
 (1652905428.531868)  can0  011   [2]  0E 01
 (1652905428.535982)  can0  012   [8]  E8 03 10 00 00 00 00 00
 (1652905428.536707)  can0  014   [5]  01 10 00 16 27
 (1652905428.538298)  can0  1E5   [8]  1C 00 01 10 00 00 00 69
 (1652905428.545803)  can0  012   [8]  E8 03 10 00 00 00 00 00
 (1652905428.546704)  can0  014   [5]  02 10 00 0A 27
 (1652905428.548505)  can0  1E5   [8]  1C 00 00 30 00 00 00 88
 (1652905428.555851)  can0  012   [8]  E8 03 10 00 00 00 00 00
 (1652905428.556705)  can0  014   [5]  02 20 00 10 27
 (1652905428.558351)  can0  1E5   [8]  1C 00 01 50 00 00 00 A9
 (1652905428.566061)  can0  012   [8]  E8 03 10 00 00 00 00 00
 (1652905428.566701)  can0  014   [5]  02 10 00 10 27
 (1652905428.568498)  can0  1E5   [8]  1C 00 00 70 00 00 00 C8
 (1652905428.575801)  can0  012   [8]  E8 03 10 00 00 00 00 00
 (1652905428.576739)  can0  014   [5]  02 10 00 10 27
 (1652905428.578341)  can0  1E5   [8]  1C 00 01 10 00 00 00 69
 (1652905428.585820)  can0  012   [8]  E8 03 10 00 00 00 00 00
 (1652905428.586177)  can0  010   [4]  3C 94 0E 01
 (1652905428.586712)  can0  014   [5]  01 10 00 13 27
 (1652905428.588504)  can0  1E5   [8]  1C 00 00 30 00 00 00 88
 (1652905428.595790)  can0  012   [8]  E8 03 10 00 00 00 00 00
 (1652905428.596695)  can0  014   [5]  01 10 00 0D 27
 (1652905428.598493)  can0  1E5   [8]  1C 00 01 50 00 00 00 A9
 (1652905428.605813)  can0  012   [8]  E8 03 10 00 00 00 00 00
 (1652905428.606703)  can0  014   [5]  00 00 00 10 27
 (1652905428.608349)  can0  1E5   [8]  1C 00 00 70 00 00 00 C8
 (1652905428.615817)  can0  012   [8]  E8 03 10 00 00 00 00 00
 (1652905428.616702)  can0  014   [5]  00 00 00 10 27
 (1652905428.618498)  can0  1E5   [8]  1C 00 00 10 00 00 00 68
 (1652905428.625812)  can0  012   [8]  E8 03 10 00 00 00 00 00
 (1652905428.626706)  can0  014   [5]  00 00 00 10 27
 (1652905428.628305)  can0  1E5   [8]  1C 00 00 30 00 00 00 88
 (1652905428.632722)  can0  0F0   [1]  01
 (1652905428.633648)  can0  011   [2]  11 01
 (1652905428.635776)  can0  012   [8]  E8 03 10 00 00 00 00 00
 (1652905428.636672)  can0  014   [5]  00 00 00 16 27
 (1652905428.638297)  can0  1E5   [8]  1C 00 00 50 00 00 00 A8
 (1652905428.645790)  can0  012   [8]  E8 03 10 00 00 00 00 00
 (1652905428.646689)  can0  014   [5]  00 00 00 0A 27
 (1652905428.648331)  can0  1E5   [8]  1C 00 00 70 00 00 00 C8
 (1652905428.655795)  can0  012   [8]  E8 03 10 00 00 00 00 00
 (1652905428.656709)  can0  014   [5]  01 10 00 10 27
 (1652905428.658532)  can0  1E5   [8]  1C 00 00 10 00 00 00 68
 (1652905428.665794)  can0  012   [8]  E8 03 10 00 00 00 00 00
 (1652905428.666708)  can0  014   [5]  00 00 00 10 27
 (1652905428.668500)  can0  1E5   [8]  1C 00 00 30 00 00 00 88
 (1652905428.675792)  can0  012   [8]  E8 03 10 00 00 00 00 00
 (1652905428.676698)  can0  014   [5]  01 10 00 10 27
 (1652905428.678509)  can0  1E5   [8]  1C 00 00 50 00 00 00 A8
 (1652905428.685973)  can0  012   [8]  E8 03 10 00 00 00 00 00
 (1652905428.686172)  can0  010   [4]  40 9B 11 01
 (1652905428.686709)  can0  014   [5]  01 10 00 13 27
 (1652905428.688503)  can0  1E5   [8]  1C 00 00 70 00 00 00 C8
 (1652905428.696053)  can0  012   [8]  E8 03 10 00 00 00 00 00
 (1652905428.696709)  can0  014   [5]  02 10 00 0D 27
 (1652905428.698358)  can0  1E5   [8]  1C 00 00 10 00 00 00 68
 (1652905428.705839)  can0  012   [8]  E8 03 10 00 00 00 00 00
 (1652905428.706713)  can0  014   [5]  01 20 00 10 27
 (1652905428.709926)  can0  1E5   [8]  1C 00 00 30 00 00 00 88
 (1652905428.715834)  can0  012   [8]  E8 03 10 00 00 00 00 00
 (1652905428.716698)  can0  014   [5]  02 10 00 10 27
 (1652905428.718520)  can0  1E5   [8]  1C 00 00 50 00 00 00 A8
 (1652905428.725859)  can0  012   [8]  E8 03 10 00 00 00 00 00
 (1652905428.726666)  can0  014   [5]  02 20 00 10 27
 (1652905428.728525)  can0  1E5   [8]  1C 00 00 70 00 00 00 C8
 (1652905428.734822)  can0  0F0   [1]  01
 (1652905428.735733)  can0  011   [2]  10 01
 (1652905428.735757)  can0  012   [8]  E8 03 10 00 00 00 00 00
 (1652905428.736670)  can0  014   [5]  02 10 00 16 27
 (1652905428.738359)  can0  1E5   [8]  1C 00 00 10 00 00 00 68
 (1652905428.745803)  can0  012   [8]  E8 03 10 00 00 00 00 00
 (1652905428.746702)  can0  014   [5]  02 20 00 0A 27
 (1652905428.748609)  can0  1E5   [8]  1C 00 00 30 00 00 00 88
 (1652905428.755971)  can0  012   [8]  E8 03 10 00 00 00 00 00
 (1652905428.756695)  can0  014   [5]  02 10 00 10 27
 (1652905428.758343)  can0  1E5   [8]  1C 00 00 50 00 00 00 A8
 (1652905428.765862)  can0  012   [8]  E8 03 10 00 00 00 00 00
 (1652905428.766713)  can0  014   [5]  02 10 00 10 27
 (1652905428.768598)  can0  1E5   [8]  1C 00 00 70 00 00 00 C8
 (1652905428.775807)  can0  012   [8]  E8 03 10 00 00 00 00 00
 (1652905428.776749)  can0  014   [5]  01 10 00 10 27
 (1652905428.778342)  can0  1E5   [8]  1C 00 00 10 00 00 00 68
 (1652905428.785812)  can0  012   [8]  E8 03 10 00 00 00 00 00
 (1652905428.786171)  can0  010   [4]  3F 99 10 01
 (1652905428.786714)  can0  014   [5]  02 20 00 13 27
 (1652905428.788645)  can0  1E5   [8]  1C 00 00 30 00 00 00 88
 (1652905428.795802)  can0  012   [8]  E8 03 10 00 00 00 00 00
 (1652905428.796702)  can0  014   [5]  01 10 00 0D 27
 (1652905428.798651)  can0  1E5   [8]  1C 00 00 50 00 00 00 A8
 (1652905428.805991)  can0  012   [8]  E8 03 10 00 00 00 00 00
 (1652905428.806709)  can0  014   [5]  01 10 00 10 27
 (1652905428.808333)  can0  1E5   [8]  1C 00 00 70 00 00 00 C8
 (1652905428.816018)  can0  012   [8]  E8 03 10 00 00 00 00 00
 (1652905428.816695)  can0  014   [5]  02 10 00 10 27
 (1652905428.818499)  can0  1E5   [8]  1C 00 00 10 00 00 00 68
 (1652905428.825773)  can0  012   [8]  E8 03 10 00 00 00 00 00
 (1652905428.826710)  can0  014   [5]  01 10 00 10 27
 (1652905428.828488)  can0  1E5   [8]  1C 00 00 30 00 00 00 88
 (1652905428.835773)  can0  012   [8]  E8 03 10 00 00 00 00 00
 (1652905428.836675)  can0  014   [5]  02 20 00 10 27
 (1652905428.836775)  can0  0F0   [1]  01
 (1652905428.837710)  can0  011   [2]  11 01
 (1652905428.838342)  can0  1E5   [8]  1C 00 00 50 00 00 00 A8
 (1652905428.845809)  can0  012   [8]  E8 03 10 00 00 00 00 00
 (1652905428.846720)  can0  014   [5]  03 20 00 19 27
 (1652905428.848329)  can0  1E5   [8]  1C 00 00 70 00 00 00 C8
 (1652905428.855828)  can0  012   [8]  E8 03 10 00 00 00 00 00
 (1652905428.856701)  can0  014   [5]  02 20 00 07 27
 (1652905428.858333)  can0  1E5   [8]  1C FF FE 1F FF 00 03 73
 (1652905428.866072)  can0  012   [8]  E8 03 10 00 00 00 00 00
 (1652905428.866708)  can0  014   [5]  03 20 00 10 27
 (1652905428.868487)  can0  1E5   [8]  1C FF FE 3F FF 00 03 93
 (1652905428.875818)  can0  012   [8]  E8 03 10 00 00 00 00 00
 (1652905428.876747)  can0  014   [5]  02 20 00 10 27
 (1652905428.878311)  can0  1E5   [8]  1C FF FE 5F FF 00 03 B3
 (1652905428.886070)  can0  012   [8]  E8 03 10 00 00 00 00 00
 (1652905428.886144)  can0  010   [4]  40 9B 11 01
 (1652905428.886710)  can0  014   [5]  03 30 00 13 27
 (1652905428.888494)  can0  1E5   [8]  1C FF FD 7F FE 00 03 D1
 (1652905428.896109)  can0  012   [8]  E8 03 10 00 00 00 00 00
 (1652905428.896698)  can0  014   [5]  03 20 00 0D 27
 (1652905428.898281)  can0  1E5   [8]  1C FF FD 1F FE 00 03 71
 (1652905428.906174)  can0  012   [8]  E8 03 10 00 00 00 00 00
 (1652905428.906711)  can0  014   [5]  03 20 00 10 27
 (1652905428.908339)  can0  1E5   [8]  1C FF FD 3F FE 00 03 91
 (1652905428.915904)  can0  012   [8]  E8 03 10 00 00 00 00 00
 (1652905428.916709)  can0  014   [5]  03 20 00 10 27
 (1652905428.918483)  can0  1E5   [8]  1C FF FB 5F FD 00 03 AE
 (1652905428.925773)  can0  012   [8]  E8 03 10 00 00 00 00 00
 (1652905428.926675)  can0  014   [5]  03 30 00 10 27
 (1652905428.928289)  can0  1E5   [8]  1C FF FA 7F FC 00 03 CC
 (1652905428.936222)  can0  012   [8]  E8 03 10 00 00 00 00 00
 (1652905428.936699)  can0  014   [5]  02 20 00 10 27
 (1652905428.938308)  can0  1E5   [8]  1C FF F8 1F FB 00 03 69
 (1652905428.938980)  can0  0F0   [1]  01
 (1652905428.939856)  can0  011   [2]  10 01
 (1652905428.945785)  can0  012   [8]  E8 03 10 00 00 00 00 00
 (1652905428.946669)  can0  014   [5]  03 20 00 16 27
 (1652905428.948293)  can0  1E5   [8]  1C FF F8 3F FB 00 03 89
 (1652905428.955808)  can0  012   [8]  E8 03 10 00 00 00 00 00
 (1652905428.956668)  can0  014   [5]  02 20 00 0A 27
 (1652905428.958286)  can0  1E5   [8]  1C FF F8 5F FC 00 03 AA
 (1652905428.965844)  can0  012   [8]  E8 03 10 00 00 00 00 00
 (1652905428.966686)  can0  014   [5]  02 20 00 10 27
 (1652905428.968302)  can0  1E5   [8]  1C FF F6 7F FB 00 03 C7
 (1652905428.975808)  can0  012   [8]  E8 03 10 00 00 00 00 00
 (1652905428.976711)  can0  014   [5]  02 30 00 10 27
 (1652905428.978330)  can0  1E5   [8]  1C FF F5 1F FA 00 03 65
 (1652905428.985862)  can0  012   [8]  E8 03 10 00 00 00 00 00
 (1652905428.986162)  can0  010   [4]  3F 99 10 01
 (1652905428.986702)  can0  014   [5]  03 20 00 13 27
 (1652905428.988317)  can0  1E5   [8]  1C FF F3 3F FA 00 03 83
 (1652905428.995800)  can0  012   [8]  E8 03 10 00 00 00 00 00
 (1652905428.996687)  can0  014   [5]  02 20 00 0D 27
 (1652905428.998325)  can0  1E5   [8]  1C FF F3 5F FA 00 03 A3
 (1652905429.005834)  can0  012   [8]  E8 03 10 00 00 00 00 00
 (1652905429.006707)  can0  014   [5]  03 30 00 10 27
 (1652905429.008332)  can0  1E5   [8]  1C FF F2 7F F9 00 03 C1
 (1652905429.016044)  can0  012   [8]  E8 03 10 00 00 00 00 00
 (1652905429.016707)  can0  014   [5]  03 30 00 10 27
 (1652905429.018473)  can0  1E5   [8]  1C FF F2 1F FA 00 03 62
 (1652905429.025796)  can0  012   [8]  E8 03 10 00 00 00 00 00
 (1652905429.026709)  can0  014   [5]  03 30 00 10 27
 (1652905429.028353)  can0  1E5   [8]  1C FF F0 3F FA 00 03 80
 (1652905429.035995)  can0  012   [8]  E8 03 10 00 00 00 00 00
 (1652905429.036711)  can0  014   [5]  03 30 00 10 27
 (1652905429.038477)  can0  1E5   [8]  1C FF EE 5F FA 00 03 9E
 (1652905429.041515)  can0  0F0   [1]  01
 (1652905429.042374)  can0  011   [2]  0E 01
 (1652905429.045908)  can0  012   [8]  E8 03 10 00 00 00 00 00
 (1652905429.046687)  can0  014   [5]  03 30 00 16 27
 (1652905429.048331)  can0  1E5   [8]  1C FF EE 7F FA 00 03 BE
 (1652905429.055791)  can0  012   [8]  E8 03 10 00 00 00 00 00
 (1652905429.056709)  can0  014   [5]  03 30 00 0A 27
 (1652905429.058323)  can0  1E5   [8]  1C FF ED 1F F9 00 03 5C
 (1652905429.065833)  can0  012   [8]  E8 03 10 00 00 00 00 00
 (1652905429.066702)  can0  014   [5]  03 40 00 10 27
 (1652905429.068487)  can0  1E5   [8]  1C FF EB 3F F9 00 03 7A
 (1652905429.075776)  can0  012   [8]  E8 03 10 00 00 00 00 00
 (1652905429.076730)  can0  014   [5]  03 30 00 10 27
 (1652905429.078333)  can0  1E5   [8]  1C FF EB 5F FA 00 03 9B
 (1652905429.085823)  can0  012   [8]  E8 03 10 00 00 00 00 00
 (1652905429.086184)  can0  010   [4]  3C 94 0E 01
 (1652905429.086712)  can0  014   [5]  04 30 00 13 27
 (1652905429.088328)  can0  1E5   [8]  1C FF EA 7F FA 00 03 BA
 (1652905429.096128)  can0  012   [8]  E8 03 10 00 00 00 00 00
 (1652905429.096703)  can0  014   [5]  03 30 00 0D 27
 (1652905429.098325)  can0  1E5   [8]  1C FF E8 1F F9 00 03 57
 (1652905429.105961)  can0  012   [8]  E8 03 10 00 00 00 00 00
 (1652905429.106705)  can0  014   [5]  03 40 00 10 27
 (1652905429.108329)  can0  1E5   [8]  1C FF E6 3F F9 00 03 75
 (1652905429.115818)  can0  012   [8]  E8 03 10 00 00 00 00 00
 (1652905429.116709)  can0  014   [5]  04 30 00 10 27
 (1652905429.118335)  can0  1E5   [8]  1C FF E5 5F F8 00 03 93
 (1652905429.125811)  can0  012   [8]  E8 03 10 00 00 00 00 00
 (1652905429.126716)  can0  014   [5]  03 40 00 10 27
 (1652905429.128320)  can0  1E5   [8]  1C FF E5 7F F9 00 03 B4
 (1652905429.135989)  can0  012   [8]  E8 03 10 00 00 00 00 00
 (1652905429.136718)  can0  014   [5]  04 30 00 10 27
 (1652905429.138489)  can0  1E5   [8]  1C FF E3 1F F9 00 03 52
 (1652905429.143692)  can0  0F0   [1]  01
 (1652905429.145085)  can0  011   [2]  0F 01
 (1652905429.145763)  can0  012   [8]  E8 03 10 00 00 00 00 00
 (1652905429.146680)  can0  014   [5]  03 40 00 16 27
 (1652905429.148325)  can0  1E5   [8]  1C FF E2 3F F8 00 03 70
 (1652905429.156025)  can0  012   [8]  E8 03 10 00 00 00 00 00
 (1652905429.156714)  can0  014   [5]  04 30 00 0A 27
 (1652905429.158342)  can0  1E5   [8]  1C FF E0 5F F8 00 03 8E
 (1652905429.165798)  can0  012   [8]  E8 03 10 00 00 00 00 00
 (1652905429.166708)  can0  014   [5]  04 40 00 10 27
 (1652905429.168317)  can0  1E5   [8]  1C FF DE 7F F8 00 03 AC
 (1652905429.175801)  can0  012   [8]  E8 03 10 00 00 00 00 00
 (1652905429.176720)  can0  014   [5]  04 40 00 10 27
 (1652905429.178302)  can0  1E5   [8]  1C FF DD 1F F7 00 03 4A
 (1652905429.185829)  can0  012   [8]  E8 03 10 00 00 00 00 00
 (1652905429.185882)  can0  0E3   [2]  82 02
 (1652905429.186196)  can0  010   [4]  3D 96 0E 01
 (1652905429.186296)  can0  0E2   [2]  82 02
 (1652905429.186710)  can0  014   [5]  04 40 00 19 27
 (1652905429.186813)  can0  0E4   [2]  82 02
 (1652905429.188333)  can0  1E5   [8]  1C FF DB 3F F7 00 03 68
 (1652905429.195898)  can0  012   [8]  E8 03 10 00 00 00 00 00
 (1652905429.196700)  can0  014   [5]  04 50 00 07 27
 (1652905429.198470)  can0  1E5   [8]  1C FF D8 5F F6 00 03 84
 (1652905429.205984)  can0  012   [8]  E8 03 10 00 00 00 00 00
 (1652905429.206713)  can0  014   [5]  05 40 00 10 27
 (1652905429.208339)  can0  1E5   [8]  1C FF D6 7F F6 00 03 A2
 (1652905429.215807)  can0  012   [8]  E8 03 10 00 00 00 00 00
 (1652905429.216708)  can0  014   [5]  04 40 00 10 27
 (1652905429.218491)  can0  1E5   [8]  1C FF D5 1F F6 00 03 41
 (1652905429.225798)  can0  012   [8]  E8 03 10 00 00 00 00 00
 (1652905429.226714)  can0  014   [5]  04 50 00 10 27
 (1652905429.228323)  can0  1E5   [8]  1C FF D3 3F F5 00 03 5E
 (1652905429.235998)  can0  012   [8]  E8 03 10 00 00 00 00 00
 (1652905429.236703)  can0  014   [5]  05 40 00 10 27
 (1652905429.238508)  can0  1E5   [8]  1C FF D0 5F F4 00 03 7A
 (1652905429.245784)  can0  012   [8]  E8 03 10 00 00 00 00 00
 (1652905429.246425)  can0  0F0   [1]  01
 (1652905429.246741)  can0  014   [5]  04 50 00 14 27
 (1652905429.247446)  can0  011   [2]  10 01
 (1652905429.248320)  can0  1E5   [8]  1C FF CE 7F F4 00 03 98
 (1652905429.255784)  can0  012   [8]  E8 03 10 00 00 00 00 00
 (1652905429.256701)  can0  014   [5]  05 40 00 12 27
 (1652905429.258280)  can0  1E5   [8]  1C FF CB 1F F3 00 03 34
 (1652905429.265792)  can0  012   [8]  E8 03 10 00 00 00 00 00
 (1652905429.266708)  can0  014   [5]  05 50 00 0A 27
 (1652905429.268310)  can0  1E5   [8]  1C FF CA 3F F3 00 03 53
 (1652905429.275766)  can0  012   [8]  E8 03 10 00 00 00 00 00
 (1652905429.276693)  can0  014   [5]  05 50 00 10 27
 (1652905429.278307)  can0  1E5   [8]  1C FF C6 5F F2 00 03 6E
 (1652905429.286054)  can0  012   [8]  E8 03 10 00 00 00 00 00
 (1652905429.286126)  can0  010   [4]  3F 99 10 01
 (1652905429.286699)  can0  014   [5]  05 50 00 13 27
 (1652905429.288337)  can0  1E5   [8]  1C FF C5 7F F2 00 03 8D
 (1652905429.295776)  can0  012   [8]  E8 03 10 00 00 00 00 00
 (1652905429.296650)  can0  014   [5]  05 50 00 0D 27
 (1652905429.298287)  can0  1E5   [8]  1C FF C2 1F F2 00 03 2A
 (1652905429.305989)  can0  012   [8]  E8 03 10 00 00 00 00 00
 (1652905429.306697)  can0  014   [5]  05 50 00 10 27
 (1652905429.308304)  can0  1E5   [8]  1C FF BE 3F F1 00 03 45
 (1652905429.315797)  can0  012   [8]  E8 03 10 00 00 00 00 00
 (1652905429.316714)  can0  014   [5]  05 50 00 10 27
 (1652905429.318677)  can0  1E5   [8]  1C FF BD 5F F1 00 03 64
 (1652905429.325797)  can0  012   [8]  E8 03 10 00 00 00 00 00
 (1652905429.326729)  can0  014   [5]  05 60 00 10 27
 (1652905429.328292)  can0  1E5   [8]  1C FF BA 7F F0 00 03 80
 (1652905429.336006)  can0  012   [8]  E8 03 10 00 00 00 00 00
 (1652905429.336708)  can0  014   [5]  06 50 00 10 27
 (1652905429.338480)  can0  1E5   [8]  1C FF B8 1F F1 00 03 1F
 (1652905429.345770)  can0  012   [8]  E8 03 10 00 00 00 00 00
 (1652905429.346661)  can0  014   [5]  05 60 00 10 27
 (1652905429.348259)  can0  1E5   [8]  1C FF B5 3F F0 00 03 3B
 (1652905429.348529)  can0  0F0   [1]  01
 (1652905429.349504)  can0  011   [2]  10 01
 (1652905429.355776)  can0  012   [8]  E8 03 10 00 00 00 00 00
 (1652905429.356656)  can0  014   [5]  06 50 00 16 27
 (1652905429.358312)  can0  1E5   [8]  1C FF B3 5F F1 00 03 5A
 (1652905429.365784)  can0  012   [8]  E8 03 10 00 00 00 00 00
 (1652905429.366709)  can0  014   [5]  05 60 00 0A 27
 (1652905429.368319)  can0  1E5   [8]  1C FF B0 7F F0 00 03 76
 (1652905429.375804)  can0  012   [8]  E8 03 10 00 00 00 00 00
 (1652905429.376698)  can0  014   [5]  06 50 00 10 27
 (1652905429.378268)  can0  1E5   [8]  1C FF AD 1F F0 00 03 13
 (1652905429.385807)  can0  012   [8]  E8 03 10 00 00 00 00 00
 (1652905429.386189)  can0  010   [4]  3F 99 10 01
 (1652905429.386699)  can0  014   [5]  06 60 00 13 27
 (1652905429.388322)  can0  1E5   [8]  1C FF AA 3F EF 00 03 2F
 (1652905429.395788)  can0  012   [8]  E8 03 10 00 00 00 00 00
 (1652905429.396643)  can0  014   [5]  06 60 00 0D 27
 (1652905429.398275)  can0  1E5   [8]  1C FF A6 5F EF 00 03 4B
 (1652905429.406046)  can0  012   [8]  E8 03 10 00 00 00 00 00
 (1652905429.406707)  can0  014   [5]  06 60 00 10 27
 (1652905429.408277)  can0  1E5   [8]  1C FF A3 7F EF 00 03 68
 (1652905429.415810)  can0  012   [8]  E8 03 10 00 00 00 00 00
 (1652905429.416701)  can0  014   [5]  06 60 00 10 27
 (1652905429.418463)  can0  1E5   [8]  1C FF A2 1F EF 00 03 07
 (1652905429.425806)  can0  012   [8]  E8 03 10 00 00 00 00 00
 (1652905429.426704)  can0  014   [5]  06 60 00 10 27
 (1652905429.428306)  can0  1E5   [8]  1C FF 9E 3F EF 00 03 23
 (1652905429.436124)  can0  012   [8]  E8 03 10 00 00 00 00 00
 (1652905429.436705)  can0  014   [5]  06 70 00 10 27
 (1652905429.438470)  can0  1E5   [8]  1C FF 9D 5F EF 00 03 42
 (1652905429.446119)  can0  012   [8]  E8 03 10 00 00 00 00 00
 (1652905429.446700)  can0  014   [5]  07 70 00 13 27
 (1652905429.448275)  can0  1E5   [8]  1C FF 9A 7F EF 00 03 5F
 (1652905429.450685)  can0  0F0   [1]  01
 (1652905429.451825)  can0  011   [2]  10 01
 (1652905429.455824)  can0  012   [8]  E8 03 10 00 00 00 00 00
 (1652905429.456716)  can0  014   [5]  07 60 00 13 27
 (1652905429.458276)  can0  1E5   [8]  1C FF 98 1F EF 00 02 FD
 (1652905429.466228)  can0  012   [8]  E8 03 10 00 00 00 00 00
 (1652905429.466704)  can0  014   [5]  07 70 00 0A 27
 (1652905429.468466)  can0  1E5   [8]  1C FF 95 3F EF 00 03 1A
 (1652905429.475801)  can0  012   [8]  E8 03 10 00 00 00 00 00
 (1652905429.476714)  can0  014   [5]  07 70 00 10 27
 (1652905429.478289)  can0  1E5   [8]  1C FF 93 5F F0 00 03 39
 (1652905429.486256)  can0  012   [8]  E8 03 10 00 00 00 00 00
 (1652905429.486264)  can0  010   [4]  3F 99 10 01
 (1652905429.486711)  can0  014   [5]  07 70 00 13 27
 (1652905429.488453)  can0  1E5   [8]  1C FF 92 7F F1 00 03 59
 (1652905429.496401)  can0  012   [8]  E8 03 10 00 00 00 00 00
 (1652905429.496652)  can0  014   [5]  08 70 00 0D 27
 (1652905429.498268)  can0  1E5   [8]  1C FF 90 1F F2 00 02 F8
 (1652905429.505800)  can0  012   [8]  E8 03 10 00 00 00 00 00
 (1652905429.506709)  can0  014   [5]  07 80 00 10 27
 (1652905429.508464)  can0  1E5   [8]  1C FF 8E 3F F3 00 03 17
 (1652905429.516280)  can0  012   [8]  E8 03 10 00 00 00 00 00
 (1652905429.516709)  can0  014   [5]  08 80 00 10 27
 (1652905429.518445)  can0  1E5   [8]  1C FF 8D 5F F3 00 03 36
 (1652905429.525794)  can0  012   [8]  E8 03 10 00 00 00 00 00
 (1652905429.526707)  can0  014   [5]  08 70 00 10 27
 (1652905429.528276)  can0  1E5   [8]  1C FF 8D 7F F5 00 03 58
 (1652905429.535790)  can0  012   [8]  E8 03 10 00 00 00 00 00
 (1652905429.536708)  can0  014   [5]  08 90 00 14 27
 (1652905429.538317)  can0  1E5   [8]  1C FF 8B 1F F5 00 02 F6
 (1652905429.545902)  can0  012   [8]  E8 03 10 00 00 00 00 00
 (1652905429.546680)  can0  014   [5]  08 80 00 0C 27
 (1652905429.548457)  can0  1E5   [8]  1C FF 8A 3F F6 00 03 16
 (1652905429.553141)  can0  0F0   [1]  01
 (1652905429.554059)  can0  011   [2]  0C 01
 (1652905429.555781)  can0  012   [8]  E8 03 10 00 00 00 00 00
 (1652905429.556700)  can0  014   [5]  08 80 00 16 27
 (1652905429.558305)  can0  1E5   [8]  1C FF 88 5F F6 00 03 34
 (1652905429.565819)  can0  012   [8]  E8 03 10 00 00 00 00 00
 (1652905429.566709)  can0  014   [5]  08 80 00 0A 27
 (1652905429.568263)  can0  1E5   [8]  1C FF 88 7F F8 00 03 56
 (1652905429.575897)  can0  012   [8]  E8 03 10 00 00 00 00 00
 (1652905429.576676)  can0  014   [5]  08 80 00 10 27
 (1652905429.578331)  can0  1E5   [8]  1C FF 86 1F F8 00 02 F4
 (1652905429.585813)  can0  012   [8]  E8 03 10 00 00 00 00 00
 (1652905429.586189)  can0  010   [4]  39 8F 0C 01
 (1652905429.586702)  can0  014   [5]  08 80 00 13 27
 (1652905429.588462)  can0  1E5   [8]  1C FF 85 3F F8 00 03 13
 (1652905429.596129)  can0  012   [8]  E8 03 10 00 00 00 00 00
 (1652905429.596691)  can0  014   [5]  08 80 00 0D 27
 (1652905429.598322)  can0  1E5   [8]  1C FF 85 5F F9 00 03 34
 (1652905429.606052)  can0  012   [8]  E8 03 10 00 00 00 00 00
 (1652905429.606713)  can0  014   [5]  09 90 00 13 27
 (1652905429.608279)  can0  1E5   [8]  1C FF 83 7F F9 00 03 52
 (1652905429.616078)  can0  012   [8]  E8 03 10 00 00 00 00 00
 (1652905429.616695)  can0  014   [5]  08 80 00 0D 27
 (1652905429.618469)  can0  1E5   [8]  1C FF 83 1F FA 00 02 F3
 (1652905429.625764)  can0  012   [8]  E8 03 10 00 00 00 00 00
 (1652905429.626668)  can0  014   [5]  09 90 00 10 27
 (1652905429.628284)  can0  1E5   [8]  1C FF 82 3F F9 00 03 11
 (1652905429.636028)  can0  012   [8]  E8 03 10 00 00 00 00 00
 (1652905429.636705)  can0  014   [5]  0A 90 00 10 27
 (1652905429.638476)  can0  1E5   [8]  1C FF 80 5F F9 00 03 2F
 (1652905429.646022)  can0  012   [8]  E8 03 10 00 00 00 00 00
 (1652905429.646694)  can0  014   [5]  09 A0 00 10 27
 (1652905429.648324)  can0  1E5   [8]  1C FF 80 7F FA 00 03 50
 (1652905429.655019)  can0  0F0   [1]  01
 (1652905429.655773)  can0  012   [8]  E8 03 10 00 00 00 00 00
 (1652905429.656109)  can0  011   [2]  0D 01
 (1652905429.656708)  can0  014   [5]  0A 90 00 16 27
 (1652905429.658299)  can0  1E5   [8]  1C FF 80 1F FB 00 02 F1
 (1652905429.665817)  can0  012   [8]  E8 03 10 00 00 00 00 00
 (1652905429.666697)  can0  014   [5]  0A A0 00 0A 27
 (1652905429.668463)  can0  1E5   [8]  1C FF 7E 3F FA 00 03 0E
 (1652905429.675805)  can0  012   [8]  E8 03 10 00 00 00 00 00
 (1652905429.676698)  can0  014   [5]  0A A0 00 10 27
 (1652905429.678284)  can0  1E5   [8]  1C FF 7D 5F FA 00 03 2D
 (1652905429.685972)  can0  012   [8]  E8 03 10 00 00 00 00 00
 (1652905429.686170)  can0  010   [4]  3A 92 0D 01
 (1652905429.686688)  can0  014   [5]  0A A0 00 13 27
 (1652905429.688330)  can0  1E5   [8]  1C FF 7A 7F F9 00 03 49
 (1652905429.695881)  can0  012   [8]  E8 03 10 00 00 00 00 00
 (1652905429.696689)  can0  014   [5]  0A A0 00 0D 27
 (1652905429.698269)  can0  1E5   [8]  1C FF 78 1F F8 00 02 E6
 (1652905429.705828)  can0  012   [8]  E8 03 10 00 00 00 00 00
 (1652905429.706708)  can0  014   [5]  0B A0 00 13 27
 (1652905429.708317)  can0  1E5   [8]  1C FF 76 3F F8 00 03 04
 (1652905429.715811)  can0  012   [8]  E8 03 10 00 00 00 00 00
 (1652905429.716696)  can0  014   [5]  0A A0 00 0D 27
 (1652905429.718452)  can0  1E5   [8]  1C FF 73 5F F6 00 03 1F
 (1652905429.725787)  can0  012   [8]  E8 03 10 00 00 00 00 00
 (1652905429.726658)  can0  014   [5]  0A A0 00 10 27
 (1652905429.728290)  can0  1E5   [8]  1C FF 70 7F F5 00 03 3B
 (1652905429.735784)  can0  012   [8]  E8 03 10 00 00 00 00 00
 (1652905429.736710)  can0  014   [5]  0A B0 00 10 27
 (1652905429.738308)  can0  1E5   [8]  1C FF 6B 1F F3 00 02 D4
 (1652905429.745879)  can0  012   [8]  E8 03 10 00 00 00 00 00
 (1652905429.746686)  can0  014   [5]  0A A0 00 10 27
 (1652905429.748317)  can0  1E5   [8]  1C FF 68 3F F1 00 02 EF
 (1652905429.755809)  can0  012   [8]  E8 03 10 00 00 00 00 00
 (1652905429.756708)  can0  014   [5]  0B B0 00 10 27
 (1652905429.757054)  can0  0F0   [1]  01
 (1652905429.758243)  can0  011   [2]  0E 01
 (1652905429.758298)  can0  1E5   [8]  1C FF 65 5F EF 00 03 0A
 (1652905429.765814)  can0  012   [8]  E8 03 10 00 00 00 00 00
 (1652905429.766699)  can0  014   [5]  0B B0 00 16 27
 (1652905429.768527)  can0  1E5   [8]  1C FF 62 7F EE 00 03 26
 (1652905429.775791)  can0  012   [8]  E8 03 10 00 00 00 00 00
 (1652905429.776718)  can0  014   [5]  0B C0 00 0A 27
 (1652905429.778298)  can0  1E5   [8]  1C FF 5E 1F ED 00 02 C1
 (1652905429.785967)  can0  012   [8]  E8 03 10 00 00 00 00 00
 (1652905429.786170)  can0  010   [4]  3C 94 0E 01
 (1652905429.786711)  can0  014   [5]  0C B0 00 13 27
 (1652905429.788559)  can0  1E5   [8]  1C FF 5A 3F EC 00 02 DC
 (1652905429.796056)  can0  012   [8]  E8 03 10 00 00 00 00 00
 (1652905429.796685)  can0  014   [5]  0C C0 00 0D 27
 (1652905429.798737)  can0  1E5   [8]  1C FF 56 5F EB 00 02 F7
 (1652905429.805845)  can0  012   [8]  E8 03 10 00 00 00 00 00
 (1652905429.806701)  can0  014   [5]  0C C0 00 10 27
 (1652905429.808302)  can0  1E5   [8]  1C FF 53 7F EA 00 03 13
 (1652905429.815954)  can0  012   [8]  E8 03 10 00 00 00 00 00
 (1652905429.816707)  can0  014   [5]  0C C0 00 10 27
 (1652905429.818615)  can0  1E5   [8]  1C FF 50 1F EA 00 02 B0
 (1652905429.825812)  can0  012   [8]  E8 03 10 00 00 00 00 00
 (1652905429.826688)  can0  014   [5]  0C C0 00 10 27
 (1652905429.828257)  can0  1E5   [8]  1C FF 4D 3F EA 00 02 CD
 (1652905429.835978)  can0  012   [8]  E8 03 10 00 00 00 00 00
 (1652905429.836706)  can0  014   [5]  0C C0 00 10 27
 (1652905429.838450)  can0  1E5   [8]  1C FF 4A 5F EB 00 02 EB
 (1652905429.846072)  can0  012   [8]  E8 03 10 00 00 00 00 00
 (1652905429.846696)  can0  014   [5]  0C C0 00 10 27
 (1652905429.848448)  can0  1E5   [8]  1C FF 48 7F EC 00 03 0A
 (1652905429.855956)  can0  012   [8]  E8 03 10 00 00 00 00 00
 (1652905429.856708)  can0  014   [5]  0C C0 00 10 27
 (1652905429.858267)  can0  1E5   [8]  1C FF 46 1F ED 00 02 A9
 (1652905429.859141)  can0  0F0   [1]  01
 (1652905429.860292)  can0  011   [2]  0E 01
 (1652905429.865808)  can0  012   [8]  E8 03 10 00 00 00 00 00
 (1652905429.866706)  can0  014   [5]  0D D0 00 16 27
 (1652905429.868262)  can0  1E5   [8]  1C FF 45 3F EE 00 02 C9
 (1652905429.875794)  can0  012   [8]  E8 03 10 00 00 00 00 00
 (1652905429.876717)  can0  014   [5]  0D D0 00 0A 27
 (1652905429.878267)  can0  1E5   [8]  1C FF 45 5F F0 00 02 EB
 (1652905429.885788)  can0  012   [8]  E8 03 10 00 00 00 00 00
 (1652905429.886181)  can0  010   [4]  3C 94 0E 01
 (1652905429.886687)  can0  014   [5]  0D D0 00 13 27
 (1652905429.888441)  can0  1E5   [8]  1C FF 45 7F F3 00 03 0E
 (1652905429.896065)  can0  012   [8]  E8 03 10 00 00 00 00 00
 (1652905429.896706)  can0  014   [5]  0D D0 00 0D 27
 (1652905429.898298)  can0  1E5   [8]  1C FF 45 1F F5 00 02 B0
 (1652905429.906007)  can0  012   [8]  E8 03 10 00 00 00 00 00
 (1652905429.906659)  can0  014   [5]  0E D0 00 10 27
 (1652905429.908285)  can0  1E5   [8]  1C FF 45 3F F7 00 02 D2
 (1652905429.915792)  can0  012   [8]  E8 03 10 00 00 00 00 00
 (1652905429.916709)  can0  014   [5]  0D E0 00 10 27
 (1652905429.918455)  can0  1E5   [8]  1C FF 45 5F F9 00 02 F4
 (1652905429.925797)  can0  012   [8]  E8 03 10 00 00 00 00 00
 (1652905429.926682)  can0  014   [5]  0E E0 00 14 27
 (1652905429.928287)  can0  1E5   [8]  1C FF 45 7F FB 00 03 16
 (1652905429.935833)  can0  012   [8]  E8 03 10 00 00 00 00 00
 (1652905429.936696)  can0  014   [5]  0D D0 00 0C 27
 (1652905429.938457)  can0  1E5   [8]  1C FF 43 1F FC 00 02 B5
 (1652905429.945871)  can0  012   [8]  E8 03 10 00 00 00 00 00
 (1652905429.946646)  can0  014   [5]  0E D0 00 10 27
 (1652905429.948245)  can0  1E5   [8]  1C FF 43 3F FD 00 02 D6
 (1652905429.956157)  can0  012   [8]  E8 03 10 00 00 00 00 00
 (1652905429.956706)  can0  014   [5]  0E E0 00 10 27
 (1652905429.958282)  can0  1E5   [8]  1C FF 42 5F FD 00 02 F5
 (1652905429.961917)  can0  0F0   [1]  01
 (1652905429.962835)  can0  011   [2]  02 01
 (1652905429.965806)  can0  012   [8]  E8 03 10 00 00 00 00 00
 (1652905429.966656)  can0  014   [5]  0E E0 00 16 27
 (1652905429.968256)  can0  1E5   [8]  1C FF 40 7F FD 00 03 13
 (1652905429.975764)  can0  012   [8]  E8 03 10 00 00 00 00 00
 (1652905429.976703)  can0  014   [5]  0E F0 00 0A 27
 (1652905429.978260)  can0  1E5   [8]  1C FF 3D 1F FB 00 02 AE
 (1652905429.986222)  can0  012   [8]  E8 03 10 00 00 00 00 00
 (1652905429.986231)  can0  010   [4]  29 78 02 01
 (1652905429.986741)  can0  014   [5]  0F F0 00 13 27
 (1652905429.988437)  can0  1E5   [8]  1C FF 3A 3F F9 00 02 C9
 (1652905429.995904)  can0  012   [8]  E8 03 10 00 00 00 00 00
 (1652905429.996644)  can0  014   [5]  0F F0 00 0D 27
 (1652905429.998286)  can0  1E5   [8]  1C FF 35 5F F6 00 02 E1
 (1652905430.006199)  can0  012   [8]  E8 03 10 00 00 00 00 00
 (1652905430.006706)  can0  014   [5]  0F F0 00 10 27
 (1652905430.008259)  can0  1E5   [8]  1C FF 30 7F F3 00 02 F9
 (1652905430.015769)  can0  012   [8]  E8 03 10 00 00 00 00 00
 (1652905430.016702)  can0  014   [5]  0F F0 00 10 27
 (1652905430.018303)  can0  1E5   [8]  1C FF 2A 1F EF 00 02 8F
 (1652905430.025765)  can0  012   [8]  E8 03 10 00 00 00 00 00
 (1652905430.026666)  can0  014   [5]  0F E0 00 10 27
 (1652905430.028261)  can0  1E5   [8]  1C FF 23 3F EB 00 02 A4
 (1652905430.035811)  can0  012   [8]  E8 03 10 00 00 00 00 00
 (1652905430.036710)  can0  014   [5]  0E F0 00 11 27
 (1652905430.038461)  can0  1E5   [8]  1C FF 1D 5F E8 00 02 BB
 (1652905430.046072)  can0  012   [8]  E8 03 10 00 00 00 00 00
 (1652905430.046656)  can0  014   [5]  0F E0 00 0F 27
 (1652905430.048279)  can0  1E5   [8]  1C FF 16 7F E4 00 02 D0
 (1652905430.056039)  can0  012   [8]  E8 03 10 00 00 00 00 00
 (1652905430.056662)  can0  014   [5]  0F F0 00 10 27
 (1652905430.058237)  can0  1E5   [8]  1C FF 0E 1F E0 00 02 64
 (1652905430.064102)  can0  0F0   [1]  01
 (1652905430.065138)  can0  011   [2]  08 01
 (1652905430.065761)  can0  012   [8]  E8 03 10 00 00 00 00 00
 (1652905430.066701)  can0  014   [5]  0E F0 00 16 27
 (1652905430.068263)  can0  1E5   [8]  1C FF 06 3F DC 00 02 78
 (1652905430.075770)  can0  012   [8]  E8 03 10 00 00 00 00 00
 (1652905430.076688)  can0  014   [5]  0F F0 00 0A 27
 (1652905430.078276)  can0  1E5   [8]  1C FE FE 5F D9 00 03 8C
 (1652905430.085785)  can0  012   [8]  E8 03 10 00 00 00 00 00
 (1652905430.086182)  can0  010   [4]  32 86 08 01
 (1652905430.086706)  can0  014   [5]  0E F0 00 13 27
 (1652905430.088422)  can0  1E5   [8]  1C FE F6 7F D6 00 03 A1
 (1652905430.096038)  can0  012   [8]  E8 03 10 00 00 00 00 00
 (1652905430.096651)  can0  014   [5]  0F F0 00 0D 27
 (1652905430.098274)  can0  1E5   [8]  1C FE EE 1F D4 00 03 37
 (1652905430.105861)  can0  012   [8]  E8 03 10 00 00 00 00 00
 (1652905430.106691)  can0  014   [5]  0E F0 00 10 27
 (1652905430.108246)  can0  1E5   [8]  1C FE E6 3F D2 00 03 4D
 (1652905430.115826)  can0  012   [8]  E8 03 10 00 00 00 00 00
 (1652905430.116713)  can0  014   [5]  0F F0 00 10 27
 (1652905430.118446)  can0  1E5   [8]  1C FE E0 5F D2 00 03 67
 (1652905430.125769)  can0  012   [8]  E8 03 10 00 00 00 00 00
 (1652905430.126702)  can0  014   [5]  0F F0 00 10 27
 (1652905430.128259)  can0  1E5   [8]  1C FE DA 7F D2 00 03 81
 (1652905430.135802)  can0  012   [8]  E8 03 10 00 00 00 00 00
 (1652905430.136711)  can0  014   [5]  0F 00 01 10 27
 (1652905430.138462)  can0  1E5   [8]  1C FE D2 1F D1 00 03 18
 (1652905430.145894)  can0  012   [8]  E8 03 10 00 00 00 00 00
 (1652905430.146655)  can0  014   [5]  10 10 01 10 27
 (1652905430.148442)  can0  1E5   [8]  1C FE CB 3F D1 00 03 31
 (1652905430.155815)  can0  012   [8]  E8 03 10 00 00 00 00 00
 (1652905430.156694)  can0  014   [5]  11 20 01 11 27
 (1652905430.158242)  can0  1E5   [8]  1C FE C6 5F D3 00 03 4E
 (1652905430.165777)  can0  012   [8]  E8 03 10 00 00 00 00 00
 (1652905430.166211)  can0  0F0   [1]  01
 (1652905430.166646)  can0  014   [5]  11 10 01 12 27
 (1652905430.167324)  can0  011   [2]  0B 01
 (1652905430.168255)  can0  1E5   [8]  1C FE C0 7F D4 00 03 69
 (1652905430.175825)  can0  012   [8]  E8 03 10 00 00 00 00 00
 (1652905430.176676)  can0  014   [5]  12 20 01 12 27
 (1652905430.178291)  can0  1E5   [8]  1C FE BB 1F D6 00 03 06
 (1652905430.185755)  can0  012   [8]  E8 03 10 00 00 00 00 00
 (1652905430.185858)  can0  0E3   [2]  AA 02
 (1652905430.186122)  can0  010   [4]  37 8D 0B 01
 (1652905430.186253)  can0  0E2   [2]  AA 02
 (1652905430.186650)  can0  014   [5]  11 10 01 14 27
 (1652905430.186763)  can0  0E4   [2]  AA 02
 (1652905430.188241)  can0  1E5   [8]  1C FE B8 3F D9 00 03 26
 (1652905430.195758)  can0  012   [8]  E8 03 10 00 00 00 00 00
 (1652905430.196641)  can0  014   [5]  11 20 01 07 27
 (1652905430.198229)  can0  1E5   [8]  1C FE B6 5F DD 00 03 48
 (1652905430.205756)  can0  012   [8]  E8 03 10 00 00 00 00 00
 (1652905430.206640)  can0  014   [5]  11 00 01 10 27
 (1652905430.208258)  can0  1E5   [8]  1C FE B3 7F E0 00 03 68
 (1652905430.215762)  can0  012   [8]  E8 03 10 00 00 00 00 00
 (1652905430.216648)  can0  014   [5]  10 10 01 10 27
 (1652905430.218250)  can0  1E5   [8]  1C FE B2 1F E3 00 03 0A
 (1652905430.225754)  can0  012   [8]  E8 03 10 00 00 00 00 00
 (1652905430.226650)  can0  014   [5]  11 10 01 10 27
 (1652905430.228260)  can0  1E5   [8]  1C FE B2 3F E7 00 03 2E
 (1652905430.235830)  can0  012   [8]  E8 03 10 00 00 00 00 00
 (1652905430.236689)  can0  014   [5]  12 10 01 10 27
 (1652905430.238274)  can0  1E5   [8]  1C FE B2 5F EC 00 03 53
 (1652905430.245915)  can0  012   [8]  E8 03 10 00 00 00 00 00
 (1652905430.246710)  can0  014   [5]  11 10 01 10 27
 (1652905430.248276)  can0  1E5   [8]  1C FE B3 70 00 00 02 79
 (1652905430.255827)  can0  012   [8]  E8 03 10 00 00 00 00 00
 (1652905430.256702)  can0  014   [5]  11 20 01 14 27
 (1652905430.258301)  can0  1E5   [8]  1C FE B3 10 00 00 02 19
 (1652905430.265795)  can0  012   [8]  E8 03 10 00 00 00 00 00
 (1652905430.266696)  can0  014   [5]  11 10 01 0C 27
 (1652905430.268242)  can0  0F0   [1]  01
 (1652905430.268291)  can0  1E5   [8]  1C FE B5 30 01 00 02 3C
 (1652905430.269670)  can0  011   [2]  0C 01
 (1652905430.275820)  can0  012   [8]  E8 03 10 00 00 00 00 00
 (1652905430.276735)  can0  014   [5]  12 10 01 16 27
 (1652905430.278295)  can0  1E5   [8]  1C FE B6 50 02 00 02 5E
 (1652905430.285802)  can0  012   [8]  E8 03 10 00 00 00 00 00
 (1652905430.286170)  can0  010   [4]  39 8F 0C 01
 (1652905430.286698)  can0  014   [5]  11 30 01 11 27
 (1652905430.288292)  can0  1E5   [8]  1C FE B6 70 02 00 02 7E
 (1652905430.295784)  can0  012   [8]  E8 03 10 00 00 00 00 00
 (1652905430.296697)  can0  014   [5]  12 20 01 09 27
 (1652905430.298261)  can0  1E5   [8]  1C FE B8 10 03 00 02 21
 (1652905430.305846)  can0  012   [8]  E8 03 10 00 00 00 00 00
 (1652905430.306690)  can0  014   [5]  13 30 01 10 27
 (1652905430.308291)  can0  1E5   [8]  1C FE BA 30 04 00 02 44
 (1652905430.315883)  can0  012   [8]  E8 03 10 00 00 00 00 00
 (1652905430.316695)  can0  014   [5]  13 30 01 10 27
 (1652905430.318289)  can0  1E5   [8]  1C FE BA 50 04 00 02 64
 (1652905430.325829)  can0  012   [8]  E8 03 10 00 00 00 00 00
 (1652905430.326694)  can0  014   [5]  13 30 01 10 27
 (1652905430.328295)  can0  1E5   [8]  1C FE BA 70 04 00 02 84
 (1652905430.335807)  can0  012   [8]  E8 03 10 00 00 00 00 00
 (1652905430.336699)  can0  014   [5]  13 30 01 11 27
 (1652905430.338295)  can0  1E5   [8]  1C FE BA 10 04 00 02 24
 (1652905430.345808)  can0  012   [8]  E8 03 10 00 00 00 00 00
 (1652905430.346700)  can0  014   [5]  12 20 01 0F 27
 (1652905430.348647)  can0  1E5   [8]  1C FE BA 30 04 00 02 44
 (1652905430.355952)  can0  012   [8]  E8 03 10 00 00 00 00 00
 (1652905430.356706)  can0  014   [5]  11 20 01 10 27
 (1652905430.358302)  can0  1E5   [8]  1C FE BA 50 04 00 02 64
 (1652905430.366021)  can0  012   [8]  E8 03 10 00 00 00 00 00
 (1652905430.366677)  can0  014   [5]  11 20 01 10 27
 (1652905430.368424)  can0  1E5   [8]  1C FE BA 70 03 00 02 83
 (1652905430.371716)  can0  0F0   [1]  01
 (1652905430.372402)  can0  011   [2]  00 01
 (1652905430.375771)  can0  012   [8]  E8 03 10 00 00 00 00 00
 (1652905430.376701)  can0  014   [5]  13 30 01 16 27
 (1652905430.378277)  can0  1E5   [8]  1C FE B8 10 00 00 02 1E
 (1652905430.385793)  can0  012   [8]  E8 03 10 00 00 00 00 00
 (1652905430.386160)  can0  010   [4]  26 73 00 01
 (1652905430.386696)  can0  014   [5]  12 20 01 0D 27
 (1652905430.388769)  can0  1E5   [8]  1C FE B8 30 00 00 02 3E
 (1652905430.396032)  can0  012   [8]  E8 03 10 00 00 00 00 00
 (1652905430.396698)  can0  014   [5]  13 30 01 10 27
 (1652905430.398427)  can0  1E5   [8]  1C FE B8 50 00 00 02 5E
 (1652905430.405996)  can0  012   [8]  E8 03 10 00 00 00 00 00
 (1652905430.406679)  can0  014   [5]  12 30 01 0D 27
 (1652905430.408267)  can0  1E5   [8]  1C FE B6 7F FF 00 03 8A
 (1652905430.416030)  can0  012   [8]  E8 03 10 00 00 00 00 00
 (1652905430.416683)  can0  014   [5]  12 20 01 10 27
 (1652905430.418293)  can0  1E5   [8]  1C FE B6 1F FF 00 03 2A
 (1652905430.425786)  can0  012   [8]  E8 03 10 00 00 00 00 00
 (1652905430.426707)  can0  014   [5]  12 30 01 10 27
 (1652905430.428281)  can0  1E5   [8]  1C FE B6 3F FF 00 03 4A
 (1652905430.435836)  can0  012   [8]  E8 03 10 00 00 00 00 00
 (1652905430.436700)  can0  014   [5]  12 20 01 10 27
 (1652905430.438446)  can0  1E5   [8]  1C FE B6 5F FF 00 03 6A
 (1652905430.445861)  can0  012   [8]  E8 03 10 00 00 00 00 00
 (1652905430.446704)  can0  014   [5]  12 30 01 10 27
 (1652905430.448442)  can0  1E5   [8]  1C FE B6 7F FF 00 03 8A
 (1652905430.456044)  can0  012   [8]  E8 03 10 00 00 00 00 00
 (1652905430.456680)  can0  014   [5]  11 20 01 10 27
 (1652905430.458282)  can0  1E5   [8]  1C FE B6 1F FF 00 03 2A
 (1652905430.465805)  can0  012   [8]  E8 03 10 00 00 00 00 00
 (1652905430.466713)  can0  014   [5]  10 20 01 10 27
 (1652905430.468277)  can0  1E5   [8]  1C FE B6 3F FF 00 03 4A
 (1652905430.474100)  can0  0F0   [1]  01
 (1652905430.475210)  can0  011   [2]  08 01
 (1652905430.475765)  can0  012   [8]  E8 03 10 00 00 00 00 00
 (1652905430.476682)  can0  014   [5]  10 20 01 16 27
 (1652905430.478260)  can0  1E5   [8]  1C FE B5 5F FE 00 03 68
 (1652905430.485914)  can0  012   [8]  E8 03 10 00 00 00 00 00
 (1652905430.486124)  can0  010   [4]  32 86 08 01
 (1652905430.486668)  can0  014   [5]  11 20 01 0D 27
 (1652905430.488448)  can0  1E5   [8]  1C FE B6 70 00 00 02 7C
 (1652905430.495775)  can0  012   [8]  E8 03 10 00 00 00 00 00
 (1652905430.496654)  can0  014   [5]  10 20 01 0D 27
 (1652905430.498445)  can0  1E5   [8]  1C FE B6 10 00 00 02 1C
 (1652905430.505807)  can0  012   [8]  E8 03 10 00 00 00 00 00
 (1652905430.506697)  can0  014   [5]  10 20 01 10 27
 (1652905430.508269)  can0  1E5   [8]  1C FE B6 30 00 00 02 3C
 (1652905430.515776)  can0  012   [8]  E8 03 10 00 00 00 00 00
 (1652905430.516702)  can0  014   [5]  11 20 01 10 27
 (1652905430.518442)  can0  1E5   [8]  1C FE B6 50 00 00 02 5C
 (1652905430.525752)  can0  012   [8]  E8 03 10 00 00 00 00 00
