 (1652905571.945060)  can0  1E5   [8]  1C FF D2 50 00 00 02 79
 (1652905571.945460)  can0  012   [8]  E8 03 10 00 00 00 00 00
 (1652905571.949762)  can0  014   [5]  00 00 00 10 27
 (1652905571.955094)  can0  1E5   [8]  1C FF D2 70 00 00 02 99
 (1652905571.955499)  can0  012   [8]  E8 03 10 00 00 00 00 00
 (1652905571.959747)  can0  014   [5]  00 00 00 10 27
 (1652905571.965244)  can0  1E5   [8]  1C FF D2 10 00 00 02 39
 (1652905571.965497)  can0  012   [8]  E8 03 10 00 00 00 00 00
 (1652905571.969928)  can0  014   [5]  00 00 00 10 27
 (1652905571.975260)  can0  1E5   [8]  1C FF D2 30 00 00 02 59
 (1652905571.975314)  can0  010   [4]  26 73 00 00
 (1652905571.975599)  can0  012   [8]  E8 03 10 00 00 00 00 00
 (1652905571.975699)  can0  0E2   [2]  C0 01
 (1652905571.975853)  can0  0E3   [2]  C0 01
 (1652905571.979936)  can0  014   [5]  00 00 00 19 27
 (1652905571.985265)  can0  1E5   [8]  1C FF D2 50 00 00 02 79
 (1652905571.985509)  can0  012   [8]  E8 03 10 00 00 00 00 00
 (1652905571.989765)  can0  014   [5]  00 00 00 07 27
 (1652905571.995246)  can0  1E5   [8]  1C FF D2 70 00 00 02 99
 (1652905571.995465)  can0  012   [8]  E8 03 10 00 00 00 00 00
 (1652905572.000007)  can0  014   [5]  00 00 00 10 27
 (1652905572.005245)  can0  1E5   [8]  1C FF D2 10 00 00 02 39
 (1652905572.005503)  can0  012   [8]  E8 03 10 00 00 00 00 00
 (1652905572.009941)  can0  014   [5]  00 00 00 10 27
 (1652905572.015099)  can0  1E5   [8]  1C FF D2 30 00 00 02 59
 (1652905572.015496)  can0  012   [8]  E8 03 10 00 00 00 00 00
 (1652905572.019936)  can0  014   [5]  00 00 00 10 27
 (1652905572.025261)  can0  1E5   [8]  1C FF D2 50 00 00 02 79
 (1652905572.025507)  can0  012   [8]  E8 03 10 00 00 00 00 00
 (1652905572.029925)  can0  014   [5]  00 00 00 10 27
 (1652905572.035254)  can0  1E5   [8]  1C FF D2 70 00 00 02 99
 (1652905572.035503)  can0  012   [8]  E8 03 10 00 00 00 00 00
 (1652905572.039941)  can0  014   [5]  00 00 00 10 27
 (1652905572.045284)  can0  1E5   [8]  1C FF D2 10 00 00 02 39
 (1652905572.045509)  can0  012   [8]  E8 03 10 00 00 00 00 00
 (1652905572.049941)  can0  014   [5]  FF 0F 00 10 27
 (1652905572.055270)  can0  1E5   [8]  1C FF D2 30 00 00 02 59
 (1652905572.055501)  can0  012   [8]  E8 03 10 00 00 00 00 00
 (1652905572.059944)  can0  014   [5]  00 00 00 10 27
 (1652905572.065258)  can0  1E5   [8]  1C FF D2 50 00 00 02 79
 (1652905572.065497)  can0  012   [8]  E8 03 10 00 00 00 00 00
 (1652905572.069981)  can0  014   [5]  00 00 00 10 27
 (1652905572.075262)  can0  1E5   [8]  1C FF D2 70 00 00 02 99
 (1652905572.075317)  can0  010   [4]  26 73 00 00
 (1652905572.075600)  can0  012   [8]  E8 03 10 00 00 00 00 00
 (1652905572.079751)  can0  014   [5]  00 00 00 13 27
 (1652905572.085263)  can0  1E5   [8]  1C FF D2 10 00 00 02 39
 (1652905572.085509)  can0  012   [8]  E8 03 10 00 00 00 00 00
 (1652905572.090015)  can0  014   [5]  00 00 00 0D 27
 (1652905572.095243)  can0  1E5   [8]  1C FF D2 30 00 00 02 59
 (1652905572.095506)  can0  012   [8]  E8 03 10 00 00 00 00 00
 (1652905572.100037)  can0  014   [5]  00 00 00 10 27
 (1652905572.105267)  can0  1E5   [8]  1C FF D2 50 00 00 02 79
 (1652905572.105501)  can0  012   [8]  E8 03 10 00 00 00 00 00
 (1652905572.110079)  can0  014   [5]  00 00 00 10 27
 (1652905572.115254)  can0  1E5   [8]  1C FF D2 70 00 00 02 99
 (1652905572.115510)  can0  012   [8]  E8 03 10 00 00 00 00 00
 (1652905572.119929)  can0  014   [5]  00 00 00 10 27
 (1652905572.125260)  can0  1E5   [8]  1C FF D2 10 00 00 02 39
 (1652905572.125503)  can0  012   [8]  E8 03 10 00 00 00 00 00
 (1652905572.129935)  can0  014   [5]  00 00 00 10 27
 (1652905572.135254)  can0  1E5   [8]  1C FF D2 30 00 00 02 59
 (1652905572.135497)  can0  012   [8]  E8 03 10 00 00 00 00 00
 (1652905572.139944)  can0  014   [5]  00 00 00 10 27
 (1652905572.145258)  can0  1E5   [8]  1C FF D2 50 00 00 02 79
 (1652905572.145503)  can0  012   [8]  E8 03 10 00 00 00 00 00
 (1652905572.149942)  can0  014   [5]  00 00 00 10 27
 (1652905572.155268)  can0  1E5   [8]  1C FF D2 70 00 00 02 99
 (1652905572.155515)  can0  012   [8]  E8 03 10 00 00 00 00 00
 (1652905572.159778)  can0  014   [5]  00 00 00 10 27
 (1652905572.165265)  can0  1E5   [8]  1C FF D2 10 00 00 02 39
 (1652905572.165509)  can0  012   [8]  E8 03 10 00 00 00 00 00
 (1652905572.169952)  can0  014   [5]  00 00 00 10 27
 (1652905572.175254)  can0  1E5   [8]  1C FF D2 30 00 00 02 59
 (1652905572.175308)  can0  010   [4]  26 73 00 00
 (1652905572.175595)  can0  012   [8]  E8 03 10 00 00 00 00 00
 (1652905572.179928)  can0  014   [5]  00 00 00 13 27
 (1652905572.185266)  can0  1E5   [8]  1C FF D2 50 00 00 02 79
 (1652905572.185526)  can0  012   [8]  E8 03 10 00 00 00 00 00
 (1652905572.189742)  can0  014   [5]  00 00 00 0D 27
 (1652905572.195236)  can0  1E5   [8]  1C FF D2 70 00 00 02 99
 (1652905572.195516)  can0  012   [8]  E8 03 10 00 00 00 00 00
 (1652905572.199922)  can0  014   [5]  00 00 00 10 27
 (1652905572.205271)  can0  1E5   [8]  1C FF D2 10 00 00 02 39
 (1652905572.205509)  can0  012   [8]  E8 03 10 00 00 00 00 00
 (1652905572.209763)  can0  014   [5]  00 F0 FF 10 27
 (1652905572.215272)  can0  1E5   [8]  1C FF D2 30 00 00 02 59
 (1652905572.215509)  can0  012   [8]  E8 03 10 00 00 00 00 00
 (1652905572.219947)  can0  014   [5]  00 00 00 10 27
 (1652905572.225281)  can0  1E5   [8]  1C FF D2 50 00 00 02 79
 (1652905572.225500)  can0  012   [8]  E8 03 10 00 00 00 00 00
 (1652905572.229935)  can0  014   [5]  00 00 00 10 27
 (1652905572.235297)  can0  1E5   [8]  1C FF D2 70 00 00 02 99
 (1652905572.235511)  can0  012   [8]  E8 03 10 00 00 00 00 00
 (1652905572.239932)  can0  014   [5]  00 00 00 10 27
 (1652905572.245314)  can0  1E5   [8]  1C FF D2 10 00 00 02 39
 (1652905572.245499)  can0  012   [8]  E8 03 10 00 00 00 00 00
 (1652905572.249964)  can0  014   [5]  00 00 00 10 27
 (1652905572.255339)  can0  1E5   [8]  1C FF D2 30 00 00 02 59
 (1652905572.255501)  can0  012   [8]  E8 03 10 00 00 00 00 00
 (1652905572.259940)  can0  014   [5]  00 00 00 10 27
 (1652905572.265289)  can0  1E5   [8]  1C FF D2 50 00 00 02 79
 (1652905572.265499)  can0  012   [8]  E8 03 10 00 00 00 00 00
 (1652905572.269939)  can0  014   [5]  00 00 00 10 27
 (1652905572.269947)  can0  0E4   [2]  C0 01
 (1652905572.275260)  can0  1E5   [8]  1C FF D2 70 00 00 02 99
 (1652905572.275313)  can0  010   [4]  26 73 00 00
 (1652905572.275589)  can0  012   [8]  E8 03 10 00 00 00 00 00
 (1652905572.279935)  can0  014   [5]  00 00 00 13 27
 (1652905572.285260)  can0  1E5   [8]  1C FF D2 10 00 00 02 39
 (1652905572.285517)  can0  012   [8]  E8 03 10 00 00 00 00 00
 (1652905572.289932)  can0  014   [5]  00 00 00 0D 27
 (1652905572.295266)  can0  1E5   [8]  1C FF D2 30 00 00 02 59
 (1652905572.295516)  can0  012   [8]  E8 03 10 00 00 00 00 00
 (1652905572.299929)  can0  014   [5]  00 00 00 10 27
 (1652905572.305266)  can0  1E5   [8]  1C FF D2 50 00 00 02 79
 (1652905572.305510)  can0  012   [8]  E8 03 10 00 00 00 00 00
 (1652905572.309947)  can0  014   [5]  00 00 00 10 27
 (1652905572.315256)  can0  1E5   [8]  1C FF D2 70 00 00 02 99
 (1652905572.315507)  can0  012   [8]  E8 03 10 00 00 00 00 00
 (1652905572.319935)  can0  014   [5]  00 00 00 10 27
 (1652905572.325251)  can0  1E5   [8]  1C FF D2 10 00 00 02 39
 (1652905572.325506)  can0  012   [8]  E8 03 10 00 00 00 00 00
 (1652905572.329936)  can0  014   [5]  00 00 00 10 27
 (1652905572.335255)  can0  1E5   [8]  1C FF D2 30 00 00 02 59
 (1652905572.335496)  can0  012   [8]  E8 03 10 00 00 00 00 00
 (1652905572.339816)  can0  014   [5]  00 00 00 10 27
 (1652905572.345074)  can0  1E5   [8]  1C FF D2 50 00 00 02 79
 (1652905572.345515)  can0  012   [8]  E8 03 10 00 00 00 00 00
 (1652905572.349926)  can0  014   [5]  00 00 00 10 27
 (1652905572.355297)  can0  1E5   [8]  1C FF D2 70 00 00 02 99
 (1652905572.355505)  can0  012   [8]  E8 03 10 00 00 00 00 00
 (1652905572.359946)  can0  014   [5]  00 00 00 10 27
 (1652905572.365253)  can0  1E5   [8]  1C FF D2 10 00 00 02 39
 (1652905572.365505)  can0  012   [8]  E8 03 10 00 00 00 00 00
 (1652905572.369929)  can0  014   [5]  00 00 00 10 27
 (1652905572.375260)  can0  1E5   [8]  1C FF D2 30 00 00 02 59
 (1652905572.375313)  can0  010   [4]  26 73 00 00
 (1652905572.375591)  can0  012   [8]  E8 03 10 00 00 00 00 00
 (1652905572.379934)  can0  014   [5]  00 00 00 13 27
 (1652905572.385273)  can0  1E5   [8]  1C FF D2 50 00 00 02 79
 (1652905572.385516)  can0  012   [8]  E8 03 10 00 00 00 00 00
 (1652905572.389935)  can0  014   [5]  00 00 00 0D 27
 (1652905572.395252)  can0  1E5   [8]  1C FF D2 70 00 00 02 99
 (1652905572.395513)  can0  012   [8]  E8 03 10 00 00 00 00 00
 (1652905572.399942)  can0  014   [5]  00 00 00 10 27
 (1652905572.405091)  can0  1E5   [8]  1C FF D2 10 00 00 02 39
 (1652905572.405511)  can0  012   [8]  E8 03 10 00 00 00 00 00
 (1652905572.409939)  can0  014   [5]  00 00 00 10 27
 (1652905572.415239)  can0  1E5   [8]  1C FF D2 30 00 00 02 59
 (1652905572.415494)  can0  012   [8]  E8 03 10 00 00 00 00 00
 (1652905572.419929)  can0  014   [5]  00 00 00 10 27
 (1652905572.425268)  can0  1E5   [8]  1C FF D2 50 00 00 02 79
 (1652905572.425507)  can0  012   [8]  E8 03 10 00 00 00 00 00
 (1652905572.429932)  can0  014   [5]  00 00 00 10 27
 (1652905572.435251)  can0  1E5   [8]  1C FF D2 70 00 00 02 99
 (1652905572.435511)  can0  012   [8]  E8 03 10 00 00 00 00 00
 (1652905572.439924)  can0  014   [5]  00 00 00 10 27
 (1652905572.445059)  can0  1E5   [8]  1C FF D2 10 00 00 02 39
 (1652905572.445504)  can0  012   [8]  E8 03 10 00 00 00 00 00
 (1652905572.449751)  can0  014   [5]  00 00 00 10 27
 (1652905572.455069)  can0  1E5   [8]  1C FF D2 30 00 00 02 59
 (1652905572.455508)  can0  012   [8]  E8 03 10 00 00 00 00 00
 (1652905572.459962)  can0  014   [5]  00 00 00 10 27
 (1652905572.465257)  can0  1E5   [8]  1C FF D2 50 00 00 02 79
 (1652905572.465504)  can0  012   [8]  E8 03 10 00 00 00 00 00
 (1652905572.469760)  can0  014   [5]  00 00 00 10 27
 (1652905572.475073)  can0  1E5   [8]  1C FF D2 70 00 00 02 99
 (1652905572.475346)  can0  010   [4]  26 73 00 00
 (1652905572.475579)  can0  012   [8]  E8 03 10 00 00 00 00 00
 (1652905572.479929)  can0  014   [5]  00 00 00 13 27
 (1652905572.485035)  can0  1E5   [8]  1C FF D2 10 00 00 02 39
 (1652905572.485469)  can0  012   [8]  E8 03 10 00 00 00 00 00
 (1652905572.489920)  can0  014   [5]  00 00 00 0D 27
 (1652905572.495236)  can0  1E5   [8]  1C FF D2 30 00 00 02 59
 (1652905572.495506)  can0  012   [8]  E8 03 10 00 00 00 00 00
 (1652905572.499937)  can0  014   [5]  00 00 00 10 27
 (1652905572.505251)  can0  1E5   [8]  1C FF D2 50 00 00 02 79
 (1652905572.505497)  can0  012   [8]  E8 03 10 00 00 00 00 00
 (1652905572.509959)  can0  014   [5]  00 00 00 10 27
 (1652905572.515249)  can0  1E5   [8]  1C FF D2 70 00 00 02 99
 (1652905572.515491)  can0  012   [8]  E8 03 10 00 00 00 00 00
 (1652905572.519921)  can0  014   [5]  00 00 00 10 27
 (1652905572.525238)  can0  1E5   [8]  1C FF D2 10 00 00 02 39
 (1652905572.525508)  can0  012   [8]  E8 03 10 00 00 00 00 00
 (1652905572.529932)  can0  014   [5]  FF 0F 00 10 27
 (1652905572.535250)  can0  1E5   [8]  1C FF D2 30 00 00 02 59
 (1652905572.535504)  can0  012   [8]  E8 03 10 00 00 00 00 00
 (1652905572.539931)  can0  014   [5]  00 00 00 10 27
 (1652905572.545239)  can0  1E5   [8]  1C FF D2 50 00 00 02 79
 (1652905572.545517)  can0  012   [8]  E8 03 10 00 00 00 00 00
 (1652905572.549929)  can0  014   [5]  00 00 00 10 27
 (1652905572.555238)  can0  1E5   [8]  1C FF D2 70 00 00 02 99
 (1652905572.555510)  can0  012   [8]  E8 03 10 00 00 00 00 00
 (1652905572.560002)  can0  014   [5]  00 00 00 10 27
 (1652905572.565229)  can0  1E5   [8]  1C FF D2 10 00 00 02 39
 (1652905572.565504)  can0  012   [8]  E8 03 10 00 00 00 00 00
 (1652905572.569941)  can0  014   [5]  00 00 00 10 27
 (1652905572.575249)  can0  1E5   [8]  1C FF D2 30 00 00 02 59
 (1652905572.575301)  can0  010   [4]  26 73 00 00
 (1652905572.575575)  can0  012   [8]  E8 03 10 00 00 00 00 00
 (1652905572.579726)  can0  014   [5]  00 00 00 13 27
 (1652905572.585247)  can0  1E5   [8]  1C FF D2 50 00 00 02 79
 (1652905572.585505)  can0  012   [8]  E8 03 10 00 00 00 00 00
 (1652905572.589978)  can0  014   [5]  00 00 00 0D 27
 (1652905572.595228)  can0  1E5   [8]  1C FF D2 70 00 00 02 99
 (1652905572.595512)  can0  012   [8]  E8 03 10 00 00 00 00 00
 (1652905572.599999)  can0  014   [5]  00 00 00 10 27
 (1652905572.605239)  can0  1E5   [8]  1C FF D2 10 00 00 02 39
 (1652905572.605506)  can0  012   [8]  E8 03 10 00 00 00 00 00
 (1652905572.610036)  can0  014   [5]  00 00 00 10 27
 (1652905572.615255)  can0  1E5   [8]  1C FF D2 30 00 00 02 59
 (1652905572.615497)  can0  012   [8]  E8 03 10 00 00 00 00 00
 (1652905572.620033)  can0  014   [5]  00 00 00 10 27
 (1652905572.625246)  can0  1E5   [8]  1C FF D2 50 00 00 02 79
 (1652905572.625511)  can0  012   [8]  E8 03 10 00 00 00 00 00
 (1652905572.630055)  can0  014   [5]  00 00 00 10 27
 (1652905572.635239)  can0  1E5   [8]  1C FF D2 70 00 00 02 99
 (1652905572.635511)  can0  012   [8]  E8 03 10 00 00 00 00 00
 (1652905572.639921)  can0  014   [5]  00 00 00 10 27
 (1652905572.645240)  can0  1E5   [8]  1C FF D2 10 00 00 02 39
 (1652905572.645505)  can0  012   [8]  E8 03 10 00 00 00 00 00
 (1652905572.649924)  can0  014   [5]  00 00 00 10 27
 (1652905572.655244)  can0  1E5   [8]  1C FF D2 30 00 00 02 59
 (1652905572.655498)  can0  012   [8]  E8 03 10 00 00 00 00 00
 (1652905572.659953)  can0  014   [5]  00 00 00 10 27
 (1652905572.665238)  can0  1E5   [8]  1C FF D2 50 00 00 02 79
 (1652905572.665509)  can0  012   [8]  E8 03 10 00 00 00 00 00
 (1652905572.669934)  can0  014   [5]  00 00 00 10 27
 (1652905572.675237)  can0  1E5   [8]  1C FF D2 70 00 00 02 99
 (1652905572.675337)  can0  010   [4]  26 73 00 00
 (1652905572.675596)  can0  012   [8]  E8 03 10 00 00 00 00 00
 (1652905572.679949)  can0  014   [5]  00 00 00 13 27
 (1652905572.685249)  can0  1E5   [8]  1C FF D2 10 00 00 02 39
 (1652905572.685457)  can0  012   [8]  E8 03 10 00 00 00 00 00
 (1652905572.689917)  can0  014   [5]  00 00 00 0D 27
 (1652905572.695236)  can0  1E5   [8]  1C FF D2 30 00 00 02 59
 (1652905572.695500)  can0  012   [8]  E8 03 10 00 00 00 00 00
 (1652905572.699929)  can0  014   [5]  00 00 00 10 27
 (1652905572.705241)  can0  1E5   [8]  1C FF D2 50 00 00 02 79
 (1652905572.705510)  can0  012   [8]  E8 03 10 00 00 00 00 00
 (1652905572.709947)  can0  014   [5]  00 00 00 10 27
 (1652905572.715240)  can0  1E5   [8]  1C FF D2 70 00 00 02 99
 (1652905572.715508)  can0  012   [8]  E8 03 10 00 00 00 00 00
 (1652905572.719923)  can0  014   [5]  00 F0 FF 10 27
 (1652905572.725246)  can0  1E5   [8]  1C FF D2 10 00 00 02 39
 (1652905572.725500)  can0  012   [8]  E8 03 10 00 00 00 00 00
 (1652905572.729920)  can0  014   [5]  00 00 00 10 27
 (1652905572.735270)  can0  1E5   [8]  1C FF D2 30 00 00 02 59
 (1652905572.735496)  can0  012   [8]  E8 03 10 00 00 00 00 00
 (1652905572.739934)  can0  014   [5]  00 00 00 10 27
 (1652905572.745094)  can0  1E5   [8]  1C FF D2 50 00 00 02 79
 (1652905572.745516)  can0  012   [8]  E8 03 10 00 00 00 00 00
 (1652905572.749932)  can0  014   [5]  00 00 00 10 27
 (1652905572.755290)  can0  1E5   [8]  1C FF D2 70 00 00 02 99
 (1652905572.755498)  can0  012   [8]  E8 03 10 00 00 00 00 00
 (1652905572.759957)  can0  014   [5]  00 00 00 10 27
 (1652905572.765103)  can0  1E5   [8]  1C FF D2 10 00 00 02 39
 (1652905572.765502)  can0  012   [8]  E8 03 10 00 00 00 00 00
 (1652905572.769936)  can0  014   [5]  00 00 00 10 27
 (1652905572.775329)  can0  1E5   [8]  1C FF D2 30 00 00 02 59
 (1652905572.775337)  can0  010   [4]  26 73 00 00
 (1652905572.775587)  can0  012   [8]  E8 03 10 00 00 00 00 00
 (1652905572.779747)  can0  014   [5]  00 00 00 13 27
 (1652905572.785391)  can0  1E5   [8]  1C FF D2 50 00 00 02 79
 (1652905572.785491)  can0  012   [8]  E8 03 10 00 00 00 00 00
 (1652905572.789765)  can0  014   [5]  00 00 00 0D 27
 (1652905572.795209)  can0  1E5   [8]  1C FF D2 70 00 00 02 99
 (1652905572.795502)  can0  012   [8]  E8 03 10 00 00 00 00 00
 (1652905572.799906)  can0  014   [5]  00 00 00 10 27
 (1652905572.805239)  can0  1E5   [8]  1C FF D2 10 00 00 02 39
 (1652905572.805494)  can0  012   [8]  E8 03 10 00 00 00 00 00
 (1652905572.809772)  can0  014   [5]  00 00 00 10 27
 (1652905572.815024)  can0  1E5   [8]  1C FF D2 30 00 00 02 59
 (1652905572.815499)  can0  012   [8]  E8 03 10 00 00 00 00 00
 (1652905572.819923)  can0  014   [5]  00 00 00 10 27
 (1652905572.825236)  can0  1E5   [8]  1C FF D2 50 00 00 02 79
 (1652905572.825491)  can0  012   [8]  E8 03 10 00 00 00 00 00
 (1652905572.829912)  can0  014   [5]  00 00 00 10 27
 (1652905572.835244)  can0  1E5   [8]  1C FF D2 70 00 00 02 99
 (1652905572.835501)  can0  012   [8]  E8 03 10 00 00 00 00 00
 (1652905572.839926)  can0  014   [5]  00 00 00 10 27
 (1652905572.845247)  can0  1E5   [8]  1C FF D2 10 00 00 02 39
 (1652905572.845506)  can0  012   [8]  E8 03 10 00 00 00 00 00
 (1652905572.849927)  can0  014   [5]  00 00 00 10 27
 (1652905572.855251)  can0  1E5   [8]  1C FF D2 30 00 00 02 59
 (1652905572.855504)  can0  012   [8]  E8 03 10 00 00 00 00 00
 (1652905572.859959)  can0  014   [5]  00 00 00 10 27
 (1652905572.865237)  can0  1E5   [8]  1C FF D2 50 00 00 02 79
 (1652905572.865502)  can0  012   [8]  E8 03 10 00 00 00 00 00
 (1652905572.869972)  can0  014   [5]  00 00 00 10 27
 (1652905572.875217)  can0  1E5   [8]  1C FF D2 70 00 00 02 99
 (1652905572.875317)  can0  010   [4]  26 73 00 00
 (1652905572.875589)  can0  012   [8]  E8 03 10 00 00 00 00 00
 (1652905572.879942)  can0  014   [5]  00 00 00 13 27
 (1652905572.885228)  can0  1E5   [8]  1C FF D2 10 00 00 02 39
 (1652905572.885509)  can0  012   [8]  E8 03 10 00 00 00 00 00
 (1652905572.889915)  can0  014   [5]  00 00 00 0D 27
 (1652905572.895224)  can0  1E5   [8]  1C FF D2 30 00 00 02 59
 (1652905572.895496)  can0  012   [8]  E8 03 10 00 00 00 00 00
 (1652905572.899925)  can0  014   [5]  00 00 00 10 27
 (1652905572.905255)  can0  1E5   [8]  1C FF D2 50 00 00 02 79
 (1652905572.905507)  can0  012   [8]  E8 03 10 00 00 00 00 00
 (1652905572.909963)  can0  014   [5]  00 00 00 10 27
 (1652905572.915242)  can0  1E5   [8]  1C FF D2 70 00 00 02 99
 (1652905572.915510)  can0  012   [8]  E8 03 10 00 00 00 00 00
 (1652905572.919931)  can0  014   [5]  00 00 00 10 27
 (1652905572.925232)  can0  1E5   [8]  1C FF D2 10 00 00 02 39
 (1652905572.925501)  can0  012   [8]  E8 03 10 00 00 00 00 00
 (1652905572.929921)  can0  014   [5]  00 00 00 10 27
 (1652905572.935232)  can0  1E5   [8]  1C FF D2 30 00 00 02 59
 (1652905572.935502)  can0  012   [8]  E8 03 10 00 00 00 00 00
 (1652905572.939921)  can0  014   [5]  00 00 00 10 27
 (1652905572.945223)  can0  1E5   [8]  1C FF D2 50 00 00 02 79
 (1652905572.945497)  can0  012   [8]  E8 03 10 00 00 00 00 00
 (1652905572.949916)  can0  014   [5]  00 00 00 10 27
 (1652905572.955223)  can0  1E5   [8]  1C FF D2 70 00 00 02 99
 (1652905572.955498)  can0  012   [8]  E8 03 10 00 00 00 00 00
 (1652905572.959933)  can0  014   [5]  00 00 00 10 27
 (1652905572.965227)  can0  1E5   [8]  1C FF D2 10 00 00 02 39
 (1652905572.965511)  can0  012   [8]  E8 03 10 00 00 00 00 00
 (1652905572.969931)  can0  014   [5]  00 00 00 10 27
 (1652905572.975278)  can0  1E5   [8]  1C FF D2 30 00 00 02 59
 (1652905572.975349)  can0  010   [4]  26 73 00 00
 (1652905572.975595)  can0  012   [8]  E8 03 10 00 00 00 00 00
 (1652905572.975696)  can0  0E2   [2]  E8 01
 (1652905572.975857)  can0  0E3   [2]  E8 01
 (1652905572.979934)  can0  014   [5]  00 00 00 19 27
 (1652905572.985247)  can0  1E5   [8]  1C FF D2 50 00 00 02 79
 (1652905572.985503)  can0  012   [8]  E8 03 10 00 00 00 00 00
 (1652905572.989936)  can0  014   [5]  00 00 00 07 27
 (1652905572.995230)  can0  1E5   [8]  1C FF D2 70 00 00 02 99
 (1652905572.995495)  can0  012   [8]  E8 03 10 00 00 00 00 00
 (1652905572.999920)  can0  014   [5]  00 00 00 10 27
 (1652905573.005226)  can0  1E5   [8]  1C FF D2 10 00 00 02 39
 (1652905573.005502)  can0  012   [8]  E8 03 10 00 00 00 00 00
 (1652905573.009952)  can0  014   [5]  00 00 00 10 27
 (1652905573.015229)  can0  1E5   [8]  1C FF D2 30 00 00 02 59
 (1652905573.015487)  can0  012   [8]  E8 03 10 00 00 00 00 00
 (1652905573.019918)  can0  014   [5]  00 00 00 10 27
 (1652905573.025244)  can0  1E5   [8]  1C FF D2 50 00 00 02 79
 (1652905573.025490)  can0  012   [8]  E8 03 10 00 00 00 00 00
 (1652905573.029929)  can0  014   [5]  00 00 00 10 27
 (1652905573.035242)  can0  1E5   [8]  1C FF D2 70 00 00 02 99
 (1652905573.035510)  can0  012   [8]  E8 03 10 00 00 00 00 00
 (1652905573.039942)  can0  014   [5]  00 00 00 10 27
 (1652905573.045231)  can0  1E5   [8]  1C FF D2 10 00 00 02 39
 (1652905573.045501)  can0  012   [8]  E8 03 10 00 00 00 00 00
 (1652905573.049737)  can0  014   [5]  00 00 00 10 27
 (1652905573.055224)  can0  1E5   [8]  1C FF D2 30 00 00 02 59
 (1652905573.055504)  can0  012   [8]  E8 03 10 00 00 00 00 00
 (1652905573.059934)  can0  014   [5]  00 00 00 10 27
 (1652905573.065227)  can0  1E5   [8]  1C FF D2 50 00 00 02 79
 (1652905573.065495)  can0  012   [8]  E8 03 10 00 00 00 00 00
 (1652905573.069962)  can0  014   [5]  00 00 00 10 27
 (1652905573.075229)  can0  1E5   [8]  1C FF D2 70 00 00 02 99
 (1652905573.075331)  can0  010   [4]  26 73 00 00
 (1652905573.075594)  can0  012   [8]  E8 03 10 00 00 00 00 00
 (1652905573.079936)  can0  014   [5]  00 00 00 13 27
 (1652905573.085233)  can0  1E5   [8]  1C FF D2 10 00 00 02 39
 (1652905573.085507)  can0  012   [8]  E8 03 10 00 00 00 00 00
 (1652905573.089933)  can0  014   [5]  00 00 00 0D 27
 (1652905573.095227)  can0  1E5   [8]  1C FF D2 30 00 00 02 59
 (1652905573.095502)  can0  012   [8]  E8 03 10 00 00 00 00 00
 (1652905573.099952)  can0  014   [5]  00 00 00 10 27
 (1652905573.105224)  can0  1E5   [8]  1C FF D2 50 00 00 02 79
 (1652905573.105505)  can0  012   [8]  E8 03 10 00 00 00 00 00
 (1652905573.109998)  can0  014   [5]  00 00 00 10 27
 (1652905573.115226)  can0  1E5   [8]  1C FF D2 70 00 00 02 99
 (1652905573.115496)  can0  012   [8]  E8 03 10 00 00 00 00 00
 (1652905573.119979)  can0  014   [5]  00 00 00 10 27
 (1652905573.125228)  can0  1E5   [8]  1C FF D2 10 00 00 02 39
 (1652905573.125495)  can0  012   [8]  E8 03 10 00 00 00 00 00
 (1652905573.130009)  can0  014   [5]  00 00 00 10 27
 (1652905573.135236)  can0  1E5   [8]  1C FF D2 30 00 00 02 59
 (1652905573.135507)  can0  012   [8]  E8 03 10 00 00 00 00 00
 (1652905573.140026)  can0  014   [5]  FF 0F 00 10 27
 (1652905573.145227)  can0  1E5   [8]  1C FF D2 50 00 00 02 79
 (1652905573.145511)  can0  012   [8]  E8 03 10 00 00 00 00 00
 (1652905573.150052)  can0  014   [5]  00 00 00 10 27
 (1652905573.155240)  can0  1E5   [8]  1C FF D2 70 00 00 02 99
 (1652905573.155509)  can0  012   [8]  E8 03 10 00 00 00 00 00
 (1652905573.160086)  can0  014   [5]  00 00 00 10 27
 (1652905573.165241)  can0  1E5   [8]  1C FF D2 10 00 00 02 39
 (1652905573.165507)  can0  012   [8]  E8 03 10 00 00 00 00 00
 (1652905573.169728)  can0  014   [5]  00 00 00 10 27
 (1652905573.175014)  can0  1E5   [8]  1C FF D2 30 00 00 02 59
 (1652905573.175299)  can0  010   [4]  26 73 00 00
 (1652905573.175546)  can0  012   [8]  E8 03 10 00 00 00 00 00
 (1652905573.179759)  can0  014   [5]  00 00 00 13 27
 (1652905573.185003)  can0  1E5   [8]  1C FF D2 50 00 00 02 79
 (1652905573.185594)  can0  012   [8]  E8 03 10 00 00 00 00 00
 (1652905573.189716)  can0  014   [5]  00 00 00 0D 27
 (1652905573.195220)  can0  1E5   [8]  1C FF D0 7F FF 00 03 A5
 (1652905573.195492)  can0  012   [8]  E8 03 10 00 00 00 00 00
 (1652905573.199917)  can0  014   [5]  00 00 00 10 27
 (1652905573.205220)  can0  1E5   [8]  1C FF D0 1F FF 00 03 45
 (1652905573.205483)  can0  012   [8]  E8 03 10 00 00 00 00 00
 (1652905573.209950)  can0  014   [5]  00 00 00 10 27
 (1652905573.215221)  can0  1E5   [8]  1C FF D0 3F FF 00 03 65
 (1652905573.215492)  can0  012   [8]  E8 03 10 00 00 00 00 00
 (1652905573.219941)  can0  014   [5]  00 00 00 10 27
 (1652905573.225240)  can0  1E5   [8]  1C FF D2 50 00 00 02 79
 (1652905573.225507)  can0  012   [8]  E8 03 10 00 00 00 00 00
 (1652905573.229952)  can0  014   [5]  00 00 00 10 27
 (1652905573.235237)  can0  1E5   [8]  1C FF D2 70 00 00 02 99
 (1652905573.235500)  can0  012   [8]  E8 03 10 00 00 00 00 00
 (1652905573.239944)  can0  014   [5]  00 00 00 10 27
 (1652905573.245228)  can0  1E5   [8]  1C FF D2 10 00 00 02 39
 (1652905573.245496)  can0  012   [8]  E8 03 10 00 00 00 00 00
 (1652905573.249913)  can0  014   [5]  00 00 00 10 27
 (1652905573.255250)  can0  1E5   [8]  1C FF D0 30 00 00 02 57
 (1652905573.255497)  can0  012   [8]  E8 03 10 00 00 00 00 00
 (1652905573.259938)  can0  014   [5]  00 00 00 10 27
 (1652905573.265271)  can0  1E5   [8]  1C FF D2 50 00 00 02 79
 (1652905573.265449)  can0  012   [8]  E8 03 10 00 00 00 00 00
 (1652905573.269762)  can0  014   [5]  00 00 00 10 27
 (1652905573.269861)  can0  0E4   [2]  E8 01
 (1652905573.275280)  can0  1E5   [8]  1C FF D2 70 00 00 02 99
 (1652905573.275333)  can0  010   [4]  26 73 00 00
 (1652905573.275569)  can0  012   [8]  E8 03 10 00 00 00 00 00
 (1652905573.279927)  can0  014   [5]  00 00 00 13 27
 (1652905573.285347)  can0  1E5   [8]  1C FF D2 10 00 00 02 39
 (1652905573.285476)  can0  012   [8]  E8 03 10 00 00 00 00 00
 (1652905573.289901)  can0  014   [5]  00 00 00 0D 27
 (1652905573.295317)  can0  1E5   [8]  1C FF D0 30 00 00 02 57
 (1652905573.295502)  can0  012   [8]  E8 03 10 00 00 00 00 00
 (1652905573.299936)  can0  014   [5]  00 00 00 10 27
 (1652905573.305343)  can0  1E5   [8]  1C FF D0 50 00 00 02 77
 (1652905573.305499)  can0  012   [8]  E8 03 10 00 00 00 00 00
 (1652905573.309954)  can0  014   [5]  00 00 00 10 27
 (1652905573.315217)  can0  1E5   [8]  1C FF D2 70 00 00 02 99
 (1652905573.315514)  can0  012   [8]  E8 03 10 00 00 00 00 00
 (1652905573.319920)  can0  014   [5]  00 00 00 10 27
 (1652905573.325242)  can0  1E5   [8]  1C FF D0 10 00 00 02 37
 (1652905573.325502)  can0  012   [8]  E8 03 10 00 00 00 00 00
 (1652905573.329915)  can0  014   [5]  00 00 00 10 27
 (1652905573.335234)  can0  1E5   [8]  1C FF D0 30 00 00 02 57
 (1652905573.335501)  can0  012   [8]  E8 03 10 00 00 00 00 00
 (1652905573.339932)  can0  014   [5]  00 00 00 10 27
 (1652905573.345233)  can0  1E5   [8]  1C FF D0 50 00 00 02 77
 (1652905573.345493)  can0  012   [8]  E8 03 10 00 00 00 00 00
 (1652905573.349927)  can0  014   [5]  00 00 00 10 27
 (1652905573.355225)  can0  1E5   [8]  1C FF D0 70 00 00 02 97
 (1652905573.355510)  can0  012   [8]  E8 03 10 00 00 00 00 00
 (1652905573.359964)  can0  014   [5]  00 00 00 10 27
 (1652905573.365233)  can0  1E5   [8]  1C FF D0 10 00 00 02 37
 (1652905573.365498)  can0  012   [8]  E8 03 10 00 00 00 00 00
 (1652905573.369909)  can0  014   [5]  00 F0 FF 10 27
 (1652905573.375225)  can0  1E5   [8]  1C FF D0 30 00 00 02 57
 (1652905573.375326)  can0  010   [4]  26 73 00 00
 (1652905573.375594)  can0  012   [8]  E8 03 10 00 00 00 00 00
 (1652905573.379936)  can0  014   [5]  00 00 00 13 27
 (1652905573.385237)  can0  1E5   [8]  1C FF D0 50 00 00 02 77
 (1652905573.385506)  can0  012   [8]  E8 03 10 00 00 00 00 00
 (1652905573.389919)  can0  014   [5]  00 00 00 0D 27
 (1652905573.395197)  can0  1E5   [8]  1C FF D2 70 00 00 02 99
 (1652905573.395504)  can0  012   [8]  E8 03 10 00 00 00 00 00
 (1652905573.399915)  can0  014   [5]  00 00 00 10 27
 (1652905573.405224)  can0  1E5   [8]  1C FF D0 10 00 00 02 37
 (1652905573.405497)  can0  012   [8]  E8 03 10 00 00 00 00 00
 (1652905573.409933)  can0  014   [5]  00 00 00 10 27
 (1652905573.415221)  can0  1E5   [8]  1C FF D0 30 00 00 02 57
 (1652905573.415491)  can0  012   [8]  E8 03 10 00 00 00 00 00
 (1652905573.419914)  can0  014   [5]  00 00 00 10 27
 (1652905573.425222)  can0  1E5   [8]  1C FF D0 50 00 00 02 77
 (1652905573.425500)  can0  012   [8]  E8 03 10 00 00 00 00 00
 (1652905573.429928)  can0  014   [5]  00 00 00 10 27
 (1652905573.435238)  can0  1E5   [8]  1C FF D0 70 00 00 02 97
 (1652905573.435503)  can0  012   [8]  E8 03 10 00 00 00 00 00
 (1652905573.439937)  can0  014   [5]  00 00 00 10 27
 (1652905573.445227)  can0  1E5   [8]  1C FF D0 10 00 00 02 37
 (1652905573.445498)  can0  012   [8]  E8 03 10 00 00 00 00 00
 (1652905573.449916)  can0  014   [5]  00 00 00 10 27
 (1652905573.455240)  can0  1E5   [8]  1C FF CE 3F FF 00 03 63
 (1652905573.455491)  can0  012   [8]  E8 03 10 00 00 00 00 00
 (1652905573.459935)  can0  014   [5]  00 00 00 10 27
 (1652905573.465222)  can0  1E5   [8]  1C FF CE 5F FF 00 03 83
 (1652905573.465482)  can0  012   [8]  E8 03 10 00 00 00 00 00
 (1652905573.469923)  can0  014   [5]  00 00 00 10 27
 (1652905573.475219)  can0  1E5   [8]  1C FF CE 7F FF 00 03 A3
 (1652905573.475326)  can0  010   [4]  26 73 00 00
 (1652905573.475594)  can0  012   [8]  E8 03 10 00 00 00 00 00
 (1652905573.479943)  can0  014   [5]  00 00 00 13 27
 (1652905573.485213)  can0  1E5   [8]  1C FF CE 1F FF 00 03 43
 (1652905573.485508)  can0  012   [8]  E8 03 10 00 00 00 00 00
 (1652905573.489962)  can0  014   [5]  00 00 00 0D 27
 (1652905573.495205)  can0  1E5   [8]  1C FF CD 3F FE 00 03 61
 (1652905573.495508)  can0  012   [8]  E8 03 10 00 00 00 00 00
 (1652905573.499930)  can0  014   [5]  00 00 00 10 27
 (1652905573.505215)  can0  1E5   [8]  1C FF CB 5F FD 00 03 7E
 (1652905573.505500)  can0  012   [8]  E8 03 10 00 00 00 00 00
 (1652905573.509950)  can0  014   [5]  00 00 00 10 27
 (1652905573.515227)  can0  1E5   [8]  1C FF CA 7F FC 00 03 9C
 (1652905573.515495)  can0  012   [8]  E8 03 10 00 00 00 00 00
 (1652905573.519925)  can0  014   [5]  00 00 00 10 27
 (1652905573.525210)  can0  1E5   [8]  1C FF C8 1F FB 00 03 39
 (1652905573.525493)  can0  012   [8]  E8 03 10 00 00 00 00 00
 (1652905573.529914)  can0  014   [5]  00 00 00 10 27
 (1652905573.535214)  can0  1E5   [8]  1C FF C8 3F FB 00 03 59
 (1652905573.535498)  can0  012   [8]  E8 03 10 00 00 00 00 00
 (1652905573.539938)  can0  014   [5]  00 00 00 10 27
 (1652905573.545211)  can0  1E5   [8]  1C FF C6 5F FA 00 03 76
 (1652905573.545511)  can0  012   [8]  E8 03 10 00 00 00 00 00
 (1652905573.549922)  can0  014   [5]  00 00 00 10 27
 (1652905573.555211)  can0  1E5   [8]  1C FF C5 7F FA 00 03 95
 (1652905573.555497)  can0  012   [8]  E8 03 10 00 00 00 00 00
 (1652905573.559957)  can0  014   [5]  00 00 00 10 27
 (1652905573.565210)  can0  1E5   [8]  1C FF C3 1F F9 00 03 32
 (1652905573.565512)  can0  012   [8]  E8 03 10 00 00 00 00 00
 (1652905573.569922)  can0  014   [5]  00 00 00 10 27
 (1652905573.575205)  can0  1E5   [8]  1C FF C3 3F F9 00 03 52
 (1652905573.575307)  can0  010   [4]  26 73 00 00
 (1652905573.575586)  can0  012   [8]  E8 03 10 00 00 00 00 00
 (1652905573.579916)  can0  014   [5]  00 00 00 13 27
 (1652905573.585221)  can0  1E5   [8]  1C FF C2 5F F8 00 03 70
 (1652905573.585467)  can0  012   [8]  E8 03 10 00 00 00 00 00
 (1652905573.589929)  can0  014   [5]  00 00 00 0D 27
 (1652905573.595251)  can0  1E5   [8]  1C FF C2 7F F9 00 03 91
 (1652905573.595457)  can0  012   [8]  E8 03 10 00 00 00 00 00
 (1652905573.599933)  can0  014   [5]  00 00 00 10 27
 (1652905573.605220)  can0  1E5   [8]  1C FF C2 1F FA 00 03 32
 (1652905573.605504)  can0  012   [8]  E8 03 10 00 00 00 00 00
 (1652905573.609956)  can0  014   [5]  00 00 00 10 27
 (1652905573.615207)  can0  1E5   [8]  1C FF C5 30 00 00 02 4C
 (1652905573.615509)  can0  012   [8]  E8 03 10 00 00 00 00 00
 (1652905573.619941)  can0  014   [5]  00 00 00 10 27
 (1652905573.625207)  can0  1E5   [8]  1C FF C6 50 01 00 02 6E
 (1652905573.625517)  can0  012   [8]  E8 03 10 00 00 00 00 00
 (1652905573.629949)  can0  014   [5]  00 00 00 10 27
 (1652905573.635214)  can0  1E5   [8]  1C FF C6 70 01 00 02 8E
 (1652905573.635508)  can0  012   [8]  E8 03 10 00 00 00 00 00
 (1652905573.639989)  can0  014   [5]  00 00 00 10 27
 (1652905573.645210)  can0  1E5   [8]  1C FF C6 10 01 00 02 2E
 (1652905573.645499)  can0  012   [8]  E8 03 10 00 00 00 00 00
 (1652905573.650003)  can0  014   [5]  00 00 00 10 27
 (1652905573.655200)  can0  1E5   [8]  1C FF C6 30 01 00 02 4E
 (1652905573.655492)  can0  012   [8]  E8 03 10 00 00 00 00 00
 (1652905573.660051)  can0  014   [5]  FF 0F 00 10 27
 (1652905573.665209)  can0  1E5   [8]  1C FF C8 50 02 00 02 71
 (1652905573.665496)  can0  012   [8]  E8 03 10 00 00 00 00 00
 (1652905573.670048)  can0  014   [5]  00 00 00 10 27
 (1652905573.675218)  can0  1E5   [8]  1C FF C8 70 02 00 02 91
 (1652905573.675321)  can0  010   [4]  26 73 00 00
 (1652905573.675594)  can0  012   [8]  E8 03 10 00 00 00 00 00
 (1652905573.679910)  can0  014   [5]  00 00 00 13 27
 (1652905573.685218)  can0  1E5   [8]  1C FF C8 10 02 00 02 31
 (1652905573.685498)  can0  012   [8]  E8 03 10 00 00 00 00 00
 (1652905573.689926)  can0  014   [5]  00 00 00 0D 27
 (1652905573.695210)  can0  1E5   [8]  1C FF CA 30 03 00 02 54
 (1652905573.695497)  can0  012   [8]  E8 03 10 00 00 00 00 00
 (1652905573.699924)  can0  014   [5]  00 00 00 10 27
 (1652905573.705213)  can0  1E5   [8]  1C FF C8 50 00 00 02 6F
 (1652905573.705512)  can0  012   [8]  E8 03 10 00 00 00 00 00
 (1652905573.709947)  can0  014   [5]  00 00 00 10 27
 (1652905573.715217)  can0  1E5   [8]  1C FF C8 70 00 00 02 8F
 (1652905573.715498)  can0  012   [8]  E8 03 10 00 00 00 00 00
 (1652905573.719915)  can0  014   [5]  00 00 00 10 27
 (1652905573.725218)  can0  1E5   [8]  1C FF C8 10 00 00 02 2F
 (1652905573.725517)  can0  012   [8]  E8 03 10 00 00 00 00 00
 (1652905573.729930)  can0  014   [5]  00 00 00 10 27
 (1652905573.735226)  can0  1E5   [8]  1C FF C8 30 00 00 02 4F
 (1652905573.735502)  can0  012   [8]  E8 03 10 00 00 00 00 00
 (1652905573.739940)  can0  014   [5]  00 00 00 10 27
 (1652905573.745210)  can0  1E5   [8]  1C FF C8 50 00 00 02 6F
 (1652905573.745514)  can0  012   [8]  E8 03 10 00 00 00 00 00
 (1652905573.749915)  can0  014   [5]  00 00 00 10 27
 (1652905573.755206)  can0  1E5   [8]  1C FF C6 7F FF 00 03 9B
 (1652905573.755509)  can0  012   [8]  E8 03 10 00 00 00 00 00
 (1652905573.759959)  can0  014   [5]  00 00 00 10 27
 (1652905573.765216)  can0  1E5   [8]  1C FF C6 1F FF 00 03 3B
 (1652905573.765492)  can0  012   [8]  E8 03 10 00 00 00 00 00
 (1652905573.769924)  can0  014   [5]  00 00 00 10 27
 (1652905573.775244)  can0  1E5   [8]  1C FF C5 3F FE 00 03 59
 (1652905573.775345)  can0  010   [4]  26 73 00 00
 (1652905573.775594)  can0  012   [8]  E8 03 10 00 00 00 00 00
 (1652905573.779936)  can0  014   [5]  00 00 00 13 27
 (1652905573.785034)  can0  1E5   [8]  1C FF C5 5F FE 00 03 79
 (1652905573.785457)  can0  012   [8]  E8 03 10 00 00 00 00 00
 (1652905573.789747)  can0  014   [5]  00 00 00 0D 27
 (1652905573.795349)  can0  1E5   [8]  1C FF C6 70 00 00 02 8D
 (1652905573.795504)  can0  012   [8]  E8 03 10 00 00 00 00 00
 (1652905573.799757)  can0  014   [5]  00 00 00 10 27
 (1652905573.805337)  can0  1E5   [8]  1C FF C5 10 00 00 02 2C
 (1652905573.805465)  can0  012   [8]  E8 03 10 00 00 00 00 00
 (1652905573.809946)  can0  014   [5]  00 00 00 10 27
 (1652905573.815322)  can0  1E5   [8]  1C FF C5 30 00 00 02 4C
 (1652905573.815495)  can0  012   [8]  E8 03 10 00 00 00 00 00
 (1652905573.819931)  can0  014   [5]  00 00 00 10 27
 (1652905573.825347)  can0  1E5   [8]  1C FF C5 50 00 00 02 6C
 (1652905573.825506)  can0  012   [8]  E8 03 10 00 00 00 00 00
 (1652905573.829949)  can0  014   [5]  00 00 00 10 27
 (1652905573.835223)  can0  1E5   [8]  1C FF C5 70 00 00 02 8C
 (1652905573.835500)  can0  012   [8]  E8 03 10 00 00 00 00 00
 (1652905573.839937)  can0  014   [5]  00 00 00 10 27
 (1652905573.845219)  can0  1E5   [8]  1C FF C5 10 00 00 02 2C
 (1652905573.845499)  can0  012   [8]  E8 03 10 00 00 00 00 00
 (1652905573.849930)  can0  014   [5]  00 00 00 10 27
 (1652905573.855208)  can0  1E5   [8]  1C FF C5 30 00 00 02 4C
 (1652905573.855492)  can0  012   [8]  E8 03 10 00 00 00 00 00
 (1652905573.859947)  can0  014   [5]  00 00 00 10 27
 (1652905573.865079)  can0  1E5   [8]  1C FF C5 50 00 00 02 6C
 (1652905573.865498)  can0  012   [8]  E8 03 10 00 00 00 00 00
 (1652905573.869925)  can0  014   [5]  00 00 00 10 27
 (1652905573.875104)  can0  1E5   [8]  1C FF C5 70 00 00 02 8C
 (1652905573.875347)  can0  010   [4]  26 73 00 00
 (1652905573.875581)  can0  012   [8]  E8 03 10 00 00 00 00 00
 (1652905573.879923)  can0  014   [5]  00 00 00 13 27
 (1652905573.885224)  can0  1E5   [8]  1C FF C5 10 00 00 02 2C
 (1652905573.885488)  can0  012   [8]  E8 03 10 00 00 00 00 00
 (1652905573.889918)  can0  014   [5]  00 00 00 0D 27
 (1652905573.895210)  can0  1E5   [8]  1C FF C5 30 00 00 02 4C
 (1652905573.895499)  can0  012   [8]  E8 03 10 00 00 00 00 00
 (1652905573.899924)  can0  014   [5]  00 00 00 10 27
 (1652905573.905205)  can0  1E5   [8]  1C FF C5 50 00 00 02 6C
 (1652905573.905495)  can0  012   [8]  E8 03 10 00 00 00 00 00
 (1652905573.909946)  can0  014   [5]  00 00 00 10 27
 (1652905573.915193)  can0  1E5   [8]  1C FF C5 70 00 00 02 8C
 (1652905573.915498)  can0  012   [8]  E8 03 10 00 00 00 00 00
 (1652905573.919928)  can0  014   [5]  00 00 00 10 27
 (1652905573.925213)  can0  1E5   [8]  1C FF C5 10 00 00 02 2C
 (1652905573.925513)  can0  012   [8]  E8 03 10 00 00 00 00 00
 (1652905573.929932)  can0  014   [5]  00 00 00 10 27
 (1652905573.935207)  can0  1E5   [8]  1C FF C5 30 00 00 02 4C
 (1652905573.935504)  can0  012   [8]  E8 03 10 00 00 00 00 00
 (1652905573.939928)  can0  014   [5]  00 00 00 10 27
 (1652905573.945028)  can0  1E5   [8]  1C FF C5 50 00 00 02 6C
 (1652905573.945485)  can0  012   [8]  E8 03 10 00 00 00 00 00
 (1652905573.949755)  can0  014   [5]  00 00 00 10 27
 (1652905573.955032)  can0  1E5   [8]  1C FF C3 7F FF 00 03 98
 (1652905573.955482)  can0  012   [8]  E8 03 10 00 00 00 00 00
 (1652905573.959749)  can0  014   [5]  00 00 00 10 27
 (1652905573.965028)  can0  1E5   [8]  1C FF C3 1F FF 00 03 38
 (1652905573.965486)  can0  012   [8]  E8 03 10 00 00 00 00 00
 (1652905573.969751)  can0  014   [5]  00 00 00 10 27
 (1652905573.975027)  can0  1E5   [8]  1C FF C3 3F FF 00 03 58
 (1652905573.975344)  can0  010   [4]  26 73 00 00
 (1652905573.975606)  can0  012   [8]  E8 03 10 00 00 00 00 00
 (1652905573.975702)  can0  0E2   [2]  10 02
 (1652905573.975853)  can0  0E3   [2]  10 02
 (1652905573.979763)  can0  014   [5]  00 00 00 19 27
 (1652905573.985026)  can0  1E5   [8]  1C FF C3 5F FF 00 03 78
 (1652905573.985498)  can0  012   [8]  E8 03 10 00 00 00 00 00
 (1652905573.989740)  can0  014   [5]  00 F0 FF 07 27
 (1652905573.995039)  can0  1E5   [8]  1C FF C3 7F FF 00 03 98
 (1652905573.995497)  can0  012   [8]  E8 03 10 00 00 00 00 00
 (1652905573.999762)  can0  014   [5]  00 00 00 10 27
 (1652905574.005038)  can0  1E5   [8]  1C FF C3 1F FF 00 03 38
 (1652905574.005494)  can0  012   [8]  E8 03 10 00 00 00 00 00
 (1652905574.009751)  can0  014   [5]  00 00 00 10 27
 (1652905574.015033)  can0  1E5   [8]  1C FF C3 3F FF 00 03 58
 (1652905574.015487)  can0  012   [8]  E8 03 10 00 00 00 00 00
 (1652905574.019751)  can0  014   [5]  00 00 00 10 27
 (1652905574.025031)  can0  1E5   [8]  1C FF C3 5F FF 00 03 78
 (1652905574.025493)  can0  012   [8]  E8 03 10 00 00 00 00 00
 (1652905574.029744)  can0  014   [5]  00 00 00 10 27
 (1652905574.035022)  can0  1E5   [8]  1C FF C3 7F FF 00 03 98
 (1652905574.035498)  can0  012   [8]  E8 03 10 00 00 00 00 00
 (1652905574.039757)  can0  014   [5]  00 00 00 10 27
 (1652905574.045022)  can0  1E5   [8]  1C FF C3 1F FF 00 03 38
 (1652905574.045491)  can0  012   [8]  E8 03 10 00 00 00 00 00
 (1652905574.049751)  can0  014   [5]  00 00 00 10 27
 (1652905574.055037)  can0  1E5   [8]  1C FF C3 30 00 00 02 4A
 (1652905574.055487)  can0  012   [8]  E8 03 10 00 00 00 00 00
 (1652905574.059751)  can0  014   [5]  00 00 00 10 27
 (1652905574.065034)  can0  1E5   [8]  1C FF C3 50 00 00 02 6A
 (1652905574.065481)  can0  012   [8]  E8 03 10 00 00 00 00 00
 (1652905574.069755)  can0  014   [5]  00 00 00 10 27
 (1652905574.075210)  can0  1E5   [8]  1C FF C3 70 00 00 02 8A
 (1652905574.075314)  can0  010   [4]  26 73 00 00
 (1652905574.075609)  can0  012   [8]  E8 03 10 00 00 00 00 00
 (1652905574.079765)  can0  014   [5]  00 00 00 13 27
 (1652905574.085027)  can0  1E5   [8]  1C FF C3 10 00 00 02 2A
 (1652905574.085497)  can0  012   [8]  E8 03 10 00 00 00 00 00
 (1652905574.089756)  can0  014   [5]  00 00 00 0D 27
 (1652905574.095023)  can0  1E5   [8]  1C FF C3 30 00 00 02 4A
 (1652905574.095499)  can0  012   [8]  E8 03 10 00 00 00 00 00
 (1652905574.099756)  can0  014   [5]  00 00 00 10 27
 (1652905574.105026)  can0  1E5   [8]  1C FF C3 50 00 00 02 6A
 (1652905574.105496)  can0  012   [8]  E8 03 10 00 00 00 00 00
 (1652905574.109753)  can0  014   [5]  00 00 00 10 27
 (1652905574.115021)  can0  1E5   [8]  1C FF C3 70 00 00 02 8A
 (1652905574.115492)  can0  012   [8]  E8 03 10 00 00 00 00 00
 (1652905574.119759)  can0  014   [5]  00 00 00 10 27
 (1652905574.125017)  can0  1E5   [8]  1C FF C3 10 00 00 02 2A
 (1652905574.125485)  can0  012   [8]  E8 03 10 00 00 00 00 00
 (1652905574.129754)  can0  014   [5]  00 00 00 10 27
 (1652905574.135033)  can0  1E5   [8]  1C FF C3 30 00 00 02 4A
 (1652905574.135486)  can0  012   [8]  E8 03 10 00 00 00 00 00
 (1652905574.139745)  can0  014   [5]  00 00 00 10 27
 (1652905574.145028)  can0  1E5   [8]  1C FF C3 50 00 00 02 6A
 (1652905574.145491)  can0  012   [8]  E8 03 10 00 00 00 00 00
 (1652905574.149760)  can0  014   [5]  FF 0F 00 10 27
 (1652905574.155032)  can0  1E5   [8]  1C FF C5 70 00 00 02 8C
 (1652905574.155495)  can0  012   [8]  E8 03 10 00 00 00 00 00
 (1652905574.159757)  can0  014   [5]  00 00 00 10 27
 (1652905574.165025)  can0  1E5   [8]  1C FF C5 10 00 00 02 2C
 (1652905574.165508)  can0  012   [8]  E8 03 10 00 00 00 00 00
 (1652905574.169756)  can0  014   [5]  00 00 00 10 27
 (1652905574.175017)  can0  1E5   [8]  1C FF C6 30 01 00 02 4E
 (1652905574.175339)  can0  010   [4]  26 73 00 00
 (1652905574.175610)  can0  012   [8]  E8 03 10 00 00 00 00 00
 (1652905574.179760)  can0  014   [5]  00 00 00 13 27
 (1652905574.185019)  can0  1E5   [8]  1C FF C8 50 02 00 02 71
 (1652905574.185492)  can0  012   [8]  E8 03 10 00 00 00 00 00
 (1652905574.189754)  can0  014   [5]  00 00 00 0D 27
 (1652905574.195028)  can0  1E5   [8]  1C FF C8 70 02 00 02 91
 (1652905574.195490)  can0  012   [8]  E8 03 10 00 00 00 00 00
 (1652905574.199745)  can0  014   [5]  00 00 00 10 27
 (1652905574.205029)  can0  1E5   [8]  1C FF C8 10 02 00 02 31
 (1652905574.205487)  can0  012   [8]  E8 03 10 00 00 00 00 00
 (1652905574.209787)  can0  014   [5]  00 00 00 10 27
 (1652905574.215026)  can0  1E5   [8]  1C FF C8 30 02 00 02 51
 (1652905574.215489)  can0  012   [8]  E8 03 10 00 00 00 00 00
 (1652905574.219748)  can0  014   [5]  00 F0 FF 10 27
 (1652905574.225027)  can0  1E5   [8]  1C FF C8 50 02 00 02 71
 (1652905574.225493)  can0  012   [8]  E8 03 10 00 00 00 00 00
 (1652905574.229759)  can0  014   [5]  00 00 00 10 27
 (1652905574.235021)  can0  1E5   [8]  1C FF C8 70 02 00 02 91
 (1652905574.235506)  can0  012   [8]  E8 03 10 00 00 00 00 00
 (1652905574.239753)  can0  014   [5]  00 00 00 10 27
 (1652905574.245028)  can0  1E5   [8]  1C FF C8 10 02 00 02 31
 (1652905574.245481)  can0  012   [8]  E8 03 10 00 00 00 00 00
 (1652905574.249747)  can0  014   [5]  00 00 00 10 27
 (1652905574.255031)  can0  1E5   [8]  1C FF C8 30 02 00 02 51
 (1652905574.255482)  can0  012   [8]  E8 03 10 00 00 00 00 00
 (1652905574.259749)  can0  014   [5]  00 00 00 10 27
 (1652905574.265026)  can0  1E5   [8]  1C FF C6 50 00 00 02 6D
 (1652905574.265486)  can0  012   [8]  E8 03 10 00 00 00 00 00
 (1652905574.269749)  can0  014   [5]  00 00 00 10 27
 (1652905574.269848)  can0  0E4   [2]  10 02
 (1652905574.275026)  can0  1E5   [8]  1C FF C6 70 00 00 02 8D
 (1652905574.275343)  can0  010   [4]  26 73 00 00
 (1652905574.275612)  can0  012   [8]  E8 03 10 00 00 00 00 00
 (1652905574.279765)  can0  014   [5]  00 00 00 13 27
 (1652905574.285025)  can0  1E5   [8]  1C FF C6 10 00 00 02 2D
 (1652905574.285502)  can0  012   [8]  E8 03 10 00 00 00 00 00
 (1652905574.289759)  can0  014   [5]  00 00 00 0D 27
 (1652905574.295018)  can0  1E5   [8]  1C FF C5 3F FF 00 03 5A
 (1652905574.295497)  can0  012   [8]  E8 03 10 00 00 00 00 00
 (1652905574.299752)  can0  014   [5]  00 00 00 10 27
 (1652905574.304983)  can0  1E5   [8]  1C FF C5 5F FF 00 03 7A
 (1652905574.305467)  can0  012   [8]  E8 03 10 00 00 00 00 00
 (1652905574.307050)  can0  0F0   [1]  01
 (1652905574.308649)  can0  011   [2]  0F 01
 (1652905574.309945)  can0  014   [5]  00 00 00 1A 27
 (1652905574.315134)  can0  1E5   [8]  1C FF C5 7F FF 00 03 9A
 (1652905574.315461)  can0  012   [8]  E8 03 10 00 00 00 00 00
 (1652905574.319945)  can0  014   [5]  00 00 00 06 27
 (1652905574.325011)  can0  1E5   [8]  1C FF C5 1F FF 00 03 3A
 (1652905574.325485)  can0  012   [8]  E8 03 10 00 00 00 00 00
 (1652905574.329901)  can0  014   [5]  00 00 00 10 27
 (1652905574.335191)  can0  1E5   [8]  1C FF C5 3F FF 00 03 5A
 (1652905574.335493)  can0  012   [8]  E8 03 10 00 00 00 00 00
 (1652905574.339921)  can0  014   [5]  00 00 00 10 27
 (1652905574.345189)  can0  1E5   [8]  1C FF C5 5F FF 00 03 7A
 (1652905574.345492)  can0  012   [8]  E8 03 10 00 00 00 00 00
 (1652905574.349914)  can0  014   [5]  00 00 00 10 27
 (1652905574.355197)  can0  1E5   [8]  1C FF C5 7F FF 00 03 9A
 (1652905574.355503)  can0  012   [8]  E8 03 10 00 00 00 00 00
 (1652905574.359940)  can0  014   [5]  00 00 00 10 27
 (1652905574.365191)  can0  1E5   [8]  1C FF C5 1F FF 00 03 3A
 (1652905574.365499)  can0  012   [8]  E8 03 10 00 00 00 00 00
 (1652905574.369919)  can0  014   [5]  00 00 00 10 27
 (1652905574.375201)  can0  1E5   [8]  1C FF C5 3F FF 00 03 5A
 (1652905574.375314)  can0  010   [4]  3D 96 0E 00
 (1652905574.375589)  can0  012   [8]  E8 03 10 00 00 00 00 00
 (1652905574.379956)  can0  014   [5]  00 00 00 13 27
 (1652905574.385205)  can0  1E5   [8]  1C FF C6 50 00 00 02 6D
 (1652905574.385510)  can0  012   [8]  E8 03 10 00 00 00 00 00
 (1652905574.389921)  can0  014   [5]  00 00 00 0D 27
 (1652905574.395198)  can0  1E5   [8]  1C FF C6 70 00 00 02 8D
 (1652905574.395491)  can0  012   [8]  E8 03 10 00 00 00 00 00
 (1652905574.399922)  can0  014   [5]  00 00 00 10 27
 (1652905574.405202)  can0  1E5   [8]  1C FF C6 10 00 00 02 2D
 (1652905574.405506)  can0  012   [8]  E8 03 10 00 00 00 00 00
 (1652905574.407605)  can0  0F0   [1]  01
 (1652905574.408713)  can0  011   [2]  10 01
 (1652905574.409727)  can0  014   [5]  00 00 00 16 27
 (1652905574.415170)  can0  1E5   [8]  1C FF C6 30 00 00 02 4D
 (1652905574.415456)  can0  012   [8]  E8 03 10 00 00 00 00 00
 (1652905574.420536)  can0  014   [5]  00 00 00 0A 27
 (1652905574.425196)  can0  1E5   [8]  1C FF C6 50 00 00 02 6D
 (1652905574.425455)  can0  012   [8]  E8 03 10 00 00 00 00 00
 (1652905574.429756)  can0  014   [5]  00 00 00 10 27
 (1652905574.435253)  can0  1E5   [8]  1C FF C6 70 00 00 02 8D
 (1652905574.435497)  can0  012   [8]  E8 03 10 00 00 00 00 00
 (1652905574.439917)  can0  014   [5]  00 00 00 10 27
 (1652905574.445181)  can0  1E5   [8]  1C FF C6 10 00 00 02 2D
 (1652905574.445486)  can0  012   [8]  E8 03 10 00 00 00 00 00
 (1652905574.449909)  can0  014   [5]  00 00 00 10 27
 (1652905574.455210)  can0  1E5   [8]  1C FF C6 30 00 00 02 4D
 (1652905574.455448)  can0  012   [8]  E8 03 10 00 00 00 00 00
 (1652905574.459943)  can0  014   [5]  00 00 00 10 27
 (1652905574.465185)  can0  1E5   [8]  1C FF C6 50 00 00 02 6D
 (1652905574.465480)  can0  012   [8]  E8 03 10 00 00 00 00 00
 (1652905574.469770)  can0  014   [5]  00 00 00 10 27
 (1652905574.475204)  can0  1E5   [8]  1C FF C6 70 00 00 02 8D
 (1652905574.475308)  can0  010   [4]  3F 99 10 00
 (1652905574.475582)  can0  012   [8]  E8 03 10 00 00 00 00 00
 (1652905574.479922)  can0  014   [5]  00 00 00 13 27
 (1652905574.485184)  can0  1E5   [8]  1C FF C6 10 00 00 02 2D
 (1652905574.485506)  can0  012   [8]  E8 03 10 00 00 00 00 00
 (1652905574.489913)  can0  014   [5]  00 00 00 0D 27
 (1652905574.495011)  can0  1E5   [8]  1C FF C6 30 00 00 02 4D
 (1652905574.495499)  can0  012   [8]  E8 03 10 00 00 00 00 00
 (1652905574.499909)  can0  014   [5]  00 00 00 10 27
 (1652905574.505190)  can0  1E5   [8]  1C FF C6 50 00 00 02 6D
 (1652905574.505499)  can0  012   [8]  E8 03 10 00 00 00 00 00
 (1652905574.509571)  can0  0F0   [1]  01
 (1652905574.509704)  can0  014   [5]  00 00 00 10 27
 (1652905574.510895)  can0  011   [2]  10 01
 (1652905574.515165)  can0  1E5   [8]  1C FF C6 70 00 00 02 8D
 (1652905574.515449)  can0  012   [8]  E8 03 10 00 00 00 00 00
 (1652905574.519939)  can0  014   [5]  00 00 00 16 27
 (1652905574.524998)  can0  1E5   [8]  1C FF C6 10 00 00 02 2D
 (1652905574.525490)  can0  012   [8]  E8 03 10 00 00 00 00 00
 (1652905574.529906)  can0  014   [5]  00 00 00 0A 27
 (1652905574.535447)  can0  1E5   [8]  1C FF C6 30 00 00 02 4D
 (1652905574.535456)  can0  012   [8]  E8 03 10 00 00 00 00 00
 (1652905574.539911)  can0  014   [5]  00 00 00 10 27
 (1652905574.545169)  can0  1E5   [8]  1C FF C6 50 00 00 02 6D
 (1652905574.545486)  can0  012   [8]  E8 03 10 00 00 00 00 00
 (1652905574.549925)  can0  014   [5]  00 00 00 10 27
 (1652905574.555191)  can0  1E5   [8]  1C FF C6 70 00 00 02 8D
 (1652905574.555492)  can0  012   [8]  E8 03 10 00 00 00 00 00
 (1652905574.559752)  can0  014   [5]  00 00 00 10 27
 (1652905574.565191)  can0  1E5   [8]  1C FF C6 10 00 00 02 2D
 (1652905574.565494)  can0  012   [8]  E8 03 10 00 00 00 00 00
 (1652905574.569930)  can0  014   [5]  00 00 00 10 27
 (1652905574.575181)  can0  1E5   [8]  1C FF C6 30 00 00 02 4D
 (1652905574.575338)  can0  010   [4]  3F 99 10 00
 (1652905574.575584)  can0  012   [8]  E8 03 10 00 00 00 00 00
 (1652905574.579910)  can0  014   [5]  00 00 00 13 27
 (1652905574.585188)  can0  1E5   [8]  1C FF C6 50 00 00 02 6D
 (1652905574.585493)  can0  012   [8]  E8 03 10 00 00 00 00 00
 (1652905574.589930)  can0  014   [5]  00 00 00 0D 27
 (1652905574.595167)  can0  1E5   [8]  1C FF C5 70 00 00 02 8C
 (1652905574.595504)  can0  012   [8]  E8 03 10 00 00 00 00 00
 (1652905574.599921)  can0  014   [5]  00 00 00 10 27
 (1652905574.605192)  can0  1E5   [8]  1C FF C5 10 00 00 02 2C
 (1652905574.605496)  can0  012   [8]  E8 03 10 00 00 00 00 00
 (1652905574.609748)  can0  014   [5]  00 00 00 10 27
 (1652905574.611860)  can0  0F0   [1]  01
 (1652905574.612790)  can0  011   [2]  10 01
 (1652905574.615160)  can0  1E5   [8]  1C FF C5 30 00 00 02 4C
 (1652905574.615456)  can0  012   [8]  E8 03 10 00 00 00 00 00
 (1652905574.619759)  can0  014   [5]  00 00 00 16 27
 (1652905574.625194)  can0  1E5   [8]  1C FF C6 50 00 00 02 6D
 (1652905574.625460)  can0  012   [8]  E8 03 10 00 00 00 00 00
 (1652905574.629962)  can0  014   [5]  00 00 00 0A 27
 (1652905574.635182)  can0  1E5   [8]  1C FF C5 70 00 00 02 8C
 (1652905574.635492)  can0  012   [8]  E8 03 10 00 00 00 00 00
 (1652905574.639768)  can0  014   [5]  00 00 00 10 27
 (1652905574.645184)  can0  1E5   [8]  1C FF C5 10 00 00 02 2C
 (1652905574.645499)  can0  012   [8]  E8 03 10 00 00 00 00 00
 (1652905574.649914)  can0  014   [5]  00 00 00 10 27
 (1652905574.655183)  can0  1E5   [8]  1C FF C6 30 00 00 02 4D
 (1652905574.655498)  can0  012   [8]  E8 03 10 00 00 00 00 00
 (1652905574.659966)  can0  014   [5]  00 00 00 10 27
 (1652905574.665189)  can0  1E5   [8]  1C FF C5 50 00 00 02 6C
 (1652905574.665479)  can0  012   [8]  E8 03 10 00 00 00 00 00
 (1652905574.669946)  can0  014   [5]  00 00 00 10 27
 (1652905574.675178)  can0  1E5   [8]  1C FF C5 70 00 00 02 8C
 (1652905574.675343)  can0  010   [4]  3F 99 10 00
 (1652905574.675584)  can0  012   [8]  E8 03 10 00 00 00 00 00
 (1652905574.679980)  can0  014   [5]  00 00 00 13 27
 (1652905574.685191)  can0  1E5   [8]  1C FF C5 10 00 00 02 2C
 (1652905574.685504)  can0  012   [8]  E8 03 10 00 00 00 00 00
 (1652905574.689864)  can0  014   [5]  00 00 00 0D 27
 (1652905574.695186)  can0  1E5   [8]  1C FF C5 30 00 00 02 4C
 (1652905574.695486)  can0  012   [8]  E8 03 10 00 00 00 00 00
 (1652905574.699760)  can0  014   [5]  00 00 00 10 27
 (1652905574.705191)  can0  1E5   [8]  1C FF C5 50 00 00 02 6C
 (1652905574.705499)  can0  012   [8]  E8 03 10 00 00 00 00 00
 (1652905574.710056)  can0  014   [5]  00 00 00 10 27
 (1652905574.713686)  can0  0F0   [1]  01
 (1652905574.714863)  can0  011   [2]  10 01
 (1652905574.714951)  can0  1E5   [8]  1C FF C5 70 00 00 02 8C
 (1652905574.715444)  can0  012   [8]  E8 03 10 00 00 00 00 00
 (1652905574.719910)  can0  014   [5]  00 00 00 16 27
 (1652905574.725009)  can0  1E5   [8]  1C FF C5 10 00 00 02 2C
 (1652905574.725450)  can0  012   [8]  E8 03 10 00 00 00 00 00
 (1652905574.729904)  can0  014   [5]  00 00 00 0A 27
 (1652905574.735222)  can0  1E5   [8]  1C FF C5 30 00 00 02 4C
 (1652905574.735477)  can0  012   [8]  E8 03 10 00 00 00 00 00
 (1652905574.739918)  can0  014   [5]  00 00 00 10 27
 (1652905574.745166)  can0  1E5   [8]  1C FF C5 50 00 00 02 6C
 (1652905574.745493)  can0  012   [8]  E8 03 10 00 00 00 00 00
 (1652905574.749927)  can0  014   [5]  00 00 00 10 27
 (1652905574.755172)  can0  1E5   [8]  1C FF C5 70 00 00 02 8C
 (1652905574.755496)  can0  012   [8]  E8 03 10 00 00 00 00 00
 (1652905574.759933)  can0  014   [5]  00 00 00 10 27
 (1652905574.765183)  can0  1E5   [8]  1C FF C5 10 00 00 02 2C
 (1652905574.765500)  can0  012   [8]  E8 03 10 00 00 00 00 00
 (1652905574.769924)  can0  014   [5]  00 00 00 10 27
 (1652905574.775178)  can0  1E5   [8]  1C FF C5 30 00 00 02 4C
 (1652905574.775336)  can0  010   [4]  3F 99 10 00
 (1652905574.775602)  can0  012   [8]  E8 03 10 00 00 00 00 00
 (1652905574.779924)  can0  014   [5]  00 00 00 13 27
 (1652905574.784999)  can0  1E5   [8]  1C FF C5 50 00 00 02 6C
 (1652905574.785449)  can0  012   [8]  E8 03 10 00 00 00 00 00
 (1652905574.789772)  can0  014   [5]  00 00 00 0D 27
 (1652905574.795263)  can0  1E5   [8]  1C FF C5 70 00 00 02 8C
 (1652905574.795481)  can0  012   [8]  E8 03 10 00 00 00 00 00
 (1652905574.799898)  can0  014   [5]  00 00 00 10 27
 (1652905574.805210)  can0  1E5   [8]  1C FF C5 10 00 00 02 2C
 (1652905574.805486)  can0  012   [8]  E8 03 10 00 00 00 00 00
 (1652905574.809933)  can0  014   [5]  00 00 00 10 27
 (1652905574.814977)  can0  1E5   [8]  1C FF C5 30 00 00 02 4C
 (1652905574.815450)  can0  012   [8]  E8 03 10 00 00 00 00 00
 (1652905574.815663)  can0  0F0   [1]  01
 (1652905574.816967)  can0  011   [2]  10 01
 (1652905574.819904)  can0  014   [5]  00 00 00 16 27
 (1652905574.824991)  can0  1E5   [8]  1C FF C5 50 00 00 02 6C
 (1652905574.825460)  can0  012   [8]  E8 03 10 00 00 00 00 00
 (1652905574.829907)  can0  014   [5]  00 00 00 0A 27
 (1652905574.835025)  can0  1E5   [8]  1C FF C5 70 00 00 02 8C
 (1652905574.835443)  can0  012   [8]  E8 03 10 00 00 00 00 00
 (1652905574.839922)  can0  014   [5]  00 00 00 10 27
 (1652905574.845292)  can0  1E5   [8]  1C FF C5 10 00 00 02 2C
 (1652905574.845477)  can0  012   [8]  E8 03 10 00 00 00 00 00
 (1652905574.849925)  can0  014   [5]  FF 0F 00 10 27
 (1652905574.855309)  can0  1E5   [8]  1C FF C5 30 00 00 02 4C
 (1652905574.855483)  can0  012   [8]  E8 03 10 00 00 00 00 00
 (1652905574.859940)  can0  014   [5]  00 00 00 10 27
 (1652905574.865200)  can0  1E5   [8]  1C FF C5 50 00 00 02 6C
 (1652905574.865494)  can0  012   [8]  E8 03 10 00 00 00 00 00
 (1652905574.869921)  can0  014   [5]  00 00 00 10 27
 (1652905574.875183)  can0  1E5   [8]  1C FF C5 70 00 00 02 8C
 (1652905574.875337)  can0  010   [4]  3F 99 10 00
 (1652905574.875586)  can0  012   [8]  E8 03 10 00 00 00 00 00
 (1652905574.879913)  can0  014   [5]  00 00 00 13 27
 (1652905574.885178)  can0  1E5   [8]  1C FF C5 10 00 00 02 2C
 (1652905574.885502)  can0  012   [8]  E8 03 10 00 00 00 00 00
 (1652905574.889912)  can0  014   [5]  00 00 00 0D 27
 (1652905574.895168)  can0  1E5   [8]  1C FF C5 30 00 00 02 4C
 (1652905574.895448)  can0  012   [8]  E8 03 10 00 00 00 00 00
 (1652905574.899756)  can0  014   [5]  00 00 00 10 27
 (1652905574.905193)  can0  1E5   [8]  1C FF C5 50 00 00 02 6C
 (1652905574.905502)  can0  012   [8]  E8 03 10 00 00 00 00 00
 (1652905574.909945)  can0  014   [5]  00 00 00 10 27
 (1652905574.915191)  can0  1E5   [8]  1C FF C5 70 00 00 02 8C
 (1652905574.915490)  can0  012   [8]  E8 03 10 00 00 00 00 00
 (1652905574.917639)  can0  0F0   [1]  01
 (1652905574.918880)  can0  011   [2]  10 01
 (1652905574.919758)  can0  014   [5]  00 00 00 16 27
 (1652905574.924983)  can0  1E5   [8]  1C FF C5 10 00 00 02 2C
 (1652905574.925444)  can0  012   [8]  E8 03 10 00 00 00 00 00
 (1652905574.929903)  can0  014   [5]  00 00 00 0A 27
 (1652905574.935099)  can0  1E5   [8]  1C FF C5 30 00 00 02 4C
 (1652905574.935455)  can0  012   [8]  E8 03 10 00 00 00 00 00
 (1652905574.939951)  can0  014   [5]  00 00 00 10 27
 (1652905574.945171)  can0  1E5   [8]  1C FF C5 50 00 00 02 6C
 (1652905574.945503)  can0  012   [8]  E8 03 10 00 00 00 00 00
 (1652905574.949929)  can0  014   [5]  00 00 00 10 27
 (1652905574.955184)  can0  1E5   [8]  1C FF C5 70 00 00 02 8C
 (1652905574.955490)  can0  012   [8]  E8 03 10 00 00 00 00 00
 (1652905574.959941)  can0  014   [5]  00 00 00 10 27
 (1652905574.965176)  can0  1E5   [8]  1C FF C5 10 00 00 02 2C
 (1652905574.965497)  can0  012   [8]  E8 03 10 00 00 00 00 00
 (1652905574.969915)  can0  014   [5]  00 00 00 10 27
 (1652905574.975178)  can0  1E5   [8]  1C FF C5 30 00 00 02 4C
 (1652905574.975291)  can0  010   [4]  3F 99 10 00
 (1652905574.975592)  can0  012   [8]  E8 03 10 00 00 00 00 00
 (1652905574.975664)  can0  0E2   [2]  3A 02
 (1652905574.975852)  can0  0E3   [2]  3A 02
 (1652905574.979941)  can0  014   [5]  00 00 00 19 27
 (1652905574.984985)  can0  1E5   [8]  1C FF C5 50 00 00 02 6C
 (1652905574.985476)  can0  012   [8]  E8 03 10 00 00 00 00 00
 (1652905574.989916)  can0  014   [5]  00 F0 FF 07 27
 (1652905574.995158)  can0  1E5   [8]  1C FF C5 70 00 00 02 8C
 (1652905574.995499)  can0  012   [8]  E8 03 10 00 00 00 00 00
 (1652905574.999924)  can0  014   [5]  00 00 00 10 27
 (1652905575.005172)  can0  1E5   [8]  1C FF C5 10 00 00 02 2C
 (1652905575.005505)  can0  012   [8]  E8 03 10 00 00 00 00 00
 (1652905575.009944)  can0  014   [5]  00 00 00 10 27
 (1652905575.015161)  can0  1E5   [8]  1C FF C5 30 00 00 02 4C
 (1652905575.015511)  can0  012   [8]  E8 03 10 00 00 00 00 00
 (1652905575.019741)  can0  014   [5]  00 00 00 10 27
 (1652905575.020190)  can0  0F0   [1]  01
 (1652905575.021381)  can0  011   [2]  11 01
 (1652905575.025141)  can0  1E5   [8]  1C FF C5 50 00 00 02 6C
 (1652905575.025449)  can0  012   [8]  E8 03 10 00 00 00 00 00
 (1652905575.029932)  can0  014   [5]  00 00 00 16 27
 (1652905575.035169)  can0  1E5   [8]  1C FF C5 70 00 00 02 8C
 (1652905575.035498)  can0  012   [8]  E8 03 10 00 00 00 00 00
 (1652905575.039729)  can0  014   [5]  00 00 00 0A 27
 (1652905575.044977)  can0  1E5   [8]  1C FF C5 10 00 00 02 2C
 (1652905575.045454)  can0  012   [8]  E8 03 10 00 00 00 00 00
 (1652905575.049916)  can0  014   [5]  00 00 00 10 27
 (1652905575.055185)  can0  1E5   [8]  1C FF C5 30 00 00 02 4C
 (1652905575.055493)  can0  012   [8]  E8 03 10 00 00 00 00 00
 (1652905575.059942)  can0  014   [5]  00 00 00 10 27
 (1652905575.065166)  can0  1E5   [8]  1C FF C5 50 00 00 02 6C
 (1652905575.065499)  can0  012   [8]  E8 03 10 00 00 00 00 00
 (1652905575.069924)  can0  014   [5]  00 00 00 10 27
 (1652905575.075171)  can0  1E5   [8]  1C FF C5 70 00 00 02 8C
 (1652905575.075335)  can0  010   [4]  40 9B 11 01
 (1652905575.075587)  can0  012   [8]  E8 03 10 00 00 00 00 00
 (1652905575.079922)  can0  014   [5]  00 00 00 13 27
 (1652905575.085178)  can0  1E5   [8]  1C FF C5 10 00 00 02 2C
 (1652905575.085496)  can0  012   [8]  E8 03 10 00 00 00 00 00
 (1652905575.089717)  can0  014   [5]  00 00 00 0D 27
 (1652905575.095168)  can0  1E5   [8]  1C FF C5 30 00 00 02 4C
 (1652905575.095495)  can0  012   [8]  E8 03 10 00 00 00 00 00
 (1652905575.099944)  can0  014   [5]  00 00 00 10 27
 (1652905575.104997)  can0  1E5   [8]  1C FF C5 50 00 00 02 6C
 (1652905575.105498)  can0  012   [8]  E8 03 10 00 00 00 00 00
 (1652905575.109940)  can0  014   [5]  00 00 00 10 27
 (1652905575.115178)  can0  1E5   [8]  1C FF C5 70 00 00 02 8C
 (1652905575.115505)  can0  012   [8]  E8 03 10 00 00 00 00 00
 (1652905575.119763)  can0  014   [5]  00 00 00 10 27
 (1652905575.122228)  can0  0F0   [1]  01
 (1652905575.123504)  can0  011   [2]  11 01
 (1652905575.124996)  can0  1E5   [8]  1C FF C5 10 00 00 02 2C
 (1652905575.125448)  can0  012   [8]  E8 03 10 00 00 00 00 00
 (1652905575.129915)  can0  014   [5]  00 00 00 16 27
 (1652905575.135593)  can0  1E5   [8]  1C FF C5 30 00 00 02 4C
 (1652905575.135602)  can0  012   [8]  E8 03 10 00 00 00 00 00
 (1652905575.139923)  can0  014   [5]  00 00 00 0A 27
 (1652905575.144994)  can0  1E5   [8]  1C FF C5 50 00 00 02 6C
 (1652905575.145450)  can0  012   [8]  E8 03 10 00 00 00 00 00
 (1652905575.149933)  can0  014   [5]  00 00 00 10 27
 (1652905575.155212)  can0  1E5   [8]  1C FF C5 70 00 00 02 8C
 (1652905575.155469)  can0  012   [8]  E8 03 10 00 00 00 00 00
 (1652905575.159775)  can0  014   [5]  00 00 00 10 27
 (1652905575.165166)  can0  1E5   [8]  1C FF C3 1F FF 00 03 38
 (1652905575.165492)  can0  012   [8]  E8 03 10 00 00 00 00 00
 (1652905575.169940)  can0  014   [5]  00 00 00 10 27
 (1652905575.175004)  can0  1E5   [8]  1C FF C5 30 00 00 02 4C
 (1652905575.175343)  can0  010   [4]  40 9B 11 01
 (1652905575.175571)  can0  012   [8]  E8 03 10 00 00 00 00 00
 (1652905575.179944)  can0  014   [5]  00 00 00 13 27
 (1652905575.185173)  can0  1E5   [8]  1C FF C5 50 00 00 02 6C
 (1652905575.185454)  can0  012   [8]  E8 03 10 00 00 00 00 00
 (1652905575.189947)  can0  014   [5]  00 00 00 0D 27
 (1652905575.195154)  can0  1E5   [8]  1C FF C5 70 00 00 02 8C
 (1652905575.195485)  can0  012   [8]  E8 03 10 00 00 00 00 00
 (1652905575.199979)  can0  014   [5]  00 10 00 10 27
 (1652905575.205159)  can0  1E5   [8]  1C FF C5 10 00 00 02 2C
 (1652905575.205495)  can0  012   [8]  E8 03 10 00 00 00 00 00
 (1652905575.210010)  can0  014   [5]  01 00 00 10 27
 (1652905575.215174)  can0  1E5   [8]  1C FF C5 30 00 00 02 4C
 (1652905575.215503)  can0  012   [8]  E8 03 10 00 00 00 00 00
 (1652905575.220016)  can0  014   [5]  00 00 00 10 27
 (1652905575.224396)  can0  0F0   [1]  01
 (1652905575.224979)  can0  1E5   [8]  1C FF C5 50 00 00 02 6C
 (1652905575.225495)  can0  012   [8]  E8 03 10 00 00 00 00 00
 (1652905575.225570)  can0  011   [2]  11 01
 (1652905575.230095)  can0  014   [5]  00 10 00 16 27
 (1652905575.235150)  can0  1E5   [8]  1C FF C5 70 00 00 02 8C
 (1652905575.235460)  can0  012   [8]  E8 03 10 00 00 00 00 00
 (1652905575.239750)  can0  014   [5]  01 10 00 0A 27
 (1652905575.245151)  can0  1E5   [8]  1C FF C5 10 00 00 02 2C
 (1652905575.245445)  can0  012   [8]  E8 03 10 00 00 00 00 00
 (1652905575.249902)  can0  014   [5]  00 00 00 10 27
 (1652905575.255172)  can0  1E5   [8]  1C FF C5 30 00 00 02 4C
 (1652905575.255450)  can0  012   [8]  E8 03 10 00 00 00 00 00
 (1652905575.259939)  can0  014   [5]  02 20 00 10 27
 (1652905575.265161)  can0  1E5   [8]  1C FF C5 50 00 00 02 6C
 (1652905575.265455)  can0  012   [8]  E8 03 10 00 00 00 00 00
 (1652905575.269917)  can0  014   [5]  02 20 00 10 27
 (1652905575.269926)  can0  0E4   [2]  3A 02
 (1652905575.275165)  can0  1E5   [8]  1C FF C5 70 00 00 02 8C
 (1652905575.275303)  can0  010   [4]  40 9B 11 01
 (1652905575.275588)  can0  012   [8]  E8 03 10 00 00 00 00 00
 (1652905575.279921)  can0  014   [5]  02 10 00 13 27
 (1652905575.285174)  can0  1E5   [8]  1C FF C5 10 00 00 02 2C
 (1652905575.285454)  can0  012   [8]  E8 03 10 00 00 00 00 00
 (1652905575.289917)  can0  014   [5]  03 20 00 0D 27
 (1652905575.295178)  can0  1E5   [8]  1C FF C3 30 00 00 02 4A
 (1652905575.295442)  can0  012   [8]  E8 03 10 00 00 00 00 00
 (1652905575.299905)  can0  014   [5]  01 F0 FF 10 27
 (1652905575.305166)  can0  1E5   [8]  1C FF C5 50 00 00 02 6C
 (1652905575.305491)  can0  012   [8]  E8 03 10 00 00 00 00 00
 (1652905575.309955)  can0  014   [5]  00 F0 FF 10 27
 (1652905575.315194)  can0  1E5   [8]  1C FF C5 70 00 00 02 8C
 (1652905575.315492)  can0  012   [8]  E8 03 10 00 00 00 00 00
 (1652905575.319941)  can0  014   [5]  FF 1F 00 10 27
 (1652905575.325002)  can0  1E5   [8]  1C FF C5 10 00 00 02 2C
 (1652905575.325489)  can0  012   [8]  E8 03 10 00 00 00 00 00
 (1652905575.326774)  can0  0F0   [1]  01
 (1652905575.327931)  can0  011   [2]  12 01
 (1652905575.329742)  can0  014   [5]  03 20 00 16 27
 (1652905575.335290)  can0  1E5   [8]  1C FF C5 30 00 00 02 4C
 (1652905575.335453)  can0  012   [8]  E8 03 10 00 00 00 00 00
 (1652905575.339744)  can0  014   [5]  04 20 00 0A 27
 (1652905575.345329)  can0  1E5   [8]  1C FF C5 50 00 00 02 6C
 (1652905575.345446)  can0  012   [8]  E8 03 10 00 00 00 00 00
 (1652905575.349912)  can0  014   [5]  04 30 00 10 27
 (1652905575.355267)  can0  1E5   [8]  1C FF C5 70 00 00 02 8C
 (1652905575.355496)  can0  012   [8]  E8 03 10 00 00 00 00 00
 (1652905575.360052)  can0  014   [5]  03 20 00 10 27
 (1652905575.365288)  can0  1E5   [8]  1C FF C5 10 00 00 02 2C
 (1652905575.365449)  can0  012   [8]  E8 03 10 00 00 00 00 00
 (1652905575.369913)  can0  014   [5]  03 20 00 10 27
 (1652905575.375304)  can0  1E5   [8]  1C FF C5 30 00 00 02 4C
 (1652905575.375312)  can0  010   [4]  42 9D 12 01
 (1652905575.375549)  can0  012   [8]  E8 03 10 00 00 00 00 00
 (1652905575.379937)  can0  014   [5]  01 10 00 13 27
 (1652905575.385162)  can0  1E5   [8]  1C FF C5 50 00 00 02 6C
 (1652905575.385456)  can0  012   [8]  E8 03 10 00 00 00 00 00
 (1652905575.389905)  can0  014   [5]  01 10 00 0D 27
 (1652905575.394992)  can0  1E5   [8]  1C FF C5 70 00 00 02 8C
 (1652905575.395444)  can0  012   [8]  E8 03 10 00 00 00 00 00
 (1652905575.399915)  can0  014   [5]  00 00 00 10 27
 (1652905575.405170)  can0  1E5   [8]  1C FF C5 10 00 00 02 2C
 (1652905575.405497)  can0  012   [8]  E8 03 10 00 00 00 00 00
 (1652905575.409944)  can0  014   [5]  FF FF FF 10 27
 (1652905575.415169)  can0  1E5   [8]  1C FF C5 30 00 00 02 4C
 (1652905575.415503)  can0  012   [8]  E8 03 10 00 00 00 00 00
 (1652905575.419911)  can0  014   [5]  FF FF FF 10 27
 (1652905575.425175)  can0  1E5   [8]  1C FF C5 50 00 00 02 6C
 (1652905575.425502)  can0  012   [8]  E8 03 10 00 00 00 00 00
 (1652905575.428836)  can0  0F0   [1]  01
 (1652905575.429755)  can0  014   [5]  FF 0F 00 13 27
 (1652905575.430134)  can0  011   [2]  12 01
 (1652905575.435137)  can0  1E5   [8]  1C FF C5 70 00 00 02 8C
 (1652905575.435461)  can0  012   [8]  E8 03 10 00 00 00 00 00
 (1652905575.439749)  can0  014   [5]  00 F0 FF 10 27
 (1652905575.445147)  can0  1E5   [8]  1C FF C5 10 00 00 02 2C
 (1652905575.445491)  can0  012   [8]  E8 03 10 00 00 00 00 00
 (1652905575.449758)  can0  014   [5]  00 00 00 0D 27
 (1652905575.454962)  can0  1E5   [8]  1C FF C5 30 00 00 02 4C
 (1652905575.455501)  can0  012   [8]  E8 03 10 00 00 00 00 00
 (1652905575.459944)  can0  014   [5]  00 10 00 10 27
 (1652905575.465204)  can0  1E5   [8]  1C FF C5 50 00 00 02 6C
 (1652905575.465488)  can0  012   [8]  E8 03 10 00 00 00 00 00
 (1652905575.469912)  can0  014   [5]  02 10 00 10 27
 (1652905575.475169)  can0  1E5   [8]  1C FF C5 70 00 00 02 8C
 (1652905575.475329)  can0  010   [4]  42 9D 12 01
 (1652905575.475584)  can0  012   [8]  E8 03 10 00 00 00 00 00
 (1652905575.479917)  can0  014   [5]  02 20 00 13 27
 (1652905575.485165)  can0  1E5   [8]  1C FF C5 10 00 00 02 2C
 (1652905575.485499)  can0  012   [8]  E8 03 10 00 00 00 00 00
 (1652905575.489927)  can0  014   [5]  02 20 00 0D 27
 (1652905575.495151)  can0  1E5   [8]  1C FF C5 30 00 00 02 4C
 (1652905575.495488)  can0  012   [8]  E8 03 10 00 00 00 00 00
 (1652905575.499917)  can0  014   [5]  02 20 00 10 27
 (1652905575.505165)  can0  1E5   [8]  1C FF C3 50 00 00 02 6A
 (1652905575.505443)  can0  012   [8]  E8 03 10 00 00 00 00 00
 (1652905575.509933)  can0  014   [5]  02 30 00 10 27
 (1652905575.514997)  can0  1E5   [8]  1C FF C3 70 00 00 02 8A
 (1652905575.515439)  can0  012   [8]  E8 03 10 00 00 00 00 00
 (1652905575.519921)  can0  014   [5]  03 20 00 10 27
 (1652905575.525157)  can0  1E5   [8]  1C FF C3 10 00 00 02 2A
 (1652905575.525493)  can0  012   [8]  E8 03 10 00 00 00 00 00
 (1652905575.529757)  can0  014   [5]  02 20 00 10 27
 (1652905575.531129)  can0  0F0   [1]  01
 (1652905575.532477)  can0  011   [2]  10 01
 (1652905575.534991)  can0  1E5   [8]  1C FF C2 3F FF 00 03 57
 (1652905575.535492)  can0  012   [8]  E8 03 10 00 00 00 00 00
 (1652905575.539760)  can0  014   [5]  02 20 00 16 27
 (1652905575.545133)  can0  1E5   [8]  1C FF C2 5F FF 00 03 77
 (1652905575.545481)  can0  012   [8]  E8 03 10 00 00 00 00 00
 (1652905575.549903)  can0  014   [5]  02 10 00 0A 27
 (1652905575.555159)  can0  1E5   [8]  1C FF C2 7F FF 00 03 97
 (1652905575.555474)  can0  012   [8]  E8 03 10 00 00 00 00 00
 (1652905575.559935)  can0  014   [5]  02 20 00 10 27
 (1652905575.565147)  can0  1E5   [8]  1C FF C2 1F FF 00 03 37
 (1652905575.565497)  can0  012   [8]  E8 03 10 00 00 00 00 00
 (1652905575.569914)  can0  014   [5]  01 10 00 10 27
 (1652905575.575163)  can0  1E5   [8]  1C FF C2 3F FF 00 03 57
 (1652905575.575346)  can0  010   [4]  3F 99 10 01
 (1652905575.575582)  can0  012   [8]  E8 03 10 00 00 00 00 00
 (1652905575.579968)  can0  014   [5]  01 10 00 13 27
 (1652905575.585147)  can0  1E5   [8]  1C FF C2 5F FF 00 03 77
 (1652905575.585486)  can0  012   [8]  E8 03 10 00 00 00 00 00
 (1652905575.589924)  can0  014   [5]  01 10 00 0D 27
 (1652905575.595167)  can0  1E5   [8]  1C FF C2 7F FF 00 03 97
 (1652905575.595499)  can0  012   [8]  E8 03 10 00 00 00 00 00
 (1652905575.599933)  can0  014   [5]  01 10 00 10 27
 (1652905575.605162)  can0  1E5   [8]  1C FF C2 1F FF 00 03 37
 (1652905575.605438)  can0  012   [8]  E8 03 10 00 00 00 00 00
 (1652905575.609942)  can0  014   [5]  02 20 00 10 27
 (1652905575.615145)  can0  1E5   [8]  1C FF C2 3F FF 00 03 57
 (1652905575.615489)  can0  012   [8]  E8 03 10 00 00 00 00 00
 (1652905575.619915)  can0  014   [5]  02 20 00 10 27
 (1652905575.625151)  can0  1E5   [8]  1C FF C2 5F FF 00 03 77
 (1652905575.625480)  can0  012   [8]  E8 03 10 00 00 00 00 00
 (1652905575.629937)  can0  014   [5]  02 20 00 10 27
 (1652905575.633816)  can0  0F0   [1]  01
 (1652905575.634941)  can0  011   [2]  0E 01
 (1652905575.635008)  can0  1E5   [8]  1C FF C2 70 00 00 02 89
 (1652905575.635453)  can0  012   [8]  E8 03 10 00 00 00 00 00
 (1652905575.639796)  can0  014   [5]  02 30 00 16 27
 (1652905575.645136)  can0  1E5   [8]  1C FF C2 10 00 00 02 29
 (1652905575.645495)  can0  012   [8]  E8 03 10 00 00 00 00 00
 (1652905575.649896)  can0  014   [5]  03 20 00 0A 27
 (1652905575.655163)  can0  1E5   [8]  1C FF C2 30 00 00 02 49
 (1652905575.655496)  can0  012   [8]  E8 03 10 00 00 00 00 00
 (1652905575.659771)  can0  014   [5]  02 30 00 10 27
 (1652905575.665162)  can0  1E5   [8]  1C FF C2 50 00 00 02 69
 (1652905575.665445)  can0  012   [8]  E8 03 10 00 00 00 00 00
 (1652905575.669972)  can0  014   [5]  03 30 00 10 27
 (1652905575.675150)  can0  1E5   [8]  1C FF C2 70 00 00 02 89
 (1652905575.675285)  can0  010   [4]  3C 94 0E 01
 (1652905575.675572)  can0  012   [8]  E8 03 10 00 00 00 00 00
 (1652905575.679922)  can0  014   [5]  03 30 00 13 27
 (1652905575.685155)  can0  1E5   [8]  1C FF C0 1F FF 00 03 35
 (1652905575.685455)  can0  012   [8]  E8 03 10 00 00 00 00 00
 (1652905575.689919)  can0  014   [5]  03 20 00 0D 27
 (1652905575.695158)  can0  1E5   [8]  1C FF C0 3F FF 00 03 55
 (1652905575.695444)  can0  012   [8]  E8 03 10 00 00 00 00 00
 (1652905575.699922)  can0  014   [5]  03 30 00 10 27
 (1652905575.705151)  can0  1E5   [8]  1C FF C0 5F FF 00 03 75
 (1652905575.705450)  can0  012   [8]  E8 03 10 00 00 00 00 00
 (1652905575.709972)  can0  014   [5]  02 20 00 10 27
 (1652905575.715153)  can0  1E5   [8]  1C FF C0 7F FF 00 03 95
 (1652905575.715478)  can0  012   [8]  E8 03 10 00 00 00 00 00
 (1652905575.719973)  can0  014   [5]  03 30 00 14 27
 (1652905575.725041)  can0  1E5   [8]  1C FF BE 1F FE 00 03 32
 (1652905575.725490)  can0  012   [8]  E8 03 10 00 00 00 00 00
 (1652905575.729986)  can0  014   [5]  02 20 00 0C 27
 (1652905575.734981)  can0  1E5   [8]  1C FF BE 3F FE 00 03 52
 (1652905575.735434)  can0  012   [8]  E8 03 10 00 00 00 00 00
 (1652905575.736334)  can0  0F0   [1]  01
 (1652905575.737446)  can0  011   [2]  10 01
 (1652905575.739744)  can0  014   [5]  03 20 00 16 27
 (1652905575.745129)  can0  1E5   [8]  1C FF BD 5F FD 00 03 70
 (1652905575.745443)  can0  012   [8]  E8 03 10 00 00 00 00 00
 (1652905575.749747)  can0  014   [5]  03 30 00 0A 27
 (1652905575.755120)  can0  1E5   [8]  1C FF BD 7F FD 00 03 90
 (1652905575.755486)  can0  012   [8]  E8 03 10 00 00 00 00 00
 (1652905575.760146)  can0  014   [5]  03 30 00 10 27
 (1652905575.765134)  can0  1E5   [8]  1C FF BD 1F FD 00 03 30
 (1652905575.765484)  can0  012   [8]  E8 03 10 00 00 00 00 00
 (1652905575.769913)  can0  014   [5]  03 30 00 10 27
 (1652905575.775174)  can0  1E5   [8]  1C FF BB 3F FC 00 03 4D
 (1652905575.775300)  can0  010   [4]  3F 99 10 01
 (1652905575.775584)  can0  012   [8]  E8 03 10 00 00 00 00 00
 (1652905575.779912)  can0  014   [5]  03 30 00 13 27
 (1652905575.784978)  can0  1E5   [8]  1C FF BA 5F FC 00 03 6C
 (1652905575.785482)  can0  012   [8]  E8 03 10 00 00 00 00 00
 (1652905575.789735)  can0  014   [5]  04 40 00 0D 27
 (1652905575.795156)  can0  1E5   [8]  1C FF BA 7F FC 00 03 8C
 (1652905575.795495)  can0  012   [8]  E8 03 10 00 00 00 00 00
 (1652905575.799906)  can0  014   [5]  03 40 00 10 27
 (1652905575.805157)  can0  1E5   [8]  1C FF B8 1F FB 00 03 29
 (1652905575.805474)  can0  012   [8]  E8 03 10 00 00 00 00 00
 (1652905575.809922)  can0  014   [5]  04 40 00 10 27
 (1652905575.815192)  can0  1E5   [8]  1C FF B6 3F FA 00 03 46
 (1652905575.815480)  can0  012   [8]  E8 03 10 00 00 00 00 00
 (1652905575.819930)  can0  014   [5]  04 30 00 10 27
 (1652905575.825150)  can0  1E5   [8]  1C FF B5 5F FA 00 03 65
 (1652905575.825479)  can0  012   [8]  E8 03 10 00 00 00 00 00
 (1652905575.829918)  can0  014   [5]  04 40 00 10 27
 (1652905575.835167)  can0  1E5   [8]  1C FF B5 7F FA 00 03 85
 (1652905575.835494)  can0  012   [8]  E8 03 10 00 00 00 00 00
 (1652905575.838345)  can0  0F0   [1]  01
 (1652905575.839506)  can0  011   [2]  10 01
 (1652905575.839826)  can0  014   [5]  04 40 00 13 27
 (1652905575.845263)  can0  1E5   [8]  1C FF B3 1F FA 00 03 23
 (1652905575.845486)  can0  012   [8]  E8 03 10 00 00 00 00 00
 (1652905575.849901)  can0  014   [5]  03 40 00 10 27
 (1652905575.854973)  can0  1E5   [8]  1C FF B2 3F F9 00 03 41
 (1652905575.855486)  can0  012   [8]  E8 03 10 00 00 00 00 00
 (1652905575.859911)  can0  014   [5]  04 30 00 0D 27
 (1652905575.864976)  can0  1E5   [8]  1C FF B2 5F F9 00 03 61
 (1652905575.865574)  can0  012   [8]  E8 03 10 00 00 00 00 00
 (1652905575.869921)  can0  014   [5]  04 40 00 10 27
 (1652905575.875259)  can0  1E5   [8]  1C FF B0 7F F9 00 03 7F
 (1652905575.875315)  can0  010   [4]  3F 99 10 01
 (1652905575.875588)  can0  012   [8]  E8 03 10 00 00 00 00 00
 (1652905575.879929)  can0  014   [5]  04 40 00 13 27
 (1652905575.885282)  can0  1E5   [8]  1C FF B0 1F FA 00 03 20
 (1652905575.885488)  can0  012   [8]  E8 03 10 00 00 00 00 00
 (1652905575.889917)  can0  014   [5]  04 40 00 0D 27
 (1652905575.895138)  can0  1E5   [8]  1C FF AE 3F F9 00 03 3D
 (1652905575.895481)  can0  012   [8]  E8 03 10 00 00 00 00 00
 (1652905575.899908)  can0  014   [5]  05 40 00 10 27
 (1652905575.905154)  can0  1E5   [8]  1C FF AD 5F F9 00 03 5C
 (1652905575.905487)  can0  012   [8]  E8 03 10 00 00 00 00 00
 (1652905575.909939)  can0  014   [5]  04 50 00 10 27
 (1652905575.915163)  can0  1E5   [8]  1C FF AD 7F FA 00 03 7D
 (1652905575.915495)  can0  012   [8]  E8 03 10 00 00 00 00 00
 (1652905575.919912)  can0  014   [5]  04 40 00 10 27
 (1652905575.924965)  can0  1E5   [8]  1C FF AB 1F FA 00 03 1B
 (1652905575.925493)  can0  012   [8]  E8 03 10 00 00 00 00 00
 (1652905575.929919)  can0  014   [5]  05 50 00 10 27
 (1652905575.935148)  can0  1E5   [8]  1C FF AA 3F F9 00 03 39
 (1652905575.935499)  can0  012   [8]  E8 03 10 00 00 00 00 00
 (1652905575.939742)  can0  014   [5]  05 40 00 10 27
 (1652905575.940768)  can0  0F0   [1]  01
 (1652905575.942889)  can0  011   [2]  10 01
 (1652905575.944951)  can0  1E5   [8]  1C FF A8 5F F9 00 03 57
 (1652905575.945454)  can0  012   [8]  E8 03 10 00 00 00 00 00
 (1652905575.949906)  can0  014   [5]  05 60 00 16 27
 (1652905575.954966)  can0  1E5   [8]  1C FF A8 7F FA 00 03 78
 (1652905575.955445)  can0  012   [8]  E8 03 10 00 00 00 00 00
 (1652905575.959710)  can0  014   [5]  05 50 00 0C 27
 (1652905575.965117)  can0  1E5   [8]  1C FF A6 1F F9 00 03 15
 (1652905575.965433)  can0  012   [8]  E8 03 10 00 00 00 00 00
 (1652905575.969902)  can0  014   [5]  06 50 00 0E 27
 (1652905575.975147)  can0  1E5   [8]  1C FF A6 3F FA 00 03 36
 (1652905575.975327)  can0  010   [4]  3F 99 10 01
 (1652905575.975586)  can0  012   [8]  E8 03 10 00 00 00 00 00
 (1652905575.975682)  can0  0E2   [2]  62 02
 (1652905575.975829)  can0  0E3   [2]  62 02
 (1652905575.979956)  can0  014   [5]  05 50 00 19 27
 (1652905575.985151)  can0  1E5   [8]  1C FF A5 5F F9 00 03 54
 (1652905575.985492)  can0  012   [8]  E8 03 10 00 00 00 00 00
 (1652905575.989908)  can0  014   [5]  05 50 00 07 27
 (1652905575.995149)  can0  1E5   [8]  1C FF A5 7F FA 00 03 75
 (1652905575.995492)  can0  012   [8]  E8 03 10 00 00 00 00 00
 (1652905575.999766)  can0  014   [5]  05 50 00 10 27
 (1652905576.005140)  can0  1E5   [8]  1C FF A3 1F FA 00 03 13
 (1652905576.005499)  can0  012   [8]  E8 03 10 00 00 00 00 00
 (1652905576.009941)  can0  014   [5]  05 50 00 10 27
 (1652905576.015157)  can0  1E5   [8]  1C FF A2 3F F9 00 03 31
 (1652905576.015475)  can0  012   [8]  E8 03 10 00 00 00 00 00
 (1652905576.019914)  can0  014   [5]  06 60 00 10 27
 (1652905576.025145)  can0  1E5   [8]  1C FF A2 5F FA 00 03 52
 (1652905576.025474)  can0  012   [8]  E8 03 10 00 00 00 00 00
 (1652905576.029909)  can0  014   [5]  05 50 00 10 27
 (1652905576.035149)  can0  1E5   [8]  1C FF A2 7F FB 00 03 73
 (1652905576.035493)  can0  012   [8]  E8 03 10 00 00 00 00 00
 (1652905576.039919)  can0  014   [5]  06 60 00 10 27
 (1652905576.042913)  can0  0F0   [1]  01
 (1652905576.044128)  can0  011   [2]  02 01
 (1652905576.044928)  can0  1E5   [8]  1C FF A0 1F FB 00 03 11
 (1652905576.045434)  can0  012   [8]  E8 03 10 00 00 00 00 00
 (1652905576.049910)  can0  014   [5]  06 60 00 16 27
 (1652905576.055130)  can0  1E5   [8]  1C FF 9E 3F FA 00 03 2E
 (1652905576.055487)  can0  012   [8]  E8 03 10 00 00 00 00 00
 (1652905576.059790)  can0  014   [5]  06 50 00 0A 27
 (1652905576.064968)  can0  1E5   [8]  1C FF 9E 5F FB 00 03 4F
 (1652905576.065481)  can0  012   [8]  E8 03 10 00 00 00 00 00
 (1652905576.069925)  can0  014   [5]  07 70 00 10 27
 (1652905576.075145)  can0  1E5   [8]  1C FF 9D 7F FA 00 03 6D
 (1652905576.075322)  can0  010   [4]  29 78 02 01
 (1652905576.075588)  can0  012   [8]  E8 03 10 00 00 00 00 00
 (1652905576.079751)  can0  014   [5]  06 60 00 13 27
 (1652905576.085171)  can0  1E5   [8]  1C FF 9D 1F FB 00 03 0E
 (1652905576.085486)  can0  012   [8]  E8 03 10 00 00 00 00 00
 (1652905576.089920)  can0  014   [5]  07 70 00 0D 27
 (1652905576.095093)  can0  1E5   [8]  1C FF 9D 3F FB 00 03 2E
 (1652905576.095475)  can0  012   [8]  E8 03 10 00 00 00 00 00
 (1652905576.099920)  can0  014   [5]  07 60 00 10 27
 (1652905576.105142)  can0  1E5   [8]  1C FF 9D 5F FC 00 03 4F
 (1652905576.105495)  can0  012   [8]  E8 03 10 00 00 00 00 00
 (1652905576.109931)  can0  014   [5]  07 70 00 10 27
 (1652905576.115139)  can0  1E5   [8]  1C FF 9D 7F FD 00 03 70
 (1652905576.115499)  can0  012   [8]  E8 03 10 00 00 00 00 00
 (1652905576.119921)  can0  014   [5]  07 70 00 10 27
 (1652905576.125133)  can0  1E5   [8]  1C FF 9D 1F FD 00 03 10
 (1652905576.125497)  can0  012   [8]  E8 03 10 00 00 00 00 00
 (1652905576.129922)  can0  014   [5]  07 60 00 10 27
 (1652905576.135139)  can0  1E5   [8]  1C FF 9B 3F FC 00 03 2D
 (1652905576.135475)  can0  012   [8]  E8 03 10 00 00 00 00 00
 (1652905576.139928)  can0  014   [5]  06 60 00 10 27
 (1652905576.144971)  can0  1E5   [8]  1C FF 9B 5F FD 00 03 4E
 (1652905576.145101)  can0  0F0   [1]  01
 (1652905576.145502)  can0  012   [8]  E8 03 10 00 00 00 00 00
 (1652905576.146318)  can0  011   [2]  0C 01
 (1652905576.149893)  can0  014   [5]  06 60 00 16 27
 (1652905576.154967)  can0  1E5   [8]  1C FF 9B 7F FE 00 03 6F
 (1652905576.155445)  can0  012   [8]  E8 03 10 00 00 00 00 00
 (1652905576.159919)  can0  014   [5]  06 60 00 0A 27
 (1652905576.165118)  can0  1E5   [8]  1C FF 9D 10 00 00 02 04
 (1652905576.165469)  can0  012   [8]  E8 03 10 00 00 00 00 00
 (1652905576.169911)  can0  014   [5]  06 60 00 10 27
 (1652905576.175147)  can0  1E5   [8]  1C FF 9D 30 00 00 02 24
 (1652905576.175326)  can0  010   [4]  39 8F 0C 01
 (1652905576.175576)  can0  012   [8]  E8 03 10 00 00 00 00 00
 (1652905576.179925)  can0  014   [5]  06 60 00 13 27
 (1652905576.185136)  can0  1E5   [8]  1C FF 9D 50 00 00 02 44
 (1652905576.185486)  can0  012   [8]  E8 03 10 00 00 00 00 00
 (1652905576.189901)  can0  014   [5]  06 60 00 0D 27
 (1652905576.195131)  can0  1E5   [8]  1C FF 9B 70 00 00 02 62
 (1652905576.195493)  can0  012   [8]  E8 03 10 00 00 00 00 00
 (1652905576.199912)  can0  014   [5]  06 60 00 10 27
 (1652905576.204982)  can0  1E5   [8]  1C FF 9B 10 00 00 02 02
 (1652905576.205491)  can0  012   [8]  E8 03 10 00 00 00 00 00
 (1652905576.209937)  can0  014   [5]  07 70 00 10 27
 (1652905576.215135)  can0  1E5   [8]  1C FF 9B 30 00 00 02 22
 (1652905576.215500)  can0  012   [8]  E8 03 10 00 00 00 00 00
 (1652905576.219931)  can0  014   [5]  07 70 00 10 27
 (1652905576.225148)  can0  1E5   [8]  1C FF 9D 50 00 00 02 44
 (1652905576.225488)  can0  012   [8]  E8 03 10 00 00 00 00 00
 (1652905576.229937)  can0  014   [5]  07 70 00 10 27
 (1652905576.235145)  can0  1E5   [8]  1C FF 9D 70 00 00 02 64
 (1652905576.235488)  can0  012   [8]  E8 03 10 00 00 00 00 00
 (1652905576.239957)  can0  014   [5]  09 80 00 10 27
 (1652905576.245141)  can0  1E5   [8]  1C FF 9D 10 00 00 02 04
 (1652905576.245484)  can0  012   [8]  E8 03 10 00 00 00 00 00
 (1652905576.247299)  can0  0F0   [1]  01
 (1652905576.248523)  can0  011   [2]  0C 01
 (1652905576.249695)  can0  014   [5]  08 90 00 16 27
 (1652905576.255118)  can0  1E5   [8]  1C FF 9D 30 00 00 02 24
 (1652905576.255444)  can0  012   [8]  E8 03 10 00 00 00 00 00
 (1652905576.259707)  can0  014   [5]  0A 90 00 0A 27
 (1652905576.265120)  can0  1E5   [8]  1C FF 9D 50 00 00 02 44
 (1652905576.265432)  can0  012   [8]  E8 03 10 00 00 00 00 00
 (1652905576.269737)  can0  014   [5]  0A 90 00 11 27
 (1652905576.269822)  can0  0E4   [2]  62 02
 (1652905576.275229)  can0  1E5   [8]  1C FF 9D 70 00 00 02 64
 (1652905576.275287)  can0  010   [4]  39 8F 0C 01
 (1652905576.275582)  can0  012   [8]  E8 03 10 00 00 00 00 00
 (1652905576.279890)  can0  014   [5]  09 90 00 12 27
 (1652905576.285795)  can0  1E5   [8]  1C FF 9D 10 00 00 02 04
 (1652905576.285802)  can0  012   [8]  E8 03 10 00 00 00 00 00
 (1652905576.289799)  can0  014   [5]  0A 90 00 0D 27
 (1652905576.295137)  can0  1E5   [8]  1C FF 9D 30 00 00 02 24
 (1652905576.295496)  can0  012   [8]  E8 03 10 00 00 00 00 00
 (1652905576.299918)  can0  014   [5]  0A 90 00 10 27
 (1652905576.305135)  can0  1E5   [8]  1C FF 9D 50 00 00 02 44
 (1652905576.305485)  can0  012   [8]  E8 03 10 00 00 00 00 00
 (1652905576.309950)  can0  014   [5]  09 90 00 10 27
 (1652905576.315138)  can0  1E5   [8]  1C FF 9D 70 00 00 02 64
 (1652905576.315493)  can0  012   [8]  E8 03 10 00 00 00 00 00
 (1652905576.319935)  can0  014   [5]  09 90 00 10 27
 (1652905576.325143)  can0  1E5   [8]  1C FF 9D 10 00 00 02 04
 (1652905576.325490)  can0  012   [8]  E8 03 10 00 00 00 00 00
 (1652905576.329914)  can0  014   [5]  09 80 00 10 27
 (1652905576.335139)  can0  1E5   [8]  1C FF 9D 30 00 00 02 24
 (1652905576.335497)  can0  012   [8]  E8 03 10 00 00 00 00 00
 (1652905576.339923)  can0  014   [5]  09 80 00 10 27
 (1652905576.345161)  can0  1E5   [8]  1C FF 9D 50 00 00 02 44
 (1652905576.345484)  can0  012   [8]  E8 03 10 00 00 00 00 00
 (1652905576.349469)  can0  0F0   [1]  01
 (1652905576.349802)  can0  014   [5]  08 90 00 10 27
 (1652905576.350773)  can0  011   [2]  0E 01
 (1652905576.355246)  can0  1E5   [8]  1C FF 9D 70 00 00 02 64
 (1652905576.355442)  can0  012   [8]  E8 03 10 00 00 00 00 00
 (1652905576.359924)  can0  014   [5]  09 80 00 16 27
 (1652905576.365246)  can0  1E5   [8]  1C FF 9D 10 00 00 02 04
 (1652905576.365477)  can0  012   [8]  E8 03 10 00 00 00 00 00
 (1652905576.369895)  can0  014   [5]  08 90 00 0A 27
 (1652905576.375207)  can0  1E5   [8]  1C FF 9D 30 00 00 02 24
 (1652905576.375281)  can0  010   [4]  3C 94 0E 01
 (1652905576.375589)  can0  012   [8]  E8 03 10 00 00 00 00 00
 (1652905576.379908)  can0  014   [5]  09 80 00 13 27
 (1652905576.385241)  can0  1E5   [8]  1C FF 9E 50 01 00 02 46
 (1652905576.385474)  can0  012   [8]  E8 03 10 00 00 00 00 00
 (1652905576.389916)  can0  014   [5]  09 90 00 0D 27
 (1652905576.395160)  can0  1E5   [8]  1C FF 9E 70 01 00 02 66
 (1652905576.395485)  can0  012   [8]  E8 03 10 00 00 00 00 00
 (1652905576.399935)  can0  014   [5]  09 A0 00 10 27
 (1652905576.405124)  can0  1E5   [8]  1C FF 9E 10 01 00 02 06
 (1652905576.405492)  can0  012   [8]  E8 03 10 00 00 00 00 00
 (1652905576.409937)  can0  014   [5]  0A 90 00 13 27
 (1652905576.415138)  can0  1E5   [8]  1C FF 9E 30 01 00 02 26
 (1652905576.415497)  can0  012   [8]  E8 03 10 00 00 00 00 00
 (1652905576.419739)  can0  014   [5]  09 B0 00 0D 27
 (1652905576.424915)  can0  1E5   [8]  1C FF 9E 50 01 00 02 46
 (1652905576.425448)  can0  012   [8]  E8 03 10 00 00 00 00 00
 (1652905576.429748)  can0  014   [5]  0B A0 00 10 27
 (1652905576.435162)  can0  1E5   [8]  1C FF 9E 70 01 00 02 66
 (1652905576.435465)  can0  012   [8]  E8 03 10 00 00 00 00 00
 (1652905576.439727)  can0  014   [5]  0A A0 00 10 27
 (1652905576.444916)  can0  1E5   [8]  1C FF 9E 10 01 00 02 06
 (1652905576.445439)  can0  012   [8]  E8 03 10 00 00 00 00 00
 (1652905576.449693)  can0  014   [5]  0B A0 00 10 27
 (1652905576.451204)  can0  0F0   [1]  01
 (1652905576.452222)  can0  011   [2]  0F 01
 (1652905576.454900)  can0  1E5   [8]  1C FF 9E 30 01 00 02 26
 (1652905576.455441)  can0  012   [8]  E8 03 10 00 00 00 00 00
 (1652905576.459705)  can0  014   [5]  0B A0 00 16 27
 (1652905576.464896)  can0  1E5   [8]  1C FF 9E 50 01 00 02 46
 (1652905576.465438)  can0  012   [8]  E8 03 10 00 00 00 00 00
 (1652905576.469688)  can0  014   [5]  0A A0 00 0A 27
 (1652905576.474935)  can0  1E5   [8]  1C FF 9E 70 01 00 02 66
 (1652905576.475320)  can0  010   [4]  3D 96 0E 01
 (1652905576.475594)  can0  012   [8]  E8 03 10 00 00 00 00 00
 (1652905576.479900)  can0  014   [5]  0B B0 00 17 27
 (1652905576.485489)  can0  1E5   [8]  1C FF 9E 10 00 00 02 05
 (1652905576.485496)  can0  012   [8]  E8 03 10 00 00 00 00 00
 (1652905576.489746)  can0  014   [5]  0B A0 00 09 27
 (1652905576.494961)  can0  1E5   [8]  1C FF 9E 30 00 00 02 25
 (1652905576.495444)  can0  012   [8]  E8 03 10 00 00 00 00 00
 (1652905576.499749)  can0  014   [5]  0A A0 00 10 27
 (1652905576.504969)  can0  1E5   [8]  1C FF 9E 50 00 00 02 45
 (1652905576.505471)  can0  012   [8]  E8 03 10 00 00 00 00 00
 (1652905576.509913)  can0  014   [5]  0B B0 00 10 27
 (1652905576.515108)  can0  1E5   [8]  1C FF A0 70 01 00 02 68
 (1652905576.515438)  can0  012   [8]  E8 03 10 00 00 00 00 00
 (1652905576.519914)  can0  014   [5]  0B A0 00 10 27
 (1652905576.524952)  can0  1E5   [8]  1C FF A0 10 01 00 02 08
 (1652905576.525438)  can0  012   [8]  E8 03 10 00 00 00 00 00
 (1652905576.529900)  can0  014   [5]  0A B0 00 10 27
 (1652905576.535282)  can0  1E5   [8]  1C FF A0 30 01 00 02 28
 (1652905576.535439)  can0  012   [8]  E8 03 10 00 00 00 00 00
 (1652905576.539746)  can0  014   [5]  0B B0 00 10 27
 (1652905576.545106)  can0  1E5   [8]  1C FF A0 50 01 00 02 48
 (1652905576.545491)  can0  012   [8]  E8 03 10 00 00 00 00 00
 (1652905576.549911)  can0  014   [5]  0C B0 00 10 27
 (1652905576.554108)  can0  0F0   [1]  01
 (1652905576.554958)  can0  1E5   [8]  1C FF A0 70 01 00 02 68
 (1652905576.555238)  can0  011   [2]  01 01
 (1652905576.555433)  can0  012   [8]  E8 03 10 00 00 00 00 00
 (1652905576.559763)  can0  014   [5]  0C C0 00 16 27
 (1652905576.565174)  can0  1E5   [8]  1C FF A0 10 01 00 02 08
 (1652905576.565476)  can0  012   [8]  E8 03 10 00 00 00 00 00
 (1652905576.569756)  can0  014   [5]  0C C0 00 0A 27
 (1652905576.574951)  can0  1E5   [8]  1C FF A0 30 01 00 02 28
 (1652905576.575296)  can0  010   [4]  28 76 01 01
 (1652905576.575547)  can0  012   [8]  E8 03 10 00 00 00 00 00
 (1652905576.579739)  can0  014   [5]  0C C0 00 13 27
 (1652905576.585371)  can0  1E5   [8]  1C FF A0 50 01 00 02 48
 (1652905576.585437)  can0  012   [8]  E8 03 10 00 00 00 00 00
 (1652905576.589732)  can0  014   [5]  0C C0 00 0D 27
 (1652905576.595104)  can0  1E5   [8]  1C FF A0 70 01 00 02 68
 (1652905576.595483)  can0  012   [8]  E8 03 10 00 00 00 00 00
 (1652905576.599979)  can0  014   [5]  0C B0 00 10 27
 (1652905576.604952)  can0  1E5   [8]  1C FF A2 10 02 00 02 0B
 (1652905576.605488)  can0  012   [8]  E8 03 10 00 00 00 00 00
 (1652905576.609926)  can0  014   [5]  0D D0 00 12 27
 (1652905576.615114)  can0  1E5   [8]  1C FF A0 30 00 00 02 27
 (1652905576.615472)  can0  012   [8]  E8 03 10 00 00 00 00 00
 (1652905576.619903)  can0  014   [5]  0C C0 00 0E 27
 (1652905576.624951)  can0  1E5   [8]  1C FF A2 50 00 00 02 49
 (1652905576.625432)  can0  012   [8]  E8 03 10 00 00 00 00 00
 (1652905576.630015)  can0  014   [5]  0C B0 00 10 27
 (1652905576.635120)  can0  1E5   [8]  1C FF A0 70 00 00 02 67
 (1652905576.635437)  can0  012   [8]  E8 03 10 00 00 00 00 00
 (1652905576.639708)  can0  014   [5]  0C C0 00 10 27
 (1652905576.644922)  can0  1E5   [8]  1C FF A0 10 00 00 02 07
 (1652905576.645443)  can0  012   [8]  E8 03 10 00 00 00 00 00
 (1652905576.649701)  can0  014   [5]  0B B0 00 10 27
 (1652905576.654928)  can0  1E5   [8]  1C FF A0 30 00 00 02 27
 (1652905576.655537)  can0  012   [8]  E8 03 10 00 00 00 00 00
 (1652905576.656169)  can0  0F0   [1]  01
 (1652905576.657053)  can0  011   [2]  0A 01
 (1652905576.659711)  can0  014   [5]  0B B0 00 16 27
 (1652905576.664949)  can0  1E5   [8]  1C FF A0 50 00 00 02 47
 (1652905576.665445)  can0  012   [8]  E8 03 10 00 00 00 00 00
 (1652905576.669902)  can0  014   [5]  0A B0 00 0A 27
 (1652905576.674914)  can0  1E5   [8]  1C FF A0 70 00 00 02 67
 (1652905576.675291)  can0  010   [4]  36 8B 09 01
 (1652905576.675560)  can0  012   [8]  E8 03 10 00 00 00 00 00
 (1652905576.679756)  can0  014   [5]  0C B0 00 13 27
 (1652905576.685123)  can0  1E5   [8]  1C FF A0 10 00 00 02 07
 (1652905576.685444)  can0  012   [8]  E8 03 10 00 00 00 00 00
 (1652905576.689730)  can0  014   [5]  0B C0 00 0D 27
 (1652905576.694971)  can0  1E5   [8]  1C FF A0 30 00 00 02 27
 (1652905576.695443)  can0  012   [8]  E8 03 10 00 00 00 00 00
 (1652905576.699748)  can0  014   [5]  0C B0 00 10 27
 (1652905576.704976)  can0  1E5   [8]  1C FF A0 50 00 00 02 47
 (1652905576.705444)  can0  012   [8]  E8 03 10 00 00 00 00 00
 (1652905576.709744)  can0  014   [5]  0C C0 00 10 27
 (1652905576.715091)  can0  1E5   [8]  1C FF A0 70 00 00 02 67
 (1652905576.715431)  can0  012   [8]  E8 03 10 00 00 00 00 00
 (1652905576.719912)  can0  014   [5]  0C C0 00 10 27
 (1652905576.725107)  can0  1E5   [8]  1C FF A0 10 00 00 02 07
 (1652905576.725450)  can0  012   [8]  E8 03 10 00 00 00 00 00
 (1652905576.729977)  can0  014   [5]  0E D0 00 10 27
 (1652905576.735112)  can0  1E5   [8]  1C FF A2 30 00 00 02 29
 (1652905576.735473)  can0  012   [8]  E8 03 10 00 00 00 00 00
 (1652905576.739692)  can0  014   [5]  0E E0 00 10 27
 (1652905576.744945)  can0  1E5   [8]  1C FF A0 50 00 00 02 47
 (1652905576.745438)  can0  012   [8]  E8 03 10 00 00 00 00 00
 (1652905576.750010)  can0  014   [5]  0E E0 00 10 27
 (1652905576.754947)  can0  1E5   [8]  1C FF A0 70 00 00 02 67
 (1652905576.755444)  can0  012   [8]  E8 03 10 00 00 00 00 00
 (1652905576.758136)  can0  0F0   [1]  01
 (1652905576.758637)  can0  011   [2]  0B 01
 (1652905576.759756)  can0  014   [5]  0E F0 00 16 27
 (1652905576.765103)  can0  1E5   [8]  1C FF A0 10 00 00 02 07
 (1652905576.765438)  can0  012   [8]  E8 03 10 00 00 00 00 00
 (1652905576.769756)  can0  014   [5]  0F F0 00 0A 27
 (1652905576.774955)  can0  1E5   [8]  1C FF A2 30 00 00 02 29
 (1652905576.775286)  can0  010   [4]  37 8D 0B 01
 (1652905576.775543)  can0  012   [8]  E8 03 10 00 00 00 00 00
 (1652905576.780072)  can0  014   [5]  0E F0 00 13 27
 (1652905576.785109)  can0  1E5   [8]  1C FF A0 50 00 00 02 47
 (1652905576.785444)  can0  012   [8]  E8 03 10 00 00 00 00 00
 (1652905576.789743)  can0  014   [5]  0F E0 00 0D 27
 (1652905576.795095)  can0  1E5   [8]  1C FF A2 70 00 00 02 69
 (1652905576.795431)  can0  012   [8]  E8 03 10 00 00 00 00 00
 (1652905576.799746)  can0  014   [5]  0F F0 00 10 27
 (1652905576.804954)  can0  1E5   [8]  1C FF A2 10 00 00 02 09
 (1652905576.805441)  can0  012   [8]  E8 03 10 00 00 00 00 00
 (1652905576.809752)  can0  014   [5]  0E D0 00 10 27
 (1652905576.815112)  can0  1E5   [8]  1C FF A2 30 00 00 02 29
 (1652905576.815479)  can0  012   [8]  E8 03 10 00 00 00 00 00
 (1652905576.819912)  can0  014   [5]  0E E0 00 10 27
 (1652905576.824943)  can0  1E5   [8]  1C FF A0 50 00 00 02 47
 (1652905576.825438)  can0  012   [8]  E8 03 10 00 00 00 00 00
 (1652905576.829897)  can0  014   [5]  0E D0 00 10 27
 (1652905576.835099)  can0  1E5   [8]  1C FF A2 70 00 00 02 69
 (1652905576.835446)  can0  012   [8]  E8 03 10 00 00 00 00 00
 (1652905576.839749)  can0  014   [5]  0C D0 00 10 27
 (1652905576.845197)  can0  1E5   [8]  1C FF A0 10 00 00 02 07
 (1652905576.845435)  can0  012   [8]  E8 03 10 00 00 00 00 00
 (1652905576.849888)  can0  014   [5]  0D D0 00 10 27
 (1652905576.855137)  can0  1E5   [8]  1C FF A0 30 00 00 02 27
 (1652905576.855440)  can0  012   [8]  E8 03 10 00 00 00 00 00
 (1652905576.859791)  can0  014   [5]  0D D0 00 10 27
 (1652905576.860023)  can0  0F0   [1]  01
 (1652905576.861172)  can0  011   [2]  0D 01
 (1652905576.865211)  can0  1E5   [8]  1C FF A2 50 00 00 02 49
 (1652905576.865438)  can0  012   [8]  E8 03 10 00 00 00 00 00
 (1652905576.869950)  can0  014   [5]  0D E0 00 16 27
 (1652905576.874917)  can0  1E5   [8]  1C FF A0 70 00 00 02 67
 (1652905576.875292)  can0  010   [4]  3A 92 0D 01
 (1652905576.875557)  can0  012   [8]  E8 03 10 00 00 00 00 00
 (1652905576.879737)  can0  014   [5]  0E E0 00 0D 27
 (1652905576.885246)  can0  1E5   [8]  1C FF A0 10 00 00 02 07
 (1652905576.885499)  can0  012   [8]  E8 03 10 00 00 00 00 00
 (1652905576.889753)  can0  014   [5]  0E F0 00 11 27
 (1652905576.895289)  can0  1E5   [8]  1C FF A0 30 00 00 02 27
 (1652905576.895431)  can0  012   [8]  E8 03 10 00 00 00 00 00
 (1652905576.899881)  can0  014   [5]  10 E0 00 0C 27
 (1652905576.905225)  can0  1E5   [8]  1C FF A2 50 00 00 02 49
 (1652905576.905443)  can0  012   [8]  E8 03 10 00 00 00 00 00
 (1652905576.909912)  can0  014   [5]  0F 00 01 10 27
 (1652905576.915142)  can0  1E5   [8]  1C FF A2 70 00 00 02 69
 (1652905576.915445)  can0  012   [8]  E8 03 10 00 00 00 00 00
 (1652905576.919914)  can0  014   [5]  0F 00 01 10 27
 (1652905576.924903)  can0  1E5   [8]  1C FF A2 10 00 00 02 09
 (1652905576.925437)  can0  012   [8]  E8 03 10 00 00 00 00 00
 (1652905576.929952)  can0  014   [5]  0D 00 01 10 27
 (1652905576.935094)  can0  1E5   [8]  1C FF A2 30 00 00 02 29
 (1652905576.935463)  can0  012   [8]  E8 03 10 00 00 00 00 00
 (1652905576.939753)  can0  014   [5]  0F 00 01 10 27
 (1652905576.944919)  can0  1E5   [8]  1C FF A0 50 00 00 02 47
 (1652905576.945432)  can0  012   [8]  E8 03 10 00 00 00 00 00
 (1652905576.949897)  can0  014   [5]  10 F0 00 10 27
 (1652905576.955131)  can0  1E5   [8]  1C FF A2 70 00 00 02 69
 (1652905576.955438)  can0  012   [8]  E8 03 10 00 00 00 00 00
 (1652905576.959711)  can0  014   [5]  0F F0 00 10 27
 (1652905576.961879)  can0  0F0   [1]  01
 (1652905576.962410)  can0  011   [2]  00 01
 (1652905576.964915)  can0  1E5   [8]  1C FF A2 10 00 00 02 09
 (1652905576.965450)  can0  012   [8]  E8 03 10 00 00 00 00 00
 (1652905576.969750)  can0  014   [5]  10 F0 00 16 27
 (1652905576.974947)  can0  1E5   [8]  1C FF A2 30 00 00 02 29
 (1652905576.975287)  can0  010   [4]  26 73 00 01
 (1652905576.975599)  can0  012   [8]  E8 03 10 00 00 00 00 00
 (1652905576.975669)  can0  0E2   [2]  8A 02
 (1652905576.975827)  can0  0E3   [2]  8A 02
 (1652905576.979908)  can0  014   [5]  0F F0 00 13 27
 (1652905576.985101)  can0  1E5   [8]  1C FF A2 50 00 00 02 49
 (1652905576.985444)  can0  012   [8]  E8 03 10 00 00 00 00 00
 (1652905576.989752)  can0  014   [5]  0F E0 00 07 27
 (1652905576.995097)  can0  1E5   [8]  1C FF A2 70 00 00 02 69
 (1652905576.995432)  can0  012   [8]  E8 03 10 00 00 00 00 00
 (1652905576.999726)  can0  014   [5]  10 E0 00 11 27
 (1652905577.004937)  can0  1E5   [8]  1C FF A0 10 00 00 02 07
 (1652905577.005438)  can0  012   [8]  E8 03 10 00 00 00 00 00
 (1652905577.009906)  can0  014   [5]  0F E0 00 0F 27
 (1652905577.015095)  can0  1E5   [8]  1C FF A2 30 00 00 02 29
 (1652905577.015479)  can0  012   [8]  E8 03 10 00 00 00 00 00
 (1652905577.019901)  can0  014   [5]  0F E0 00 10 27
 (1652905577.024952)  can0  1E5   [8]  1C FF A2 50 00 00 02 49
 (1652905577.025438)  can0  012   [8]  E8 03 10 00 00 00 00 00
 (1652905577.029903)  can0  014   [5]  0F F0 00 10 27
 (1652905577.034937)  can0  1E5   [8]  1C FF A2 70 00 00 02 69
 (1652905577.035480)  can0  012   [8]  E8 03 10 00 00 00 00 00
 (1652905577.039746)  can0  014   [5]  0E F0 00 10 27
 (1652905577.045093)  can0  1E5   [8]  1C FF A3 10 01 00 02 0B
 (1652905577.045433)  can0  012   [8]  E8 03 10 00 00 00 00 00
 (1652905577.049754)  can0  014   [5]  0E E0 00 10 27
 (1652905577.054941)  can0  1E5   [8]  1C FF A3 30 01 00 02 2B
 (1652905577.055433)  can0  012   [8]  E8 03 10 00 00 00 00 00
 (1652905577.059918)  can0  014   [5]  0F F0 00 10 27
 (1652905577.064038)  can0  0F0   [1]  01
 (1652905577.064776)  can0  011   [2]  00 01
 (1652905577.064873)  can0  1E5   [8]  1C FF A3 50 01 00 02 4B
 (1652905577.065446)  can0  012   [8]  E8 03 10 00 00 00 00 00
 (1652905577.069895)  can0  014   [5]  0E E0 00 16 27
 (1652905577.074934)  can0  1E5   [8]  1C FF A3 70 01 00 02 6B
 (1652905577.075306)  can0  010   [4]  26 73 00 01
 (1652905577.075539)  can0  012   [8]  E8 03 10 00 00 00 00 00
 (1652905577.079916)  can0  014   [5]  0F F0 00 10 27
 (1652905577.085109)  can0  1E5   [8]  1C FF A5 10 02 00 02 0E
 (1652905577.085488)  can0  012   [8]  E8 03 10 00 00 00 00 00
 (1652905577.089747)  can0  014   [5]  0E F0 00 0A 27
 (1652905577.095073)  can0  1E5   [8]  1C FF A5 30 02 00 02 2E
 (1652905577.095468)  can0  012   [8]  E8 03 10 00 00 00 00 00
 (1652905577.099913)  can0  014   [5]  0F F0 00 10 27
 (1652905577.104946)  can0  1E5   [8]  1C FF A5 50 02 00 02 4E
 (1652905577.105444)  can0  012   [8]  E8 03 10 00 00 00 00 00
 (1652905577.109914)  can0  014   [5]  0F 00 01 10 27
 (1652905577.115085)  can0  1E5   [8]  1C FF A5 70 02 00 02 6E
 (1652905577.115431)  can0  012   [8]  E8 03 10 00 00 00 00 00
 (1652905577.119980)  can0  014   [5]  0F F0 00 10 27
 (1652905577.124919)  can0  1E5   [8]  1C FF A5 10 02 00 02 0E
 (1652905577.125432)  can0  012   [8]  E8 03 10 00 00 00 00 00
 (1652905577.129922)  can0  014   [5]  10 00 01 10 27
 (1652905577.135433)  can0  1E5   [8]  1C FF A5 30 02 00 02 2E
 (1652905577.135441)  can0  012   [8]  E8 03 10 00 00 00 00 00
 (1652905577.139745)  can0  014   [5]  0F 00 01 10 27
 (1652905577.144906)  can0  1E5   [8]  1C FF A5 50 01 00 02 4D
 (1652905577.145442)  can0  012   [8]  E8 03 10 00 00 00 00 00
 (1652905577.149900)  can0  014   [5]  10 00 01 10 27
 (1652905577.154947)  can0  1E5   [8]  1C FF A5 70 01 00 02 6D
 (1652905577.155431)  can0  012   [8]  E8 03 10 00 00 00 00 00
 (1652905577.160178)  can0  014   [5]  10 00 01 10 27
 (1652905577.164961)  can0  1E5   [8]  1C FF A5 10 01 00 02 0D
 (1652905577.165432)  can0  012   [8]  E8 03 10 00 00 00 00 00
 (1652905577.165889)  can0  0F0   [1]  01
