 (1652821636.823004)  can0  1E5   [8]  1C 00 72 30 00 00 00 FA
 (1652821636.828540)  can0  012   [8]  E8 03 10 00 00 00 00 00
 (1652821636.828756)  can0  014   [5]  00 00 00 13 27
 (1652821636.832975)  can0  1E5   [8]  1C 00 72 50 00 00 01 1A
 (1652821636.838539)  can0  012   [8]  E8 03 10 00 00 00 00 00
 (1652821636.838762)  can0  014   [5]  00 00 00 0D 27
 (1652821636.843041)  can0  1E5   [8]  1C 00 72 70 00 00 01 3A
 (1652821636.848512)  can0  012   [8]  E8 03 10 00 00 00 00 00
 (1652821636.848736)  can0  014   [5]  00 00 00 10 27
 (1652821636.852993)  can0  1E5   [8]  1C 00 72 10 00 00 00 DA
 (1652821636.858539)  can0  012   [8]  E8 03 10 00 00 00 00 00
 (1652821636.858760)  can0  014   [5]  00 00 00 10 27
 (1652821636.863039)  can0  1E5   [8]  1C 00 72 30 00 00 00 FA
 (1652821636.865165)  can0  010   [4]  26 73 00 01
 (1652821636.868540)  can0  012   [8]  E8 03 10 00 00 00 00 00
 (1652821636.868764)  can0  014   [5]  00 00 00 13 27
 (1652821636.873041)  can0  1E5   [8]  1C 00 72 50 00 00 01 1A
 (1652821636.878539)  can0  012   [8]  E8 03 10 00 00 00 00 00
 (1652821636.878761)  can0  014   [5]  00 00 00 0D 27
 (1652821636.883021)  can0  1E5   [8]  1C 00 72 70 00 00 01 3A
 (1652821636.888539)  can0  012   [8]  E8 03 10 00 00 00 00 00
 (1652821636.888761)  can0  014   [5]  00 00 00 10 27
 (1652821636.893042)  can0  1E5   [8]  1C 00 72 10 00 00 00 DA
 (1652821636.898482)  can0  012   [8]  E8 03 10 00 00 00 00 00
 (1652821636.898723)  can0  014   [5]  00 00 00 10 27
 (1652821636.903044)  can0  1E5   [8]  1C 00 72 30 00 00 00 FA
 (1652821636.908542)  can0  012   [8]  E8 03 10 00 00 00 00 00
 (1652821636.908762)  can0  014   [5]  00 00 00 10 27
 (1652821636.913041)  can0  1E5   [8]  1C 00 72 50 00 00 01 1A
 (1652821636.918542)  can0  012   [8]  E8 03 10 00 00 00 00 00
 (1652821636.918766)  can0  014   [5]  00 00 00 10 27
 (1652821636.923041)  can0  1E5   [8]  1C 00 72 70 00 00 01 3A
 (1652821636.928541)  can0  012   [8]  E8 03 10 00 00 00 00 00
 (1652821636.928765)  can0  014   [5]  00 00 00 10 27
 (1652821636.933042)  can0  1E5   [8]  1C 00 72 10 00 00 00 DA
 (1652821636.938518)  can0  012   [8]  E8 03 10 00 00 00 00 00
 (1652821636.938765)  can0  014   [5]  00 00 00 10 27
 (1652821636.943042)  can0  1E5   [8]  1C 00 72 30 00 00 00 FA
 (1652821636.948541)  can0  012   [8]  E8 03 10 00 00 00 00 00
 (1652821636.948762)  can0  014   [5]  00 00 00 10 27
 (1652821636.952995)  can0  1E5   [8]  1C 00 72 50 00 00 01 1A
 (1652821636.958490)  can0  012   [8]  E8 03 10 00 00 00 00 00
 (1652821636.958739)  can0  014   [5]  00 00 00 10 27
 (1652821636.963041)  can0  1E5   [8]  1C 00 72 70 00 00 01 3A
 (1652821636.965167)  can0  010   [4]  26 73 00 01
 (1652821636.965387)  can0  0E2   [2]  90 02
 (1652821636.968540)  can0  012   [8]  E8 03 10 00 00 00 00 00
 (1652821636.968762)  can0  014   [5]  00 00 00 16 27
 (1652821636.973042)  can0  1E5   [8]  1C 00 72 10 00 00 00 DA
 (1652821636.978542)  can0  012   [8]  E8 03 10 00 00 00 00 00
 (1652821636.978762)  can0  014   [5]  00 00 00 0A 27
 (1652821636.983042)  can0  1E5   [8]  1C 00 72 30 00 00 00 FA
 (1652821636.988541)  can0  012   [8]  E8 03 10 00 00 00 00 00
 (1652821636.988765)  can0  014   [5]  00 00 00 10 27
 (1652821636.993042)  can0  1E5   [8]  1C 00 72 50 00 00 01 1A
 (1652821636.998520)  can0  012   [8]  E8 03 10 00 00 00 00 00
 (1652821636.998736)  can0  014   [5]  00 00 00 10 27
 (1652821637.003040)  can0  1E5   [8]  1C 00 72 70 00 00 01 3A
 (1652821637.008541)  can0  012   [8]  E8 03 10 00 00 00 00 00
 (1652821637.008763)  can0  014   [5]  00 00 00 10 27
 (1652821637.013042)  can0  1E5   [8]  1C 00 72 10 00 00 00 DA
 (1652821637.018544)  can0  012   [8]  E8 03 10 00 00 00 00 00
 (1652821637.018763)  can0  014   [5]  00 00 00 10 27
 (1652821637.023044)  can0  1E5   [8]  1C 00 72 30 00 00 00 FA
 (1652821637.028543)  can0  012   [8]  E8 03 10 00 00 00 00 00
 (1652821637.028768)  can0  014   [5]  00 00 00 10 27
 (1652821637.032996)  can0  1E5   [8]  1C 00 72 50 00 00 01 1A
 (1652821637.038489)  can0  012   [8]  E8 03 10 00 00 00 00 00
 (1652821637.038744)  can0  014   [5]  00 00 00 10 27
 (1652821637.043042)  can0  1E5   [8]  1C 00 72 70 00 00 01 3A
 (1652821637.048545)  can0  012   [8]  E8 03 10 00 00 00 00 00
 (1652821637.048764)  can0  014   [5]  00 00 00 10 27
 (1652821637.053044)  can0  1E5   [8]  1C 00 72 10 00 00 00 DA
 (1652821637.058543)  can0  012   [8]  E8 03 10 00 00 00 00 00
 (1652821637.058768)  can0  014   [5]  00 00 00 10 27
 (1652821637.062988)  can0  1E5   [8]  1C 00 72 30 00 00 00 FA
 (1652821637.065170)  can0  010   [4]  26 73 00 01
 (1652821637.068545)  can0  012   [8]  E8 03 10 00 00 00 00 00
 (1652821637.068764)  can0  014   [5]  00 00 00 13 27
 (1652821637.073044)  can0  1E5   [8]  1C 00 72 50 00 00 01 1A
 (1652821637.078544)  can0  012   [8]  E8 03 10 00 00 00 00 00
 (1652821637.078767)  can0  014   [5]  00 00 00 0D 27
 (1652821637.083044)  can0  1E5   [8]  1C 00 72 70 00 00 01 3A
 (1652821637.088541)  can0  012   [8]  E8 03 10 00 00 00 00 00
 (1652821637.088770)  can0  014   [5]  00 00 00 10 27
 (1652821637.093042)  can0  1E5   [8]  1C 00 72 10 00 00 00 DA
 (1652821637.098546)  can0  012   [8]  E8 03 10 00 00 00 00 00
 (1652821637.098769)  can0  014   [5]  00 00 00 10 27
 (1652821637.103045)  can0  1E5   [8]  1C 00 72 30 00 00 00 FA
 (1652821637.108547)  can0  012   [8]  E8 03 10 00 00 00 00 00
 (1652821637.108765)  can0  014   [5]  00 00 00 10 27
 (1652821637.113043)  can0  1E5   [8]  1C 00 72 50 00 00 01 1A
 (1652821637.118546)  can0  012   [8]  E8 03 10 00 00 00 00 00
 (1652821637.118766)  can0  014   [5]  00 00 00 10 27
 (1652821637.123045)  can0  1E5   [8]  1C 00 72 70 00 00 01 3A
 (1652821637.128487)  can0  012   [8]  E8 03 10 00 00 00 00 00
 (1652821637.128765)  can0  014   [5]  00 00 00 10 27
 (1652821637.133045)  can0  1E5   [8]  1C 00 72 10 00 00 00 DA
 (1652821637.138546)  can0  012   [8]  E8 03 10 00 00 00 00 00
 (1652821637.138766)  can0  014   [5]  00 00 00 10 27
 (1652821637.143046)  can0  1E5   [8]  1C 00 72 30 00 00 00 FA
 (1652821637.148545)  can0  012   [8]  E8 03 10 00 00 00 00 00
 (1652821637.148767)  can0  014   [5]  00 00 00 10 27
 (1652821637.153046)  can0  1E5   [8]  1C 00 72 50 00 00 01 1A
 (1652821637.158546)  can0  012   [8]  E8 03 10 00 00 00 00 00
 (1652821637.158768)  can0  014   [5]  00 00 00 10 27
 (1652821637.163046)  can0  1E5   [8]  1C 00 72 70 00 00 01 3A
 (1652821637.165172)  can0  010   [4]  26 73 00 01
 (1652821637.168546)  can0  012   [8]  E8 03 10 00 00 00 00 00
 (1652821637.168766)  can0  014   [5]  00 00 00 13 27
 (1652821637.173046)  can0  1E5   [8]  1C 00 72 10 00 00 00 DA
 (1652821637.178546)  can0  012   [8]  E8 03 10 00 00 00 00 00
 (1652821637.178767)  can0  014   [5]  00 00 00 0D 27
 (1652821637.183046)  can0  1E5   [8]  1C 00 72 30 00 00 00 FA
 (1652821637.188544)  can0  012   [8]  E8 03 10 00 00 00 00 00
 (1652821637.188770)  can0  014   [5]  00 00 00 10 27
 (1652821637.193045)  can0  1E5   [8]  1C 00 72 50 00 00 01 1A
 (1652821637.198547)  can0  012   [8]  E8 03 10 00 00 00 00 00
 (1652821637.198767)  can0  014   [5]  00 00 00 10 27
 (1652821637.203020)  can0  1E5   [8]  1C 00 72 70 00 00 01 3A
 (1652821637.208545)  can0  012   [8]  E8 03 10 00 00 00 00 00
 (1652821637.208774)  can0  014   [5]  00 00 00 10 27
 (1652821637.213047)  can0  1E5   [8]  1C 00 72 10 00 00 00 DA
 (1652821637.218547)  can0  012   [8]  E8 03 10 00 00 00 00 00
 (1652821637.218770)  can0  014   [5]  00 00 00 10 27
 (1652821637.223047)  can0  1E5   [8]  1C 00 72 30 00 00 00 FA
 (1652821637.228548)  can0  012   [8]  E8 03 10 00 00 00 00 00
 (1652821637.228770)  can0  014   [5]  00 00 00 10 27
 (1652821637.233048)  can0  1E5   [8]  1C 00 72 50 00 00 01 1A
 (1652821637.238548)  can0  012   [8]  E8 03 10 00 00 00 00 00
 (1652821637.238770)  can0  014   [5]  00 00 00 10 27
 (1652821637.243048)  can0  1E5   [8]  1C 00 72 70 00 00 01 3A
 (1652821637.248546)  can0  012   [8]  E8 03 10 00 00 00 00 00
 (1652821637.248746)  can0  014   [5]  00 00 00 10 27
 (1652821637.253047)  can0  1E5   [8]  1C 00 72 10 00 00 00 DA
 (1652821637.258546)  can0  012   [8]  E8 03 10 00 00 00 00 00
 (1652821637.258769)  can0  014   [5]  00 00 00 10 27
 (1652821637.263049)  can0  1E5   [8]  1C 00 72 30 00 00 00 FA
 (1652821637.265173)  can0  010   [4]  26 73 00 01
 (1652821637.268549)  can0  012   [8]  E8 03 10 00 00 00 00 00
 (1652821637.268768)  can0  014   [5]  00 00 00 13 27
 (1652821637.273047)  can0  1E5   [8]  1C 00 72 50 00 00 01 1A
 (1652821637.278548)  can0  012   [8]  E8 03 10 00 00 00 00 00
 (1652821637.278772)  can0  014   [5]  00 00 00 0D 27
 (1652821637.283048)  can0  1E5   [8]  1C 00 72 70 00 00 01 3A
 (1652821637.288547)  can0  012   [8]  E8 03 10 00 00 00 00 00
 (1652821637.288774)  can0  014   [5]  00 00 00 10 27
 (1652821637.293047)  can0  1E5   [8]  1C 00 72 10 00 00 00 DA
 (1652821637.298549)  can0  012   [8]  E8 03 10 00 00 00 00 00
 (1652821637.298769)  can0  014   [5]  00 00 00 10 27
 (1652821637.303048)  can0  1E5   [8]  1C 00 72 30 00 00 00 FA
 (1652821637.308549)  can0  012   [8]  E8 03 10 00 00 00 00 00
 (1652821637.308769)  can0  014   [5]  00 00 00 10 27
 (1652821637.313050)  can0  1E5   [8]  1C 00 72 50 00 00 01 1A
 (1652821637.318548)  can0  012   [8]  E8 03 10 00 00 00 00 00
 (1652821637.318772)  can0  014   [5]  00 00 00 10 27
 (1652821637.323050)  can0  1E5   [8]  1C 00 72 70 00 00 01 3A
 (1652821637.328550)  can0  012   [8]  E8 03 10 00 00 00 00 00
 (1652821637.328772)  can0  014   [5]  00 00 00 10 27
 (1652821637.333052)  can0  1E5   [8]  1C 00 72 10 00 00 00 DA
 (1652821637.338549)  can0  012   [8]  E8 03 10 00 00 00 00 00
 (1652821637.338776)  can0  014   [5]  00 00 00 10 27
 (1652821637.343049)  can0  1E5   [8]  1C 00 72 30 00 00 00 FA
 (1652821637.348549)  can0  012   [8]  E8 03 10 00 00 00 00 00
 (1652821637.348772)  can0  014   [5]  00 00 00 10 27
 (1652821637.353048)  can0  1E5   [8]  1C 00 72 50 00 00 01 1A
 (1652821637.358563)  can0  012   [8]  E8 03 10 00 00 00 00 00
 (1652821637.358770)  can0  014   [5]  00 00 00 10 27
 (1652821637.363050)  can0  1E5   [8]  1C 00 72 70 00 00 01 3A
 (1652821637.365175)  can0  010   [4]  26 73 00 01
 (1652821637.368551)  can0  012   [8]  E8 03 10 00 00 00 00 00
 (1652821637.368771)  can0  014   [5]  00 00 00 13 27
 (1652821637.373050)  can0  1E5   [8]  1C 00 72 10 00 00 00 DA
 (1652821637.378551)  can0  012   [8]  E8 03 10 00 00 00 00 00
 (1652821637.378771)  can0  014   [5]  00 00 00 0D 27
 (1652821637.383052)  can0  1E5   [8]  1C 00 72 30 00 00 00 FA
 (1652821637.388548)  can0  012   [8]  E8 03 10 00 00 00 00 00
 (1652821637.388770)  can0  014   [5]  00 00 00 10 27
 (1652821637.393051)  can0  1E5   [8]  1C 00 72 50 00 00 01 1A
 (1652821637.398550)  can0  012   [8]  E8 03 10 00 00 00 00 00
 (1652821637.398775)  can0  014   [5]  00 00 00 10 27
 (1652821637.403051)  can0  1E5   [8]  1C 00 72 70 00 00 01 3A
 (1652821637.408551)  can0  012   [8]  E8 03 10 00 00 00 00 00
 (1652821637.408771)  can0  014   [5]  00 00 00 10 27
 (1652821637.413051)  can0  1E5   [8]  1C 00 72 10 00 00 00 DA
 (1652821637.418551)  can0  012   [8]  E8 03 10 00 00 00 00 00
 (1652821637.418774)  can0  014   [5]  00 00 00 10 27
 (1652821637.423051)  can0  1E5   [8]  1C 00 72 30 00 00 00 FA
 (1652821637.428551)  can0  012   [8]  E8 03 10 00 00 00 00 00
 (1652821637.428772)  can0  014   [5]  00 00 00 10 27
 (1652821637.433052)  can0  1E5   [8]  1C 00 72 50 00 00 01 1A
 (1652821637.438552)  can0  012   [8]  E8 03 10 00 00 00 00 00
 (1652821637.438774)  can0  014   [5]  00 00 00 10 27
 (1652821637.443052)  can0  1E5   [8]  1C 00 72 70 00 00 01 3A
 (1652821637.448552)  can0  012   [8]  E8 03 10 00 00 00 00 00
 (1652821637.448772)  can0  014   [5]  00 00 00 10 27
 (1652821637.453052)  can0  1E5   [8]  1C 00 72 10 00 00 00 DA
 (1652821637.458552)  can0  012   [8]  E8 03 10 00 00 00 00 00
 (1652821637.458773)  can0  014   [5]  00 00 00 10 27
 (1652821637.463053)  can0  1E5   [8]  1C 00 72 30 00 00 00 FA
 (1652821637.465200)  can0  010   [4]  26 73 00 01
 (1652821637.468552)  can0  012   [8]  E8 03 10 00 00 00 00 00
 (1652821637.468772)  can0  014   [5]  00 00 00 13 27
 (1652821637.472993)  can0  1E5   [8]  1C 00 72 50 00 00 01 1A
 (1652821637.478575)  can0  012   [8]  E8 03 10 00 00 00 00 00
 (1652821637.478782)  can0  014   [5]  00 00 00 0D 27
 (1652821637.483053)  can0  1E5   [8]  1C 00 72 70 00 00 01 3A
 (1652821637.488551)  can0  012   [8]  E8 03 10 00 00 00 00 00
 (1652821637.488772)  can0  014   [5]  00 00 00 10 27
 (1652821637.493051)  can0  1E5   [8]  1C 00 72 10 00 00 00 DA
 (1652821637.498547)  can0  012   [8]  E8 03 10 00 00 00 00 00
 (1652821637.498746)  can0  014   [5]  00 00 00 10 27
 (1652821637.503050)  can0  1E5   [8]  1C 00 72 30 00 00 00 FA
 (1652821637.508551)  can0  012   [8]  E8 03 10 00 00 00 00 00
 (1652821637.508776)  can0  014   [5]  00 00 00 10 27
 (1652821637.513052)  can0  1E5   [8]  1C 00 72 50 00 00 01 1A
 (1652821637.518553)  can0  012   [8]  E8 03 10 00 00 00 00 00
 (1652821637.518774)  can0  014   [5]  00 00 00 10 27
 (1652821637.523024)  can0  1E5   [8]  1C 00 72 70 00 00 01 3A
 (1652821637.528552)  can0  012   [8]  E8 03 10 00 00 00 00 00
 (1652821637.528774)  can0  014   [5]  00 00 00 10 27
 (1652821637.533054)  can0  1E5   [8]  1C 00 72 10 00 00 00 DA
 (1652821637.538555)  can0  012   [8]  E8 03 10 00 00 00 00 00
 (1652821637.538761)  can0  014   [5]  00 00 00 10 27
 (1652821637.543076)  can0  1E5   [8]  1C 00 72 30 00 00 00 FA
 (1652821637.548554)  can0  012   [8]  E8 03 10 00 00 00 00 00
 (1652821637.548775)  can0  014   [5]  00 00 00 11 27
 (1652821637.548776)  can0  0E4   [2]  90 01
 (1652821637.553054)  can0  1E5   [8]  1C 00 72 50 00 00 01 1A
 (1652821637.558555)  can0  012   [8]  E8 03 10 00 00 00 00 00
 (1652821637.558776)  can0  014   [5]  00 00 00 0F 27
 (1652821637.563054)  can0  1E5   [8]  1C 00 72 70 00 00 01 3A
 (1652821637.565180)  can0  010   [4]  26 73 00 01
 (1652821637.568553)  can0  012   [8]  E8 03 10 00 00 00 00 00
 (1652821637.568775)  can0  014   [5]  00 00 00 13 27
 (1652821637.573052)  can0  1E5   [8]  1C 00 72 10 00 00 00 DA
 (1652821637.578554)  can0  012   [8]  E8 03 10 00 00 00 00 00
 (1652821637.578775)  can0  014   [5]  00 00 00 0D 27
 (1652821637.583055)  can0  1E5   [8]  1C 00 72 30 00 00 00 FA
 (1652821637.588508)  can0  012   [8]  E8 03 10 00 00 00 00 00
 (1652821637.588760)  can0  014   [5]  00 00 00 10 27
 (1652821637.593053)  can0  1E5   [8]  1C 00 72 50 00 00 01 1A
 (1652821637.598555)  can0  012   [8]  E8 03 10 00 00 00 00 00
 (1652821637.598776)  can0  014   [5]  00 00 00 10 27
 (1652821637.603055)  can0  1E5   [8]  1C 00 72 70 00 00 01 3A
 (1652821637.608554)  can0  012   [8]  E8 03 10 00 00 00 00 00
 (1652821637.608776)  can0  014   [5]  00 00 00 10 27
 (1652821637.613054)  can0  1E5   [8]  1C 00 72 10 00 00 00 DA
 (1652821637.618555)  can0  012   [8]  E8 03 10 00 00 00 00 00
 (1652821637.618780)  can0  014   [5]  00 00 00 10 27
 (1652821637.623053)  can0  1E5   [8]  1C 00 72 30 00 00 00 FA
 (1652821637.628554)  can0  012   [8]  E8 03 10 00 00 00 00 00
 (1652821637.628775)  can0  014   [5]  00 00 00 10 27
 (1652821637.633056)  can0  1E5   [8]  1C 00 72 50 00 00 01 1A
 (1652821637.638555)  can0  012   [8]  E8 03 10 00 00 00 00 00
 (1652821637.638739)  can0  014   [5]  00 00 00 10 27
 (1652821637.643056)  can0  1E5   [8]  1C 00 72 70 00 00 01 3A
 (1652821637.648556)  can0  012   [8]  E8 03 10 00 00 00 00 00
 (1652821637.648779)  can0  014   [5]  00 00 00 10 27
 (1652821637.653056)  can0  1E5   [8]  1C 00 72 10 00 00 00 DA
 (1652821637.658556)  can0  012   [8]  E8 03 10 00 00 00 00 00
 (1652821637.658777)  can0  014   [5]  00 00 00 10 27
 (1652821637.663056)  can0  1E5   [8]  1C 00 72 30 00 00 00 FA
 (1652821637.665182)  can0  010   [4]  26 73 00 01
 (1652821637.668555)  can0  012   [8]  E8 03 10 00 00 00 00 00
 (1652821637.668776)  can0  014   [5]  00 00 00 13 27
 (1652821637.673055)  can0  1E5   [8]  1C 00 72 50 00 00 01 1A
 (1652821637.678557)  can0  012   [8]  E8 03 10 00 00 00 00 00
 (1652821637.678777)  can0  014   [5]  00 00 00 0D 27
 (1652821637.683058)  can0  1E5   [8]  1C 00 72 70 00 00 01 3A
 (1652821637.688554)  can0  012   [8]  E8 03 10 00 00 00 00 00
 (1652821637.688780)  can0  014   [5]  00 00 00 10 27
 (1652821637.693056)  can0  1E5   [8]  1C 00 72 10 00 00 00 DA
 (1652821637.698557)  can0  012   [8]  E8 03 10 00 00 00 00 00
 (1652821637.698779)  can0  014   [5]  00 00 00 10 27
 (1652821637.703057)  can0  1E5   [8]  1C 00 72 30 00 00 00 FA
 (1652821637.708558)  can0  012   [8]  E8 03 10 00 00 00 00 00
 (1652821637.708780)  can0  014   [5]  00 00 00 10 27
 (1652821637.713057)  can0  1E5   [8]  1C 00 72 50 00 00 01 1A
 (1652821637.718557)  can0  012   [8]  E8 03 10 00 00 00 00 00
 (1652821637.718778)  can0  014   [5]  00 00 00 10 27
 (1652821637.723056)  can0  1E5   [8]  1C 00 72 70 00 00 01 3A
 (1652821637.728557)  can0  012   [8]  E8 03 10 00 00 00 00 00
 (1652821637.728779)  can0  014   [5]  00 00 00 10 27
 (1652821637.733058)  can0  1E5   [8]  1C 00 72 10 00 00 00 DA
 (1652821637.738557)  can0  012   [8]  E8 03 10 00 00 00 00 00
 (1652821637.738778)  can0  014   [5]  00 00 00 10 27
 (1652821637.743057)  can0  1E5   [8]  1C 00 72 30 00 00 00 FA
 (1652821637.748546)  can0  012   [8]  E8 03 10 00 00 00 00 00
 (1652821637.748750)  can0  014   [5]  00 00 00 10 27
 (1652821637.753067)  can0  1E5   [8]  1C 00 72 50 00 00 01 1A
 (1652821637.758558)  can0  012   [8]  E8 03 10 00 00 00 00 00
 (1652821637.758778)  can0  014   [5]  00 00 00 10 27
 (1652821637.763059)  can0  1E5   [8]  1C 00 72 70 00 00 01 3A
 (1652821637.765183)  can0  010   [4]  26 73 00 01
 (1652821637.768558)  can0  012   [8]  E8 03 10 00 00 00 00 00
 (1652821637.768778)  can0  014   [5]  00 00 00 13 27
 (1652821637.773057)  can0  1E5   [8]  1C 00 72 10 00 00 00 DA
 (1652821637.778558)  can0  012   [8]  E8 03 10 00 00 00 00 00
 (1652821637.778781)  can0  014   [5]  00 00 00 0D 27
 (1652821637.783059)  can0  1E5   [8]  1C 00 72 30 00 00 00 FA
 (1652821637.788557)  can0  012   [8]  E8 03 10 00 00 00 00 00
 (1652821637.788779)  can0  014   [5]  00 00 00 10 27
 (1652821637.793057)  can0  1E5   [8]  1C 00 72 50 00 00 01 1A
 (1652821637.798559)  can0  012   [8]  E8 03 10 00 00 00 00 00
 (1652821637.798778)  can0  014   [5]  00 00 00 10 27
 (1652821637.803001)  can0  1E5   [8]  1C 00 72 70 00 00 01 3A
 (1652821637.808558)  can0  012   [8]  E8 03 10 00 00 00 00 00
 (1652821637.808780)  can0  014   [5]  00 00 00 10 27
 (1652821637.813058)  can0  1E5   [8]  1C 00 72 10 00 00 00 DA
 (1652821637.818559)  can0  012   [8]  E8 03 10 00 00 00 00 00
 (1652821637.818780)  can0  014   [5]  00 00 00 10 27
 (1652821637.818781)  can0  0E3   [2]  B0 02
 (1652821637.823011)  can0  1E5   [8]  1C 00 72 30 00 00 00 FA
 (1652821637.828506)  can0  012   [8]  E8 03 10 00 00 00 00 00
 (1652821637.828756)  can0  014   [5]  00 00 00 13 27
 (1652821637.833010)  can0  1E5   [8]  1C 00 72 50 00 00 01 1A
 (1652821637.838512)  can0  012   [8]  E8 03 10 00 00 00 00 00
 (1652821637.838761)  can0  014   [5]  00 00 00 0D 27
 (1652821637.843007)  can0  1E5   [8]  1C 00 72 70 00 00 01 3A
 (1652821637.848507)  can0  012   [8]  E8 03 10 00 00 00 00 00
 (1652821637.848757)  can0  014   [5]  00 00 00 10 27
 (1652821637.853006)  can0  1E5   [8]  1C 00 72 10 00 00 00 DA
 (1652821637.858509)  can0  012   [8]  E8 03 10 00 00 00 00 00
 (1652821637.858756)  can0  014   [5]  00 00 00 10 27
 (1652821637.863006)  can0  1E5   [8]  1C 00 72 30 00 00 00 FA
 (1652821637.865133)  can0  010   [4]  26 73 00 01
 (1652821637.868507)  can0  012   [8]  E8 03 10 00 00 00 00 00
 (1652821637.868756)  can0  014   [5]  00 00 00 13 27
 (1652821637.873006)  can0  1E5   [8]  1C 00 72 50 00 00 01 1A
 (1652821637.878508)  can0  012   [8]  E8 03 10 00 00 00 00 00
 (1652821637.878757)  can0  014   [5]  00 00 00 0D 27
 (1652821637.883007)  can0  1E5   [8]  1C 00 72 70 00 00 01 3A
 (1652821637.888507)  can0  012   [8]  E8 03 10 00 00 00 00 00
 (1652821637.888757)  can0  014   [5]  00 00 00 10 27
 (1652821637.893007)  can0  1E5   [8]  1C 00 72 10 00 00 00 DA
 (1652821637.898507)  can0  012   [8]  E8 03 10 00 00 00 00 00
 (1652821637.898757)  can0  014   [5]  00 00 00 10 27
 (1652821637.903007)  can0  1E5   [8]  1C 00 72 30 00 00 00 FA
 (1652821637.908507)  can0  012   [8]  E8 03 10 00 00 00 00 00
 (1652821637.908757)  can0  014   [5]  00 00 00 10 27
 (1652821637.913008)  can0  1E5   [8]  1C 00 72 50 00 00 01 1A
 (1652821637.918509)  can0  012   [8]  E8 03 10 00 00 00 00 00
 (1652821637.918757)  can0  014   [5]  00 00 00 10 27
 (1652821637.923012)  can0  1E5   [8]  1C 00 72 70 00 00 01 3A
 (1652821637.928509)  can0  012   [8]  E8 03 10 00 00 00 00 00
 (1652821637.928758)  can0  014   [5]  00 00 00 10 27
 (1652821637.933008)  can0  1E5   [8]  1C 00 72 10 00 00 00 DA
 (1652821637.938508)  can0  012   [8]  E8 03 10 00 00 00 00 00
 (1652821637.938757)  can0  014   [5]  00 00 00 10 27
 (1652821637.943008)  can0  1E5   [8]  1C 00 72 30 00 00 00 FA
 (1652821637.948508)  can0  012   [8]  E8 03 10 00 00 00 00 00
 (1652821637.948758)  can0  014   [5]  00 00 00 10 27
 (1652821637.953008)  can0  1E5   [8]  1C 00 72 50 00 00 01 1A
 (1652821637.958508)  can0  012   [8]  E8 03 10 00 00 00 00 00
 (1652821637.958758)  can0  014   [5]  00 00 00 10 27
 (1652821637.963009)  can0  1E5   [8]  1C 00 72 70 00 00 01 3A
 (1652821637.965133)  can0  010   [4]  26 73 00 01
 (1652821637.965384)  can0  0E2   [2]  B8 02
 (1652821637.968509)  can0  012   [8]  E8 03 10 00 00 00 00 00
 (1652821637.968758)  can0  014   [5]  00 00 00 16 27
 (1652821637.973009)  can0  1E5   [8]  1C 00 72 10 00 00 00 DA
 (1652821637.978510)  can0  012   [8]  E8 03 10 00 00 00 00 00
 (1652821637.978758)  can0  014   [5]  00 00 00 0A 27
 (1652821637.983009)  can0  1E5   [8]  1C 00 72 30 00 00 00 FA
 (1652821637.988510)  can0  012   [8]  E8 03 10 00 00 00 00 00
 (1652821637.988759)  can0  014   [5]  00 00 00 10 27
 (1652821637.993009)  can0  1E5   [8]  1C 00 72 50 00 00 01 1A
 (1652821637.998498)  can0  012   [8]  E8 03 10 00 00 00 00 00
 (1652821637.998660)  can0  0F0   [1]  01
 (1652821637.998774)  can0  014   [5]  00 00 00 10 27
 (1652821637.998774)  can0  011   [2]  01 01
 (1652821637.998895)  can0  021   [8]  01 00 00 00 00 00 00 00
 (1652821638.003069)  can0  1E5   [8]  1C 00 72 70 00 00 01 3A
 (1652821638.008561)  can0  012   [8]  E8 03 10 00 00 00 00 00
 (1652821638.008784)  can0  014   [5]  00 00 00 19 27
 (1652821638.013062)  can0  1E5   [8]  1C 00 72 10 00 00 00 DA
 (1652821638.018563)  can0  012   [8]  E8 03 10 00 00 00 00 00
 (1652821638.018784)  can0  014   [5]  00 00 00 07 27
 (1652821638.023064)  can0  1E5   [8]  1C 00 72 30 00 00 00 FA
 (1652821638.028564)  can0  012   [8]  E8 03 10 00 00 00 00 00
 (1652821638.028786)  can0  014   [5]  00 00 00 10 27
 (1652821638.033078)  can0  1E5   [8]  1C 00 72 50 00 00 01 1A
 (1652821638.038563)  can0  012   [8]  E8 03 10 00 00 00 00 00
 (1652821638.038784)  can0  014   [5]  00 00 00 10 27
 (1652821638.043062)  can0  1E5   [8]  1C 00 72 70 00 00 01 3A
 (1652821638.048563)  can0  012   [8]  E8 03 10 00 00 00 00 00
 (1652821638.048785)  can0  014   [5]  00 00 00 10 27
 (1652821638.053065)  can0  1E5   [8]  1C 00 72 10 00 00 00 DA
 (1652821638.058564)  can0  012   [8]  E8 03 10 00 00 00 00 00
 (1652821638.058786)  can0  014   [5]  00 00 00 10 27
 (1652821638.063065)  can0  1E5   [8]  1C 00 72 30 00 00 00 FA
 (1652821638.065188)  can0  010   [4]  28 76 01 01
 (1652821638.068564)  can0  012   [8]  E8 03 10 00 00 00 00 00
 (1652821638.068786)  can0  014   [5]  00 00 00 13 27
 (1652821638.073066)  can0  1E5   [8]  1C 00 72 50 00 00 01 1A
 (1652821638.078565)  can0  012   [8]  E8 03 10 00 00 00 00 00
 (1652821638.078786)  can0  014   [5]  00 00 00 0D 27
 (1652821638.083062)  can0  1E5   [8]  1C 00 72 70 00 00 01 3A
 (1652821638.088563)  can0  012   [8]  E8 03 10 00 00 00 00 00
 (1652821638.088788)  can0  014   [5]  00 00 00 10 27
 (1652821638.093063)  can0  1E5   [8]  1C 00 72 10 00 00 00 DA
 (1652821638.098565)  can0  012   [8]  E8 03 10 00 00 00 00 00
 (1652821638.098748)  can0  014   [5]  00 00 00 10 27
 (1652821638.103064)  can0  1E5   [8]  1C 00 72 30 00 00 00 FA
 (1652821638.108564)  can0  012   [8]  E8 03 10 00 00 00 00 00
 (1652821638.108787)  can0  014   [5]  00 00 00 10 27
 (1652821638.113065)  can0  1E5   [8]  1C 00 72 50 00 00 01 1A
 (1652821638.118566)  can0  012   [8]  E8 03 10 00 00 00 00 00
 (1652821638.118788)  can0  014   [5]  00 00 00 10 27
 (1652821638.123066)  can0  1E5   [8]  1C 00 72 70 00 00 01 3A
 (1652821638.128565)  can0  012   [8]  E8 03 10 00 00 00 00 00
 (1652821638.128786)  can0  014   [5]  00 00 00 10 27
 (1652821638.133065)  can0  1E5   [8]  1C 00 72 10 00 00 00 DA
 (1652821638.138566)  can0  012   [8]  E8 03 10 00 00 00 00 00
 (1652821638.138786)  can0  014   [5]  00 00 00 10 27
 (1652821638.143065)  can0  1E5   [8]  1C 00 72 30 00 00 00 FA
 (1652821638.148564)  can0  012   [8]  E8 03 10 00 00 00 00 00
 (1652821638.148790)  can0  014   [5]  00 00 00 10 27
 (1652821638.153066)  can0  1E5   [8]  1C 00 72 50 00 00 01 1A
 (1652821638.158565)  can0  012   [8]  E8 03 10 00 00 00 00 00
 (1652821638.158651)  can0  014   [5]  00 00 00 10 27
 (1652821638.163020)  can0  1E5   [8]  1C 00 72 70 00 00 01 3A
 (1652821638.165190)  can0  010   [4]  28 76 01 01
 (1652821638.168565)  can0  012   [8]  E8 03 10 00 00 00 00 00
 (1652821638.168650)  can0  014   [5]  00 00 00 13 27
 (1652821638.173066)  can0  1E5   [8]  1C 00 72 10 00 00 00 DA
 (1652821638.178590)  can0  012   [8]  E8 03 10 00 00 00 00 00
 (1652821638.178798)  can0  014   [5]  00 00 00 0D 27
 (1652821638.183090)  can0  1E5   [8]  1C 00 72 30 00 00 00 FA
 (1652821638.188564)  can0  012   [8]  E8 03 10 00 00 00 00 00
 (1652821638.188792)  can0  014   [5]  00 00 00 10 27
 (1652821638.193069)  can0  1E5   [8]  1C 00 72 50 00 00 01 1A
 (1652821638.198565)  can0  012   [8]  E8 03 10 00 00 00 00 00
 (1652821638.198788)  can0  014   [5]  00 00 00 10 27
 (1652821638.203067)  can0  1E5   [8]  1C 00 72 70 00 00 01 3A
 (1652821638.208568)  can0  012   [8]  E8 03 10 00 00 00 00 00
 (1652821638.208787)  can0  014   [5]  00 00 00 10 27
 (1652821638.213067)  can0  1E5   [8]  1C 00 72 10 00 00 00 DA
 (1652821638.218565)  can0  012   [8]  E8 03 10 00 00 00 00 00
 (1652821638.218787)  can0  014   [5]  00 00 00 10 27
 (1652821638.223068)  can0  1E5   [8]  1C 00 72 30 00 00 00 FA
 (1652821638.228567)  can0  012   [8]  E8 03 10 00 00 00 00 00
 (1652821638.228788)  can0  014   [5]  00 00 00 10 27
 (1652821638.233069)  can0  1E5   [8]  1C 00 72 50 00 00 01 1A
 (1652821638.238568)  can0  012   [8]  E8 03 10 00 00 00 00 00
 (1652821638.238795)  can0  014   [5]  00 00 00 10 27
 (1652821638.243090)  can0  1E5   [8]  1C 00 72 70 00 00 01 3A
 (1652821638.248516)  can0  012   [8]  E8 03 10 00 00 00 00 00
 (1652821638.248779)  can0  014   [5]  00 00 00 10 27
 (1652821638.253071)  can0  1E5   [8]  1C 00 72 10 00 00 00 DA
 (1652821638.258565)  can0  012   [8]  E8 03 10 00 00 00 00 00
 (1652821638.258789)  can0  014   [5]  00 00 00 10 27
 (1652821638.263068)  can0  1E5   [8]  1C 00 72 30 00 00 00 FA
 (1652821638.265194)  can0  010   [4]  28 76 01 01
 (1652821638.268568)  can0  012   [8]  E8 03 10 00 00 00 00 00
 (1652821638.268788)  can0  014   [5]  00 00 00 13 27
 (1652821638.273069)  can0  1E5   [8]  1C 00 72 50 00 00 01 1A
 (1652821638.278569)  can0  012   [8]  E8 03 10 00 00 00 00 00
 (1652821638.278653)  can0  014   [5]  00 00 00 0D 27
 (1652821638.283068)  can0  1E5   [8]  1C 00 72 70 00 00 01 3A
 (1652821638.288566)  can0  012   [8]  E8 03 10 00 00 00 00 00
 (1652821638.288791)  can0  014   [5]  00 00 00 10 27
 (1652821638.293070)  can0  1E5   [8]  1C 00 72 10 00 00 00 DA
 (1652821638.298569)  can0  012   [8]  E8 03 10 00 00 00 00 00
 (1652821638.298790)  can0  014   [5]  00 00 00 10 27
 (1652821638.303068)  can0  1E5   [8]  1C 00 72 30 00 00 00 FA
 (1652821638.308569)  can0  012   [8]  E8 03 10 00 00 00 00 00
 (1652821638.308797)  can0  014   [5]  00 00 00 10 27
 (1652821638.313067)  can0  1E5   [8]  1C 00 72 50 00 00 01 1A
 (1652821638.318569)  can0  012   [8]  E8 03 10 00 00 00 00 00
 (1652821638.318790)  can0  014   [5]  00 00 00 10 27
 (1652821638.323070)  can0  1E5   [8]  1C 00 72 70 00 00 01 3A
 (1652821638.328569)  can0  012   [8]  E8 03 10 00 00 00 00 00
 (1652821638.328789)  can0  014   [5]  00 00 00 10 27
 (1652821638.333024)  can0  1E5   [8]  1C 00 72 10 00 00 00 DA
 (1652821638.338567)  can0  012   [8]  E8 03 10 00 00 00 00 00
 (1652821638.338792)  can0  014   [5]  00 00 00 10 27
 (1652821638.343069)  can0  1E5   [8]  1C 00 72 30 00 00 00 FA
 (1652821638.348571)  can0  012   [8]  E8 03 10 00 00 00 00 00
 (1652821638.348790)  can0  014   [5]  00 00 00 10 27
 (1652821638.353070)  can0  1E5   [8]  1C 00 72 50 00 00 01 1A
 (1652821638.358571)  can0  012   [8]  E8 03 10 00 00 00 00 00
 (1652821638.358790)  can0  014   [5]  00 00 00 10 27
 (1652821638.363027)  can0  1E5   [8]  1C 00 72 70 00 00 01 3A
 (1652821638.365220)  can0  010   [4]  28 76 01 01
 (1652821638.368570)  can0  012   [8]  E8 03 10 00 00 00 00 00
 (1652821638.368791)  can0  014   [5]  00 00 00 13 27
 (1652821638.373070)  can0  1E5   [8]  1C 00 72 10 00 00 00 DA
 (1652821638.378570)  can0  012   [8]  E8 03 10 00 00 00 00 00
 (1652821638.378655)  can0  014   [5]  00 00 00 0D 27
 (1652821638.383070)  can0  1E5   [8]  1C 00 72 30 00 00 00 FA
 (1652821638.388568)  can0  012   [8]  E8 03 10 00 00 00 00 00
 (1652821638.388794)  can0  014   [5]  00 00 00 10 27
 (1652821638.393073)  can0  1E5   [8]  1C 00 72 50 00 00 01 1A
 (1652821638.398572)  can0  012   [8]  E8 03 10 00 00 00 00 00
 (1652821638.398791)  can0  014   [5]  00 00 00 10 27
 (1652821638.403070)  can0  1E5   [8]  1C 00 72 70 00 00 01 3A
 (1652821638.408573)  can0  012   [8]  E8 03 10 00 00 00 00 00
 (1652821638.408791)  can0  014   [5]  00 00 00 10 27
 (1652821638.413070)  can0  1E5   [8]  1C 00 72 10 00 00 00 DA
 (1652821638.418573)  can0  012   [8]  E8 03 10 00 00 00 00 00
 (1652821638.418791)  can0  014   [5]  00 00 00 10 27
 (1652821638.423072)  can0  1E5   [8]  1C 00 72 30 00 00 00 FA
 (1652821638.428594)  can0  012   [8]  E8 03 10 00 00 00 00 00
 (1652821638.428775)  can0  014   [5]  00 00 00 10 27
 (1652821638.433094)  can0  1E5   [8]  1C 00 72 50 00 00 01 1A
 (1652821638.438572)  can0  012   [8]  E8 03 10 00 00 00 00 00
 (1652821638.438804)  can0  014   [5]  00 00 00 10 27
 (1652821638.443074)  can0  1E5   [8]  1C 00 72 70 00 00 01 3A
 (1652821638.448571)  can0  012   [8]  E8 03 10 00 00 00 00 00
 (1652821638.448655)  can0  014   [5]  00 00 00 10 27
 (1652821638.453072)  can0  1E5   [8]  1C 00 72 10 00 00 00 DA
 (1652821638.458572)  can0  012   [8]  E8 03 10 00 00 00 00 00
 (1652821638.458796)  can0  014   [5]  00 00 00 10 27
 (1652821638.463072)  can0  1E5   [8]  1C 00 72 30 00 00 00 FA
 (1652821638.465197)  can0  010   [4]  28 76 01 01
 (1652821638.468571)  can0  012   [8]  E8 03 10 00 00 00 00 00
 (1652821638.468657)  can0  014   [5]  00 00 00 13 27
 (1652821638.473073)  can0  1E5   [8]  1C 00 72 50 00 00 01 1A
 (1652821638.478590)  can0  012   [8]  E8 03 10 00 00 00 00 00
 (1652821638.478683)  can0  014   [5]  00 00 00 0D 27
 (1652821638.483027)  can0  1E5   [8]  1C 00 72 70 00 00 01 3A
 (1652821638.488542)  can0  012   [8]  E8 03 10 00 00 00 00 00
 (1652821638.488792)  can0  014   [5]  00 00 00 10 27
 (1652821638.493074)  can0  1E5   [8]  1C 00 72 10 00 00 00 DA
 (1652821638.498548)  can0  012   [8]  E8 03 10 00 00 00 00 00
 (1652821638.498795)  can0  014   [5]  00 00 00 10 27
 (1652821638.503087)  can0  1E5   [8]  1C 00 72 30 00 00 00 FA
 (1652821638.508573)  can0  012   [8]  E8 03 10 00 00 00 00 00
 (1652821638.508798)  can0  014   [5]  00 00 00 10 27
 (1652821638.513072)  can0  1E5   [8]  1C 00 72 50 00 00 01 1A
 (1652821638.518574)  can0  012   [8]  E8 03 10 00 00 00 00 00
 (1652821638.518795)  can0  014   [5]  00 00 00 10 27
 (1652821638.523073)  can0  1E5   [8]  1C 00 72 70 00 00 01 3A
 (1652821638.528545)  can0  012   [8]  E8 03 10 00 00 00 00 00
 (1652821638.528758)  can0  014   [5]  00 00 00 10 27
 (1652821638.533074)  can0  1E5   [8]  1C 00 72 10 00 00 00 DA
 (1652821638.538574)  can0  012   [8]  E8 03 10 00 00 00 00 00
 (1652821638.538794)  can0  014   [5]  00 00 00 10 27
 (1652821638.543074)  can0  1E5   [8]  1C 00 72 30 00 00 00 FA
 (1652821638.548574)  can0  012   [8]  E8 03 10 00 00 00 00 00
 (1652821638.548657)  can0  014   [5]  00 00 00 11 27
 (1652821638.548947)  can0  0E4   [2]  BA 01
 (1652821638.553075)  can0  1E5   [8]  1C 00 72 50 00 00 01 1A
 (1652821638.558573)  can0  012   [8]  E8 03 10 00 00 00 00 00
 (1652821638.558794)  can0  014   [5]  00 00 00 0F 27
 (1652821638.563074)  can0  1E5   [8]  1C 00 72 70 00 00 01 3A
 (1652821638.565200)  can0  010   [4]  28 76 01 01
 (1652821638.568571)  can0  012   [8]  E8 03 10 00 00 00 00 00
 (1652821638.568794)  can0  014   [5]  00 00 00 13 27
 (1652821638.573075)  can0  1E5   [8]  1C 00 72 10 00 00 00 DA
 (1652821638.578572)  can0  012   [8]  E8 03 10 00 00 00 00 00
 (1652821638.578655)  can0  014   [5]  00 00 00 0D 27
 (1652821638.583075)  can0  1E5   [8]  1C 00 72 30 00 00 00 FA
 (1652821638.588575)  can0  012   [8]  E8 03 10 00 00 00 00 00
 (1652821638.588635)  can0  014   [5]  00 00 00 10 27
 (1652821638.593075)  can0  1E5   [8]  1C 00 72 50 00 00 01 1A
 (1652821638.598573)  can0  012   [8]  E8 03 10 00 00 00 00 00
 (1652821638.598796)  can0  014   [5]  00 00 00 10 27
 (1652821638.603075)  can0  1E5   [8]  1C 00 72 70 00 00 01 3A
 (1652821638.608576)  can0  012   [8]  E8 03 10 00 00 00 00 00
 (1652821638.608661)  can0  014   [5]  00 00 00 10 27
 (1652821638.613075)  can0  1E5   [8]  1C 00 72 10 00 00 00 DA
 (1652821638.618574)  can0  012   [8]  E8 03 10 00 00 00 00 00
 (1652821638.618659)  can0  014   [5]  00 00 00 10 27
 (1652821638.623075)  can0  1E5   [8]  1C 00 72 30 00 00 00 FA
 (1652821638.628576)  can0  012   [8]  E8 03 10 00 00 00 00 00
 (1652821638.628796)  can0  014   [5]  00 00 00 10 27
 (1652821638.633077)  can0  1E5   [8]  1C 00 72 50 00 00 01 1A
 (1652821638.638576)  can0  012   [8]  E8 03 10 00 00 00 00 00
 (1652821638.638661)  can0  014   [5]  00 00 00 10 27
 (1652821638.643075)  can0  1E5   [8]  1C 00 72 70 00 00 01 3A
 (1652821638.648576)  can0  012   [8]  E8 03 10 00 00 00 00 00
 (1652821638.648660)  can0  014   [5]  00 00 00 10 27
 (1652821638.653076)  can0  1E5   [8]  1C 00 72 10 00 00 00 DA
 (1652821638.658576)  can0  012   [8]  E8 03 10 00 00 00 00 00
 (1652821638.658661)  can0  014   [5]  00 00 00 10 27
 (1652821638.663077)  can0  1E5   [8]  1C 00 72 30 00 00 00 FA
 (1652821638.665201)  can0  010   [4]  28 76 01 01
 (1652821638.668576)  can0  012   [8]  E8 03 10 00 00 00 00 00
 (1652821638.668797)  can0  014   [5]  00 00 00 13 27
 (1652821638.673077)  can0  1E5   [8]  1C 00 72 50 00 00 01 1A
 (1652821638.678577)  can0  012   [8]  E8 03 10 00 00 00 00 00
 (1652821638.678798)  can0  014   [5]  00 00 00 0D 27
 (1652821638.683077)  can0  1E5   [8]  1C 00 72 70 00 00 01 3A
 (1652821638.688577)  can0  012   [8]  E8 03 10 00 00 00 00 00
 (1652821638.688662)  can0  014   [5]  00 00 00 10 27
 (1652821638.693018)  can0  1E5   [8]  1C 00 72 10 00 00 00 DA
 (1652821638.698575)  can0  012   [8]  E8 03 10 00 00 00 00 00
 (1652821638.698798)  can0  014   [5]  00 00 00 10 27
 (1652821638.703076)  can0  1E5   [8]  1C 00 72 30 00 00 00 FA
 (1652821638.708577)  can0  012   [8]  E8 03 10 00 00 00 00 00
 (1652821638.708662)  can0  014   [5]  00 00 00 10 27
 (1652821638.713078)  can0  1E5   [8]  1C 00 72 50 00 00 01 1A
 (1652821638.718579)  can0  012   [8]  E8 03 10 00 00 00 00 00
 (1652821638.718664)  can0  014   [5]  00 00 00 10 27
 (1652821638.723077)  can0  1E5   [8]  1C 00 72 70 00 00 01 3A
 (1652821638.728578)  can0  012   [8]  E8 03 10 00 00 00 00 00
 (1652821638.728800)  can0  014   [5]  00 10 00 10 27
 (1652821638.732952)  can0  1E5   [8]  1C 00 72 10 00 00 00 DA
 (1652821638.738577)  can0  012   [8]  E8 03 10 00 00 00 00 00
 (1652821638.738662)  can0  014   [5]  01 00 00 10 27
 (1652821638.743078)  can0  1E5   [8]  1C 00 72 30 00 00 00 FA
 (1652821638.748588)  can0  012   [8]  E8 03 10 00 00 00 00 00
 (1652821638.748676)  can0  014   [5]  00 00 00 10 27
 (1652821638.752952)  can0  1E5   [8]  1C 00 72 50 00 00 01 1A
 (1652821638.758519)  can0  012   [8]  E8 03 10 00 00 00 00 00
 (1652821638.758635)  can0  014   [5]  00 00 00 10 27
 (1652821638.763078)  can0  1E5   [8]  1C 00 72 70 00 00 01 3A
 (1652821638.765203)  can0  010   [4]  28 76 01 01
 (1652821638.768578)  can0  012   [8]  E8 03 10 00 00 00 00 00
 (1652821638.768798)  can0  014   [5]  00 00 00 13 27
 (1652821638.772954)  can0  1E5   [8]  1C 00 72 10 00 00 00 DA
 (1652821638.778579)  can0  012   [8]  E8 03 10 00 00 00 00 00
 (1652821638.778664)  can0  014   [5]  00 10 00 0D 27
 (1652821638.783077)  can0  1E5   [8]  1C 00 72 30 00 00 00 FA
 (1652821638.788579)  can0  012   [8]  E8 03 10 00 00 00 00 00
 (1652821638.788663)  can0  014   [5]  00 00 00 10 27
 (1652821638.793080)  can0  1E5   [8]  1C 00 72 50 00 00 01 1A
 (1652821638.798578)  can0  012   [8]  E8 03 10 00 00 00 00 00
 (1652821638.798662)  can0  014   [5]  01 00 00 10 27
 (1652821638.803055)  can0  1E5   [8]  1C 00 74 70 01 00 01 3D
 (1652821638.808577)  can0  012   [8]  E8 03 10 00 00 00 00 00
 (1652821638.808804)  can0  014   [5]  00 00 00 10 27
 (1652821638.812954)  can0  1E5   [8]  1C 00 74 10 01 00 00 DD
 (1652821638.818579)  can0  012   [8]  E8 03 10 00 00 00 00 00
 (1652821638.818662)  can0  014   [5]  00 00 00 10 27
 (1652821638.818794)  can0  0E3   [2]  DA 02
 (1652821638.823080)  can0  1E5   [8]  1C 00 74 30 01 00 00 FD
 (1652821638.828580)  can0  012   [8]  E8 03 10 00 00 00 00 00
 (1652821638.828665)  can0  014   [5]  00 10 00 13 27
 (1652821638.833079)  can0  1E5   [8]  1C 00 74 50 01 00 01 1D
 (1652821638.838580)  can0  012   [8]  E8 03 10 00 00 00 00 00
 (1652821638.838668)  can0  014   [5]  00 00 00 0D 27
 (1652821638.843080)  can0  1E5   [8]  1C 00 74 70 01 00 01 3D
 (1652821638.848581)  can0  012   [8]  E8 03 10 00 00 00 00 00
 (1652821638.848666)  can0  014   [5]  01 00 00 10 27
 (1652821638.853080)  can0  1E5   [8]  1C 00 74 10 01 00 00 DD
 (1652821638.858580)  can0  012   [8]  E8 03 10 00 00 00 00 00
 (1652821638.858667)  can0  014   [5]  00 00 00 10 27
 (1652821638.863081)  can0  1E5   [8]  1C 00 75 30 02 00 00 FF
 (1652821638.865205)  can0  010   [4]  28 76 01 01
 (1652821638.868580)  can0  012   [8]  E8 03 10 00 00 00 00 00
 (1652821638.868664)  can0  014   [5]  00 10 00 13 27
 (1652821638.872954)  can0  1E5   [8]  1C 00 75 50 02 00 01 1F
 (1652821638.878579)  can0  012   [8]  E8 03 10 00 00 00 00 00
 (1652821638.878665)  can0  014   [5]  01 00 00 0D 27
 (1652821638.882954)  can0  1E5   [8]  1C 00 75 70 02 00 01 3F
 (1652821638.888578)  can0  012   [8]  E8 03 10 00 00 00 00 00
 (1652821638.888665)  can0  014   [5]  00 00 00 10 27
 (1652821638.892954)  can0  1E5   [8]  1C 00 75 10 02 00 00 DF
 (1652821638.898581)  can0  012   [8]  E8 03 10 00 00 00 00 00
 (1652821638.898667)  can0  014   [5]  01 10 00 10 27
 (1652821638.902956)  can0  1E5   [8]  1C 00 75 30 01 00 00 FE
 (1652821638.908581)  can0  012   [8]  E8 03 10 00 00 00 00 00
 (1652821638.908666)  can0  014   [5]  00 00 00 10 27
 (1652821638.913081)  can0  1E5   [8]  1C 00 75 50 01 00 01 1E
 (1652821638.918581)  can0  012   [8]  E8 03 10 00 00 00 00 00
 (1652821638.918802)  can0  014   [5]  00 10 00 10 27
 (1652821638.922928)  can0  1E5   [8]  1C 00 75 70 01 00 01 3E
 (1652821638.928583)  can0  012   [8]  E8 03 10 00 00 00 00 00
 (1652821638.928668)  can0  014   [5]  01 00 00 10 27
 (1652821638.932957)  can0  1E5   [8]  1C 00 75 10 01 00 00 DE
 (1652821638.938582)  can0  012   [8]  E8 03 10 00 00 00 00 00
 (1652821638.938660)  can0  014   [5]  00 10 00 10 27
 (1652821638.942980)  can0  1E5   [8]  1C 00 75 30 01 00 00 FE
 (1652821638.948605)  can0  012   [8]  E8 03 10 00 00 00 00 00
 (1652821638.948663)  can0  014   [5]  01 00 00 10 27
 (1652821638.952956)  can0  1E5   [8]  1C 00 75 50 01 00 01 1E
 (1652821638.958581)  can0  012   [8]  E8 03 10 00 00 00 00 00
 (1652821638.958802)  can0  014   [5]  00 10 00 10 27
 (1652821638.963082)  can0  1E5   [8]  1C 00 75 70 00 00 01 3D
 (1652821638.965208)  can0  010   [4]  28 76 01 01
 (1652821638.965211)  can0  0E2   [2]  E2 02
 (1652821638.968582)  can0  012   [8]  E8 03 10 00 00 00 00 00
 (1652821638.968802)  can0  014   [5]  00 00 00 16 27
 (1652821638.972955)  can0  1E5   [8]  1C 00 75 10 00 00 00 DD
 (1652821638.978583)  can0  012   [8]  E8 03 10 00 00 00 00 00
 (1652821638.978667)  can0  014   [5]  01 00 00 0A 27
 (1652821638.983083)  can0  1E5   [8]  1C 00 75 30 00 00 00 FD
 (1652821638.988584)  can0  012   [8]  E8 03 10 00 00 00 00 00
 (1652821638.988640)  can0  014   [5]  01 10 00 10 27
 (1652821638.992959)  can0  1E5   [8]  1C 00 75 50 00 00 01 1D
 (1652821638.998549)  can0  012   [8]  E8 03 10 00 00 00 00 00
 (1652821638.998657)  can0  014   [5]  00 00 00 10 27
 (1652821639.002958)  can0  1E5   [8]  1C 00 75 70 00 00 01 3D
 (1652821639.008605)  can0  012   [8]  E8 03 10 00 00 00 00 00
 (1652821639.008661)  can0  014   [5]  00 10 00 10 27
 (1652821639.012982)  can0  1E5   [8]  1C 00 77 10 01 00 00 E0
 (1652821639.018584)  can0  012   [8]  E8 03 10 00 00 00 00 00
 (1652821639.018668)  can0  014   [5]  01 00 00 10 27
 (1652821639.022956)  can0  1E5   [8]  1C 00 77 30 01 00 01 00
 (1652821639.028584)  can0  012   [8]  E8 03 10 00 00 00 00 00
 (1652821639.028669)  can0  014   [5]  00 10 00 10 27
 (1652821639.032958)  can0  1E5   [8]  1C 00 77 50 01 00 01 20
 (1652821639.038525)  can0  012   [8]  E8 03 10 00 00 00 00 00
 (1652821639.038641)  can0  014   [5]  01 00 00 10 27
 (1652821639.042959)  can0  1E5   [8]  1C 00 77 70 01 00 01 40
 (1652821639.048584)  can0  012   [8]  E8 03 10 00 00 00 00 00
 (1652821639.048668)  can0  014   [5]  00 10 00 10 27
 (1652821639.053085)  can0  1E5   [8]  1C 00 77 10 01 00 00 E0
 (1652821639.058583)  can0  012   [8]  E8 03 10 00 00 00 00 00
 (1652821639.058668)  can0  014   [5]  00 00 00 10 27
 (1652821639.062959)  can0  1E5   [8]  1C 00 77 30 01 00 01 00
 (1652821639.065209)  can0  010   [4]  28 76 01 01
 (1652821639.068584)  can0  012   [8]  E8 03 10 00 00 00 00 00
 (1652821639.068669)  can0  014   [5]  01 00 00 13 27
 (1652821639.072960)  can0  1E5   [8]  1C 00 77 50 01 00 01 20
 (1652821639.078584)  can0  012   [8]  E8 03 10 00 00 00 00 00
 (1652821639.078669)  can0  014   [5]  00 10 00 0D 27
 (1652821639.082959)  can0  1E5   [8]  1C 00 77 70 01 00 01 40
 (1652821639.088583)  can0  012   [8]  E8 03 10 00 00 00 00 00
 (1652821639.088668)  can0  014   [5]  01 00 00 10 27
 (1652821639.092957)  can0  1E5   [8]  1C 00 77 10 01 00 00 E0
 (1652821639.098585)  can0  012   [8]  E8 03 10 00 00 00 00 00
 (1652821639.098669)  can0  014   [5]  00 10 00 10 27
 (1652821639.102960)  can0  1E5   [8]  1C 00 77 30 01 00 01 00
 (1652821639.108608)  can0  012   [8]  E8 03 10 00 00 00 00 00
 (1652821639.108665)  can0  014   [5]  01 00 00 10 27
 (1652821639.112954)  can0  1E5   [8]  1C 00 77 50 00 00 01 1F
 (1652821639.118585)  can0  012   [8]  E8 03 10 00 00 00 00 00
 (1652821639.118669)  can0  014   [5]  00 10 00 10 27
 (1652821639.122946)  can0  1E5   [8]  1C 00 77 70 00 00 01 3F
 (1652821639.128585)  can0  012   [8]  E8 03 10 00 00 00 00 00
 (1652821639.128670)  can0  014   [5]  01 00 00 10 27
 (1652821639.132959)  can0  1E5   [8]  1C 00 77 10 00 00 00 DF
 (1652821639.138608)  can0  012   [8]  E8 03 10 00 00 00 00 00
 (1652821639.138664)  can0  014   [5]  00 10 00 10 27
 (1652821639.142984)  can0  1E5   [8]  1C 00 77 30 00 00 00 FF
 (1652821639.148586)  can0  012   [8]  E8 03 10 00 00 00 00 00
 (1652821639.148671)  can0  014   [5]  01 00 00 10 27
 (1652821639.152958)  can0  1E5   [8]  1C 00 77 50 00 00 01 1F
 (1652821639.158587)  can0  012   [8]  E8 03 10 00 00 00 00 00
 (1652821639.158673)  can0  014   [5]  00 10 00 10 27
 (1652821639.162962)  can0  1E5   [8]  1C 00 77 70 00 00 01 3F
 (1652821639.165211)  can0  010   [4]  28 76 01 01
 (1652821639.168586)  can0  012   [8]  E8 03 10 00 00 00 00 00
 (1652821639.168670)  can0  014   [5]  01 00 00 13 27
 (1652821639.172962)  can0  1E5   [8]  1C 00 77 10 00 00 00 DF
 (1652821639.178586)  can0  012   [8]  E8 03 10 00 00 00 00 00
 (1652821639.178671)  can0  014   [5]  00 10 00 0D 27
 (1652821639.182962)  can0  1E5   [8]  1C 00 77 30 00 00 00 FF
 (1652821639.188588)  can0  012   [8]  E8 03 10 00 00 00 00 00
 (1652821639.188672)  can0  014   [5]  01 10 00 10 27
 (1652821639.192960)  can0  1E5   [8]  1C 00 77 50 00 00 01 1F
 (1652821639.198588)  can0  012   [8]  E8 03 10 00 00 00 00 00
 (1652821639.198673)  can0  014   [5]  00 00 00 10 27
 (1652821639.202961)  can0  1E5   [8]  1C 00 77 70 00 00 01 3F
 (1652821639.208586)  can0  012   [8]  E8 03 10 00 00 00 00 00
 (1652821639.208672)  can0  014   [5]  01 10 00 10 27
 (1652821639.212963)  can0  1E5   [8]  1C 00 77 10 00 00 00 DF
 (1652821639.218588)  can0  012   [8]  E8 03 10 00 00 00 00 00
 (1652821639.218673)  can0  014   [5]  01 00 00 10 27
 (1652821639.222964)  can0  1E5   [8]  1C 00 77 30 00 00 00 FF
 (1652821639.228588)  can0  012   [8]  E8 03 10 00 00 00 00 00
 (1652821639.228672)  can0  014   [5]  01 10 00 10 27
 (1652821639.232962)  can0  1E5   [8]  1C 00 77 50 00 00 01 1F
 (1652821639.238585)  can0  012   [8]  E8 03 10 00 00 00 00 00
 (1652821639.238671)  can0  014   [5]  00 10 00 10 27
 (1652821639.242962)  can0  1E5   [8]  1C 00 77 70 00 00 01 3F
 (1652821639.248590)  can0  012   [8]  E8 03 10 00 00 00 00 00
 (1652821639.248685)  can0  014   [5]  01 00 00 10 27
 (1652821639.252909)  can0  1E5   [8]  1C 00 77 10 00 00 00 DF
 (1652821639.258611)  can0  012   [8]  E8 03 10 00 00 00 00 00
 (1652821639.258667)  can0  014   [5]  01 10 00 10 27
 (1652821639.262987)  can0  1E5   [8]  1C 00 77 30 00 00 00 FF
 (1652821639.265235)  can0  010   [4]  28 76 01 01
 (1652821639.268589)  can0  012   [8]  E8 03 10 00 00 00 00 00
 (1652821639.268674)  can0  014   [5]  00 10 00 13 27
 (1652821639.272961)  can0  1E5   [8]  1C 00 77 50 00 00 01 1F
 (1652821639.278590)  can0  012   [8]  E8 03 10 00 00 00 00 00
 (1652821639.278675)  can0  014   [5]  01 10 00 0D 27
 (1652821639.282964)  can0  1E5   [8]  1C 00 77 70 00 00 01 3F
 (1652821639.288589)  can0  012   [8]  E8 03 10 00 00 00 00 00
 (1652821639.288673)  can0  014   [5]  01 10 00 10 27
 (1652821639.292962)  can0  1E5   [8]  1C 00 77 10 00 00 00 DF
 (1652821639.298588)  can0  012   [8]  E8 03 10 00 00 00 00 00
 (1652821639.298673)  can0  014   [5]  01 00 00 10 27
 (1652821639.302964)  can0  1E5   [8]  1C 00 77 30 00 00 00 FF
 (1652821639.308613)  can0  012   [8]  E8 03 10 00 00 00 00 00
 (1652821639.308669)  can0  014   [5]  01 10 00 10 27
 (1652821639.312988)  can0  1E5   [8]  1C 00 77 50 00 00 01 1F
 (1652821639.318589)  can0  012   [8]  E8 03 10 00 00 00 00 00
 (1652821639.318675)  can0  014   [5]  00 10 00 10 27
 (1652821639.322965)  can0  1E5   [8]  1C 00 77 70 00 00 01 3F
 (1652821639.328589)  can0  012   [8]  E8 03 10 00 00 00 00 00
 (1652821639.328675)  can0  014   [5]  01 10 00 10 27
 (1652821639.332966)  can0  1E5   [8]  1C 00 77 10 00 00 00 DF
 (1652821639.338589)  can0  012   [8]  E8 03 10 00 00 00 00 00
 (1652821639.338674)  can0  014   [5]  01 10 00 10 27
 (1652821639.342966)  can0  1E5   [8]  1C 00 77 30 00 00 00 FF
 (1652821639.348591)  can0  012   [8]  E8 03 10 00 00 00 00 00
 (1652821639.348676)  can0  014   [5]  01 10 00 10 27
 (1652821639.352936)  can0  1E5   [8]  1C 00 77 50 00 00 01 1F
 (1652821639.358589)  can0  012   [8]  E8 03 10 00 00 00 00 00
 (1652821639.358674)  can0  014   [5]  01 10 00 10 27
 (1652821639.362965)  can0  1E5   [8]  1C 00 77 70 00 00 01 3F
 (1652821639.365214)  can0  010   [4]  28 76 01 01
 (1652821639.368590)  can0  012   [8]  E8 03 10 00 00 00 00 00
 (1652821639.368675)  can0  014   [5]  01 00 00 13 27
 (1652821639.372966)  can0  1E5   [8]  1C 00 77 10 00 00 00 DF
 (1652821639.378590)  can0  012   [8]  E8 03 10 00 00 00 00 00
 (1652821639.378674)  can0  014   [5]  01 20 00 0D 27
 (1652821639.382967)  can0  1E5   [8]  1C 00 77 30 00 00 00 FF
 (1652821639.388591)  can0  012   [8]  E8 03 10 00 00 00 00 00
 (1652821639.388675)  can0  014   [5]  01 10 00 10 27
 (1652821639.392963)  can0  1E5   [8]  1C 00 77 50 00 00 01 1F
 (1652821639.398591)  can0  012   [8]  E8 03 10 00 00 00 00 00
 (1652821639.398675)  can0  014   [5]  01 10 00 10 27
 (1652821639.402963)  can0  1E5   [8]  1C 00 77 70 00 00 01 3F
 (1652821639.408591)  can0  012   [8]  E8 03 10 00 00 00 00 00
 (1652821639.408676)  can0  014   [5]  01 10 00 10 27
 (1652821639.412966)  can0  1E5   [8]  1C 00 77 10 00 00 00 DF
 (1652821639.418606)  can0  012   [8]  E8 03 10 00 00 00 00 00
 (1652821639.418650)  can0  014   [5]  02 10 00 10 27
 (1652821639.422966)  can0  1E5   [8]  1C 00 77 30 00 00 00 FF
 (1652821639.428591)  can0  012   [8]  E8 03 10 00 00 00 00 00
 (1652821639.428677)  can0  014   [5]  01 10 00 10 27
 (1652821639.432967)  can0  1E5   [8]  1C 00 77 50 00 00 01 1F
 (1652821639.438592)  can0  012   [8]  E8 03 10 00 00 00 00 00
 (1652821639.438677)  can0  014   [5]  01 10 00 10 27
 (1652821639.442942)  can0  1E5   [8]  1C 00 77 70 00 00 01 3F
 (1652821639.448591)  can0  012   [8]  E8 03 10 00 00 00 00 00
 (1652821639.448676)  can0  014   [5]  01 10 00 10 27
 (1652821639.452968)  can0  1E5   [8]  1C 00 77 10 00 00 00 DF
 (1652821639.458593)  can0  012   [8]  E8 03 10 00 00 00 00 00
 (1652821639.458677)  can0  014   [5]  01 10 00 10 27
 (1652821639.462967)  can0  1E5   [8]  1C 00 77 30 00 00 00 FF
 (1652821639.465216)  can0  010   [4]  28 76 01 01
 (1652821639.468591)  can0  012   [8]  E8 03 10 00 00 00 00 00
 (1652821639.468676)  can0  014   [5]  02 20 00 13 27
 (1652821639.472968)  can0  1E5   [8]  1C 00 77 50 00 00 01 1F
 (1652821639.478593)  can0  012   [8]  E8 03 10 00 00 00 00 00
 (1652821639.478678)  can0  014   [5]  01 10 00 0D 27
 (1652821639.482967)  can0  1E5   [8]  1C 00 77 70 00 00 01 3F
 (1652821639.488592)  can0  012   [8]  E8 03 10 00 00 00 00 00
 (1652821639.488678)  can0  014   [5]  02 10 00 10 27
 (1652821639.492966)  can0  1E5   [8]  1C 00 77 10 00 00 00 DF
 (1652821639.498547)  can0  012   [8]  E8 03 10 00 00 00 00 00
 (1652821639.498667)  can0  014   [5]  01 20 00 10 27
 (1652821639.502966)  can0  1E5   [8]  1C 00 77 30 00 00 00 FF
 (1652821639.508593)  can0  012   [8]  E8 03 10 00 00 00 00 00
 (1652821639.508678)  can0  014   [5]  02 20 00 10 27
 (1652821639.512987)  can0  1E5   [8]  1C 00 77 50 00 00 01 1F
 (1652821639.518594)  can0  012   [8]  E8 03 10 00 00 00 00 00
 (1652821639.518678)  can0  014   [5]  02 10 00 10 27
 (1652821639.522970)  can0  1E5   [8]  1C 00 77 70 00 00 01 3F
 (1652821639.528592)  can0  012   [8]  E8 03 10 00 00 00 00 00
 (1652821639.528677)  can0  014   [5]  01 20 00 10 27
 (1652821639.532969)  can0  1E5   [8]  1C 00 77 10 00 00 00 DF
 (1652821639.538593)  can0  012   [8]  E8 03 10 00 00 00 00 00
 (1652821639.538677)  can0  014   [5]  02 10 00 10 27
 (1652821639.542969)  can0  1E5   [8]  1C 00 77 30 00 00 00 FF
 (1652821639.548593)  can0  012   [8]  E8 03 10 00 00 00 00 00
 (1652821639.548678)  can0  014   [5]  02 20 00 11 27
 (1652821639.548807)  can0  0E4   [2]  E2 01
 (1652821639.552967)  can0  1E5   [8]  1C 00 77 50 00 00 01 1F
 (1652821639.558593)  can0  012   [8]  E8 03 10 00 00 00 00 00
 (1652821639.558679)  can0  014   [5]  02 20 00 0F 27
 (1652821639.562970)  can0  1E5   [8]  1C 00 77 70 00 00 01 3F
 (1652821639.565219)  can0  010   [4]  28 76 01 01
 (1652821639.568593)  can0  012   [8]  E8 03 10 00 00 00 00 00
 (1652821639.568678)  can0  014   [5]  02 20 00 13 27
 (1652821639.572969)  can0  1E5   [8]  1C 00 77 10 00 00 00 DF
 (1652821639.578596)  can0  012   [8]  E8 03 10 00 00 00 00 00
 (1652821639.578681)  can0  014   [5]  02 20 00 0D 27
 (1652821639.582917)  can0  1E5   [8]  1C 00 77 30 00 00 00 FF
 (1652821639.588595)  can0  012   [8]  E8 03 10 00 00 00 00 00
 (1652821639.588680)  can0  014   [5]  02 20 00 10 27
 (1652821639.592967)  can0  1E5   [8]  1C 00 77 50 00 00 01 1F
 (1652821639.598596)  can0  012   [8]  E8 03 10 00 00 00 00 00
 (1652821639.598680)  can0  014   [5]  02 20 00 10 27
 (1652821639.602969)  can0  1E5   [8]  1C 00 77 70 00 00 01 3F
 (1652821639.608613)  can0  012   [8]  E8 03 10 00 00 00 00 00
 (1652821639.608670)  can0  014   [5]  03 20 00 10 27
 (1652821639.612995)  can0  1E5   [8]  1C 00 77 10 00 00 00 DF
 (1652821639.618595)  can0  012   [8]  E8 03 10 00 00 00 00 00
 (1652821639.618680)  can0  014   [5]  02 20 00 10 27
 (1652821639.622970)  can0  1E5   [8]  1C 00 77 30 00 00 00 FF
 (1652821639.628596)  can0  012   [8]  E8 03 10 00 00 00 00 00
 (1652821639.628681)  can0  014   [5]  02 20 00 10 27
 (1652821639.632912)  can0  1E5   [8]  1C 00 77 50 00 00 01 1F
 (1652821639.638595)  can0  012   [8]  E8 03 10 00 00 00 00 00
 (1652821639.638680)  can0  014   [5]  02 30 00 10 27
 (1652821639.642972)  can0  1E5   [8]  1C 00 77 70 00 00 01 3F
 (1652821639.648596)  can0  012   [8]  E8 03 10 00 00 00 00 00
 (1652821639.648680)  can0  014   [5]  02 20 00 10 27
 (1652821639.652971)  can0  1E5   [8]  1C 00 77 10 00 00 00 DF
 (1652821639.658596)  can0  012   [8]  E8 03 10 00 00 00 00 00
 (1652821639.658681)  can0  014   [5]  03 20 00 10 27
 (1652821639.662971)  can0  1E5   [8]  1C 00 77 30 00 00 00 FF
 (1652821639.665220)  can0  010   [4]  28 76 01 01
 (1652821639.668596)  can0  012   [8]  E8 03 10 00 00 00 00 00
 (1652821639.668681)  can0  014   [5]  02 30 00 13 27
 (1652821639.672971)  can0  1E5   [8]  1C 00 77 50 00 00 01 1F
 (1652821639.678597)  can0  012   [8]  E8 03 10 00 00 00 00 00
 (1652821639.678682)  can0  014   [5]  03 20 00 0D 27
 (1652821639.682969)  can0  1E5   [8]  1C 00 77 70 00 00 01 3F
 (1652821639.688597)  can0  012   [8]  E8 03 10 00 00 00 00 00
 (1652821639.688682)  can0  014   [5]  02 30 00 10 27
 (1652821639.692970)  can0  1E5   [8]  1C 00 77 10 00 00 00 DF
 (1652821639.698539)  can0  012   [8]  E8 03 10 00 00 00 00 00
 (1652821639.698662)  can0  014   [5]  03 30 00 10 27
 (1652821639.702974)  can0  1E5   [8]  1C 00 77 30 00 00 00 FF
 (1652821639.708599)  can0  012   [8]  E8 03 10 00 00 00 00 00
 (1652821639.708683)  can0  014   [5]  02 20 00 10 27
 (1652821639.712973)  can0  1E5   [8]  1C 00 77 50 00 00 01 1F
 (1652821639.718596)  can0  012   [8]  E8 03 10 00 00 00 00 00
 (1652821639.718681)  can0  014   [5]  03 30 00 10 27
 (1652821639.722972)  can0  1E5   [8]  1C 00 77 70 00 00 01 3F
 (1652821639.728597)  can0  012   [8]  E8 03 10 00 00 00 00 00
 (1652821639.728683)  can0  014   [5]  03 30 00 10 27
 (1652821639.732971)  can0  1E5   [8]  1C 00 77 10 00 00 00 DF
 (1652821639.738597)  can0  012   [8]  E8 03 10 00 00 00 00 00
 (1652821639.738682)  can0  014   [5]  03 30 00 10 27
 (1652821639.742973)  can0  1E5   [8]  1C 00 77 30 00 00 00 FF
 (1652821639.748538)  can0  012   [8]  E8 03 10 00 00 00 00 00
 (1652821639.748656)  can0  014   [5]  03 30 00 10 27
 (1652821639.752971)  can0  1E5   [8]  1C 00 77 50 00 00 01 1F
 (1652821639.758622)  can0  012   [8]  E8 03 10 00 00 00 00 00
 (1652821639.758678)  can0  014   [5]  02 30 00 10 27
 (1652821639.762980)  can0  1E5   [8]  1C 00 77 70 00 00 01 3F
 (1652821639.765221)  can0  010   [4]  28 76 01 01
 (1652821639.768597)  can0  012   [8]  E8 03 10 00 00 00 00 00
 (1652821639.768683)  can0  014   [5]  03 40 00 13 27
 (1652821639.772974)  can0  1E5   [8]  1C 00 77 10 00 00 00 DF
 (1652821639.778599)  can0  012   [8]  E8 03 10 00 00 00 00 00
 (1652821639.778684)  can0  014   [5]  04 30 00 0D 27
 (1652821639.782973)  can0  1E5   [8]  1C 00 77 30 00 00 00 FF
 (1652821639.788599)  can0  012   [8]  E8 03 10 00 00 00 00 00
 (1652821639.788684)  can0  014   [5]  03 40 00 10 27
 (1652821639.792972)  can0  1E5   [8]  1C 00 77 50 00 00 01 1F
 (1652821639.798598)  can0  012   [8]  E8 03 10 00 00 00 00 00
 (1652821639.798682)  can0  014   [5]  04 30 00 10 27
 (1652821639.802974)  can0  1E5   [8]  1C 00 77 70 00 00 01 3F
 (1652821639.808600)  can0  012   [8]  E8 03 10 00 00 00 00 00
 (1652821639.808684)  can0  014   [5]  03 30 00 10 27
 (1652821639.812976)  can0  1E5   [8]  1C 00 77 10 00 00 00 DF
 (1652821639.818598)  can0  012   [8]  E8 03 10 00 00 00 00 00
 (1652821639.818683)  can0  014   [5]  04 40 00 10 27
 (1652821639.818813)  can0  0E3   [2]  02 03
 (1652821639.822976)  can0  1E5   [8]  1C 00 77 30 00 00 00 FF
 (1652821639.828599)  can0  012   [8]  E8 03 10 00 00 00 00 00
 (1652821639.828683)  can0  014   [5]  04 40 00 13 27
 (1652821639.832972)  can0  1E5   [8]  1C 00 77 50 00 00 01 1F
 (1652821639.838600)  can0  012   [8]  E8 03 10 00 00 00 00 00
 (1652821639.838685)  can0  014   [5]  04 30 00 0D 27
 (1652821639.842975)  can0  1E5   [8]  1C 00 77 70 00 00 01 3F
 (1652821639.848598)  can0  012   [8]  E8 03 10 00 00 00 00 00
 (1652821639.848685)  can0  014   [5]  03 40 00 10 27
 (1652821639.852976)  can0  1E5   [8]  1C 00 77 10 00 00 00 DF
 (1652821639.858602)  can0  012   [8]  E8 03 10 00 00 00 00 00
 (1652821639.858686)  can0  014   [5]  04 40 00 10 27
 (1652821639.862916)  can0  1E5   [8]  1C 00 77 30 00 00 00 FF
 (1652821639.865227)  can0  010   [4]  28 76 01 01
 (1652821639.868609)  can0  012   [8]  E8 03 10 00 00 00 00 00
 (1652821639.868693)  can0  014   [5]  04 40 00 13 27
 (1652821639.872978)  can0  1E5   [8]  1C 00 77 50 00 00 01 1F
 (1652821639.878601)  can0  012   [8]  E8 03 10 00 00 00 00 00
 (1652821639.878686)  can0  014   [5]  04 40 00 0D 27
 (1652821639.882975)  can0  1E5   [8]  1C 00 77 70 00 00 01 3F
 (1652821639.888601)  can0  012   [8]  E8 03 10 00 00 00 00 00
 (1652821639.888686)  can0  014   [5]  04 40 00 10 27
 (1652821639.892974)  can0  1E5   [8]  1C 00 77 10 00 00 00 DF
 (1652821639.898599)  can0  012   [8]  E8 03 10 00 00 00 00 00
 (1652821639.898684)  can0  014   [5]  04 40 00 10 27
 (1652821639.902976)  can0  1E5   [8]  1C 00 77 30 00 00 00 FF
 (1652821639.908625)  can0  012   [8]  E8 03 10 00 00 00 00 00
 (1652821639.908681)  can0  014   [5]  04 40 00 10 27
 (1652821639.912974)  can0  1E5   [8]  1C 00 77 50 00 00 01 1F
 (1652821639.918600)  can0  012   [8]  E8 03 10 00 00 00 00 00
 (1652821639.918687)  can0  014   [5]  04 40 00 10 27
 (1652821639.922976)  can0  1E5   [8]  1C 00 77 70 00 00 01 3F
 (1652821639.928602)  can0  012   [8]  E8 03 10 00 00 00 00 00
 (1652821639.928660)  can0  014   [5]  04 50 00 10 27
 (1652821639.932977)  can0  1E5   [8]  1C 00 77 10 00 00 00 DF
 (1652821639.938600)  can0  012   [8]  E8 03 10 00 00 00 00 00
 (1652821639.938685)  can0  014   [5]  04 40 00 10 27
 (1652821639.942975)  can0  1E5   [8]  1C 00 77 30 00 00 00 FF
 (1652821639.948558)  can0  012   [8]  E8 03 10 00 00 00 00 00
 (1652821639.948662)  can0  014   [5]  05 50 00 10 27
 (1652821639.952945)  can0  1E5   [8]  1C 00 77 50 00 00 01 1F
 (1652821639.958601)  can0  012   [8]  E8 03 10 00 00 00 00 00
 (1652821639.958686)  can0  014   [5]  05 50 00 10 27
 (1652821639.962976)  can0  1E5   [8]  1C 00 77 70 00 00 01 3F
 (1652821639.965229)  can0  010   [4]  28 76 01 01
 (1652821639.965231)  can0  0E2   [2]  0A 03
 (1652821639.968600)  can0  012   [8]  E8 03 10 00 00 00 00 00
 (1652821639.968686)  can0  014   [5]  05 50 00 16 27
 (1652821639.972975)  can0  1E5   [8]  1C 00 77 10 00 00 00 DF
 (1652821639.978602)  can0  012   [8]  E8 03 10 00 00 00 00 00
 (1652821639.978687)  can0  014   [5]  05 50 00 0A 27
 (1652821639.982978)  can0  1E5   [8]  1C 00 77 30 00 00 00 FF
 (1652821639.988540)  can0  012   [8]  E8 03 10 00 00 00 00 00
 (1652821639.988661)  can0  014   [5]  05 50 00 10 27
 (1652821639.992975)  can0  1E5   [8]  1C 00 77 50 00 00 01 1F
 (1652821639.998546)  can0  012   [8]  E8 03 10 00 00 00 00 00
 (1652821639.998678)  can0  014   [5]  05 50 00 10 27
 (1652821640.002976)  can0  1E5   [8]  1C 00 77 70 00 00 01 3F
 (1652821640.008550)  can0  012   [8]  E8 03 10 00 00 00 00 00
 (1652821640.008667)  can0  014   [5]  05 50 00 10 27
 (1652821640.013001)  can0  1E5   [8]  1C 00 77 10 00 00 00 DF
 (1652821640.018604)  can0  012   [8]  E8 03 10 00 00 00 00 00
 (1652821640.018689)  can0  014   [5]  05 50 00 10 27
 (1652821640.022976)  can0  1E5   [8]  1C 00 77 30 00 00 00 FF
 (1652821640.028603)  can0  012   [8]  E8 03 10 00 00 00 00 00
 (1652821640.028687)  can0  014   [5]  05 50 00 10 27
 (1652821640.032978)  can0  1E5   [8]  1C 00 77 50 00 00 01 1F
 (1652821640.038556)  can0  012   [8]  E8 03 10 00 00 00 00 00
 (1652821640.038675)  can0  014   [5]  05 60 00 10 27
 (1652821640.042979)  can0  1E5   [8]  1C 00 77 70 00 00 01 3F
 (1652821640.048604)  can0  012   [8]  E8 03 10 00 00 00 00 00
 (1652821640.048690)  can0  014   [5]  05 50 00 10 27
 (1652821640.052978)  can0  1E5   [8]  1C 00 77 10 00 00 00 DF
 (1652821640.058604)  can0  012   [8]  E8 03 10 00 00 00 00 00
 (1652821640.058689)  can0  014   [5]  05 60 00 10 27
 (1652821640.062979)  can0  1E5   [8]  1C 00 77 30 00 00 00 FF
 (1652821640.065229)  can0  010   [4]  28 76 01 01
 (1652821640.068604)  can0  012   [8]  E8 03 10 00 00 00 00 00
 (1652821640.068689)  can0  014   [5]  06 50 00 13 27
 (1652821640.072978)  can0  1E5   [8]  1C 00 77 50 00 00 01 1F
 (1652821640.078605)  can0  012   [8]  E8 03 10 00 00 00 00 00
 (1652821640.078690)  can0  014   [5]  05 50 00 0D 27
 (1652821640.082954)  can0  1E5   [8]  1C 00 77 70 00 00 01 3F
 (1652821640.088543)  can0  012   [8]  E8 03 10 00 00 00 00 00
 (1652821640.088662)  can0  014   [5]  05 60 00 10 27
 (1652821640.092978)  can0  1E5   [8]  1C 00 77 10 00 00 00 DF
 (1652821640.098602)  can0  012   [8]  E8 03 10 00 00 00 00 00
 (1652821640.098687)  can0  014   [5]  06 50 00 10 27
 (1652821640.102979)  can0  1E5   [8]  1C 00 77 30 00 00 00 FF
 (1652821640.108605)  can0  012   [8]  E8 03 10 00 00 00 00 00
 (1652821640.108691)  can0  014   [5]  05 60 00 10 27
 (1652821640.112978)  can0  1E5   [8]  1C 00 77 50 00 00 01 1F
 (1652821640.118605)  can0  012   [8]  E8 03 10 00 00 00 00 00
 (1652821640.118689)  can0  014   [5]  06 60 00 10 27
 (1652821640.122978)  can0  1E5   [8]  1C 00 77 70 00 00 01 3F
 (1652821640.128606)  can0  012   [8]  E8 03 10 00 00 00 00 00
 (1652821640.128691)  can0  014   [5]  06 60 00 10 27
 (1652821640.132981)  can0  1E5   [8]  1C 00 77 10 00 00 00 DF
 (1652821640.138560)  can0  012   [8]  E8 03 10 00 00 00 00 00
 (1652821640.138664)  can0  014   [5]  06 60 00 10 27
 (1652821640.142981)  can0  1E5   [8]  1C 00 77 30 00 00 00 FF
 (1652821640.148606)  can0  012   [8]  E8 03 10 00 00 00 00 00
 (1652821640.148691)  can0  014   [5]  06 60 00 10 27
 (1652821640.152957)  can0  1E5   [8]  1C 00 77 50 00 00 01 1F
 (1652821640.158606)  can0  012   [8]  E8 03 10 00 00 00 00 00
 (1652821640.158692)  can0  014   [5]  06 60 00 10 27
 (1652821640.162981)  can0  1E5   [8]  1C 00 77 70 00 00 01 3F
 (1652821640.165255)  can0  010   [4]  28 76 01 01
 (1652821640.168604)  can0  012   [8]  E8 03 10 00 00 00 00 00
 (1652821640.168690)  can0  014   [5]  07 60 00 13 27
 (1652821640.172979)  can0  1E5   [8]  1C 00 77 10 00 00 00 DF
 (1652821640.178607)  can0  012   [8]  E8 03 10 00 00 00 00 00
 (1652821640.178691)  can0  014   [5]  06 60 00 0D 27
 (1652821640.182983)  can0  1E5   [8]  1C 00 77 30 00 00 00 FF
 (1652821640.188581)  can0  012   [8]  E8 03 10 00 00 00 00 00
 (1652821640.188679)  can0  014   [5]  07 70 00 10 27
 (1652821640.192949)  can0  1E5   [8]  1C 00 77 50 00 00 01 1F
 (1652821640.198605)  can0  012   [8]  E8 03 10 00 00 00 00 00
 (1652821640.198691)  can0  014   [5]  07 60 00 10 27
 (1652821640.202983)  can0  1E5   [8]  1C 00 77 70 00 00 01 3F
 (1652821640.208629)  can0  012   [8]  E8 03 10 00 00 00 00 00
 (1652821640.208686)  can0  014   [5]  07 70 00 10 27
 (1652821640.212982)  can0  1E5   [8]  1C 00 77 10 00 00 00 DF
 (1652821640.218607)  can0  012   [8]  E8 03 10 00 00 00 00 00
 (1652821640.218691)  can0  014   [5]  07 60 00 10 27
 (1652821640.222982)  can0  1E5   [8]  1C 00 77 30 00 00 00 FF
 (1652821640.228608)  can0  012   [8]  E8 03 10 00 00 00 00 00
 (1652821640.228694)  can0  014   [5]  08 70 00 10 27
 (1652821640.232981)  can0  1E5   [8]  1C 00 77 50 00 00 01 1F
 (1652821640.238605)  can0  012   [8]  E8 03 10 00 00 00 00 00
 (1652821640.238691)  can0  014   [5]  07 70 00 10 27
 (1652821640.242984)  can0  1E5   [8]  1C 00 77 70 00 00 01 3F
 (1652821640.248548)  can0  012   [8]  E8 03 10 00 00 00 00 00
 (1652821640.248683)  can0  014   [5]  07 70 00 10 27
 (1652821640.252982)  can0  1E5   [8]  1C 00 77 10 00 00 00 DF
 (1652821640.258626)  can0  012   [8]  E8 03 10 00 00 00 00 00
 (1652821640.258683)  can0  014   [5]  07 80 00 10 27
 (1652821640.263007)  can0  1E5   [8]  1C 00 77 30 00 00 00 FF
 (1652821640.265256)  can0  010   [4]  28 76 01 01
 (1652821640.268609)  can0  012   [8]  E8 03 10 00 00 00 00 00
 (1652821640.268693)  can0  014   [5]  08 70 00 13 27
 (1652821640.272984)  can0  1E5   [8]  1C 00 77 50 00 00 01 1F
 (1652821640.278608)  can0  012   [8]  E8 03 10 00 00 00 00 00
 (1652821640.278693)  can0  014   [5]  07 80 00 0F 27
 (1652821640.282984)  can0  1E5   [8]  1C 00 77 70 00 00 01 3F
 (1652821640.288609)  can0  012   [8]  E8 03 10 00 00 00 00 00
 (1652821640.288693)  can0  014   [5]  08 70 00 0E 27
 (1652821640.292950)  can0  1E5   [8]  1C 00 77 10 00 00 00 DF
 (1652821640.298607)  can0  012   [8]  E8 03 10 00 00 00 00 00
 (1652821640.298692)  can0  014   [5]  08 80 00 10 27
 (1652821640.302985)  can0  1E5   [8]  1C 00 77 30 00 00 00 FF
 (1652821640.308610)  can0  012   [8]  E8 03 10 00 00 00 00 00
 (1652821640.308695)  can0  014   [5]  07 80 00 10 27
 (1652821640.312985)  can0  1E5   [8]  1C 00 77 50 00 00 01 1F
 (1652821640.318609)  can0  012   [8]  E8 03 10 00 00 00 00 00
 (1652821640.318695)  can0  014   [5]  08 70 00 10 27
 (1652821640.322984)  can0  1E5   [8]  1C 00 77 70 00 00 01 3F
 (1652821640.328611)  can0  012   [8]  E8 03 10 00 00 00 00 00
 (1652821640.328696)  can0  014   [5]  08 80 00 10 27
 (1652821640.332985)  can0  1E5   [8]  1C 00 77 10 00 00 00 DF
 (1652821640.338609)  can0  012   [8]  E8 03 10 00 00 00 00 00
 (1652821640.338695)  can0  014   [5]  08 80 00 10 27
 (1652821640.342985)  can0  1E5   [8]  1C 00 77 30 00 00 00 FF
 (1652821640.348633)  can0  012   [8]  E8 03 10 00 00 00 00 00
 (1652821640.348689)  can0  014   [5]  09 80 00 10 27
 (1652821640.352928)  can0  1E5   [8]  1C 00 77 50 00 00 01 1F
 (1652821640.358611)  can0  012   [8]  E8 03 10 00 00 00 00 00
 (1652821640.358697)  can0  014   [5]  08 90 00 10 27
 (1652821640.362986)  can0  1E5   [8]  1C 00 77 70 00 00 01 3F
 (1652821640.365235)  can0  010   [4]  28 76 01 01
 (1652821640.368610)  can0  012   [8]  E8 03 10 00 00 00 00 00
 (1652821640.368695)  can0  014   [5]  09 80 00 13 27
 (1652821640.372985)  can0  1E5   [8]  1C 00 77 10 00 00 00 DF
 (1652821640.378610)  can0  012   [8]  E8 03 10 00 00 00 00 00
 (1652821640.378695)  can0  014   [5]  09 90 00 0D 27
 (1652821640.382986)  can0  1E5   [8]  1C 00 77 30 00 00 00 FF
 (1652821640.388610)  can0  012   [8]  E8 03 10 00 00 00 00 00
 (1652821640.388695)  can0  014   [5]  09 90 00 10 27
 (1652821640.392986)  can0  1E5   [8]  1C 00 77 50 00 00 01 1F
 (1652821640.398609)  can0  012   [8]  E8 03 10 00 00 00 00 00
 (1652821640.398695)  can0  014   [5]  09 80 00 10 27
 (1652821640.402955)  can0  1E5   [8]  1C 00 77 70 00 00 01 3F
 (1652821640.408608)  can0  012   [8]  E8 03 10 00 00 00 00 00
 (1652821640.408693)  can0  014   [5]  09 90 00 10 27
 (1652821640.412986)  can0  1E5   [8]  1C 00 77 10 00 00 00 DF
 (1652821640.418623)  can0  012   [8]  E8 03 10 00 00 00 00 00
 (1652821640.418625)  can0  014   [5]  09 90 00 10 27
 (1652821640.422987)  can0  1E5   [8]  1C 00 77 30 00 00 00 FF
 (1652821640.428611)  can0  012   [8]  E8 03 10 00 00 00 00 00
 (1652821640.428697)  can0  014   [5]  09 A0 00 10 27
 (1652821640.432987)  can0  1E5   [8]  1C 00 77 50 00 00 01 1F
 (1652821640.438612)  can0  012   [8]  E8 03 10 00 00 00 00 00
 (1652821640.438697)  can0  014   [5]  0A 90 00 10 27
 (1652821640.442987)  can0  1E5   [8]  1C 00 77 70 00 00 01 3F
 (1652821640.448611)  can0  012   [8]  E8 03 10 00 00 00 00 00
 (1652821640.448696)  can0  014   [5]  09 90 00 11 27
 (1652821640.452987)  can0  1E5   [8]  1C 00 77 10 00 00 00 DF
 (1652821640.458611)  can0  012   [8]  E8 03 10 00 00 00 00 00
 (1652821640.458696)  can0  014   [5]  09 80 00 0F 27
 (1652821640.462987)  can0  1E5   [8]  1C 00 77 30 00 00 00 FF
 (1652821640.465236)  can0  010   [4]  28 76 01 01
 (1652821640.468610)  can0  012   [8]  E8 03 10 00 00 00 00 00
 (1652821640.468695)  can0  014   [5]  0A A0 00 13 27
 (1652821640.472985)  can0  1E5   [8]  1C 00 77 50 00 00 01 1F
 (1652821640.478613)  can0  012   [8]  E8 03 10 00 00 00 00 00
 (1652821640.478616)  can0  014   [5]  0A 90 00 0D 27
 (1652821640.482988)  can0  1E5   [8]  1C 00 77 70 00 00 01 3F
 (1652821640.488610)  can0  012   [8]  E8 03 10 00 00 00 00 00
 (1652821640.488697)  can0  014   [5]  0A 90 00 10 27
 (1652821640.492985)  can0  1E5   [8]  1C 00 77 10 00 00 00 DF
 (1652821640.498553)  can0  012   [8]  E8 03 10 00 00 00 00 00
 (1652821640.498671)  can0  014   [5]  0A A0 00 10 27
 (1652821640.502986)  can0  1E5   [8]  1C 00 77 30 00 00 00 FF
 (1652821640.508610)  can0  012   [8]  E8 03 10 00 00 00 00 00
 (1652821640.508697)  can0  014   [5]  0A 90 00 10 27
 (1652821640.512988)  can0  1E5   [8]  1C 00 77 50 00 00 01 1F
 (1652821640.518615)  can0  012   [8]  E8 03 10 00 00 00 00 00
 (1652821640.518701)  can0  014   [5]  0B A0 00 10 27
 (1652821640.522988)  can0  1E5   [8]  1C 00 77 70 00 00 01 3F
 (1652821640.528613)  can0  012   [8]  E8 03 10 00 00 00 00 00
 (1652821640.528698)  can0  014   [5]  0B A0 00 10 27
 (1652821640.532990)  can0  1E5   [8]  1C 00 77 10 00 00 00 DF
 (1652821640.538614)  can0  012   [8]  E8 03 10 00 00 00 00 00
 (1652821640.538699)  can0  014   [5]  0A A0 00 10 27
 (1652821640.542988)  can0  1E5   [8]  1C 00 77 30 00 00 00 FF
 (1652821640.548613)  can0  012   [8]  E8 03 10 00 00 00 00 00
 (1652821640.548699)  can0  014   [5]  0B B0 00 11 27
 (1652821640.548833)  can0  0E4   [2]  0A 02
 (1652821640.552987)  can0  1E5   [8]  1C 00 77 50 00 00 01 1F
 (1652821640.558613)  can0  012   [8]  E8 03 10 00 00 00 00 00
 (1652821640.558699)  can0  014   [5]  0A A0 00 0F 27
 (1652821640.562989)  can0  1E5   [8]  1C 00 77 70 00 00 01 3F
 (1652821640.565238)  can0  010   [4]  28 76 01 01
 (1652821640.568615)  can0  012   [8]  E8 03 10 00 00 00 00 00
 (1652821640.568701)  can0  014   [5]  0B C0 00 17 27
 (1652821640.572990)  can0  1E5   [8]  1C 00 77 10 00 00 00 DF
 (1652821640.578617)  can0  012   [8]  E8 03 10 00 00 00 00 00
 (1652821640.578620)  can0  014   [5]  0B A0 00 09 27
 (1652821640.582990)  can0  1E5   [8]  1C 00 77 30 00 00 00 FF
 (1652821640.588616)  can0  012   [8]  E8 03 10 00 00 00 00 00
 (1652821640.588701)  can0  014   [5]  0C C0 00 10 27
 (1652821640.592989)  can0  1E5   [8]  1C 00 77 50 00 00 01 1F
 (1652821640.598613)  can0  012   [8]  E8 03 10 00 00 00 00 00
 (1652821640.598616)  can0  014   [5]  0B B0 00 10 27
 (1652821640.602991)  can0  1E5   [8]  1C 00 77 70 00 00 01 3F
 (1652821640.608614)  can0  012   [8]  E8 03 10 00 00 00 00 00
 (1652821640.608701)  can0  014   [5]  0C B0 00 13 27
 (1652821640.612990)  can0  1E5   [8]  1C 00 77 10 00 00 00 DF
 (1652821640.618615)  can0  012   [8]  E8 03 10 00 00 00 00 00
 (1652821640.618618)  can0  014   [5]  0B C0 00 0D 27
 (1652821640.622992)  can0  1E5   [8]  1C 00 77 30 00 00 00 FF
 (1652821640.628616)  can0  012   [8]  E8 03 10 00 00 00 00 00
 (1652821640.628702)  can0  014   [5]  0D C0 00 11 27
 (1652821640.632987)  can0  1E5   [8]  1C 00 77 50 00 00 01 1F
 (1652821640.638616)  can0  012   [8]  E8 03 10 00 00 00 00 00
 (1652821640.638702)  can0  014   [5]  0C C0 00 0F 27
 (1652821640.642992)  can0  1E5   [8]  1C 00 77 70 00 00 01 3F
 (1652821640.648616)  can0  012   [8]  E8 03 10 00 00 00 00 00
 (1652821640.648619)  can0  014   [5]  0C C0 00 10 27
 (1652821640.652992)  can0  1E5   [8]  1C 00 77 10 00 00 00 DF
 (1652821640.658615)  can0  012   [8]  E8 03 10 00 00 00 00 00
 (1652821640.658701)  can0  014   [5]  0C D0 00 12 27
 (1652821640.662991)  can0  1E5   [8]  1C 00 77 30 00 00 00 FF
 (1652821640.665252)  can0  010   [4]  28 76 01 01
 (1652821640.668616)  can0  012   [8]  E8 03 10 00 00 00 00 00
 (1652821640.668701)  can0  014   [5]  0C C0 00 11 27
 (1652821640.672957)  can0  1E5   [8]  1C 00 77 50 00 00 01 1F
 (1652821640.678615)  can0  012   [8]  E8 03 10 00 00 00 00 00
 (1652821640.678695)  can0  014   [5]  0C D0 00 0F 27
 (1652821640.682990)  can0  1E5   [8]  1C 00 77 70 00 00 01 3F
 (1652821640.688616)  can0  012   [8]  E8 03 10 00 00 00 00 00
 (1652821640.688702)  can0  014   [5]  0C C0 00 0E 27
 (1652821640.692992)  can0  1E5   [8]  1C 00 77 10 00 00 00 DF
 (1652821640.698616)  can0  012   [8]  E8 03 10 00 00 00 00 00
 (1652821640.698697)  can0  014   [5]  0D D0 00 10 27
 (1652821640.702990)  can0  1E5   [8]  1C 00 77 30 00 00 00 FF
 (1652821640.708615)  can0  012   [8]  E8 03 10 00 00 00 00 00
 (1652821640.708701)  can0  014   [5]  0D D0 00 10 27
 (1652821640.712991)  can0  1E5   [8]  1C 00 77 50 00 00 01 1F
 (1652821640.718617)  can0  012   [8]  E8 03 10 00 00 00 00 00
 (1652821640.718620)  can0  014   [5]  0D D0 00 10 27
 (1652821640.722993)  can0  1E5   [8]  1C 00 77 70 00 00 01 3F
 (1652821640.728637)  can0  012   [8]  E8 03 10 00 00 00 00 00
 (1652821640.728644)  can0  014   [5]  0D D0 00 10 27
 (1652821640.733013)  can0  1E5   [8]  1C 00 77 10 00 00 00 DF
 (1652821640.738617)  can0  012   [8]  E8 03 10 00 00 00 00 00
 (1652821640.738620)  can0  014   [5]  0E D0 00 10 27
 (1652821640.742993)  can0  1E5   [8]  1C 00 77 30 00 00 00 FF
 (1652821640.748559)  can0  012   [8]  E8 03 10 00 00 00 00 00
 (1652821640.748676)  can0  014   [5]  0E E0 00 10 27
 (1652821640.752990)  can0  1E5   [8]  1C 00 77 50 00 00 01 1F
 (1652821640.758616)  can0  012   [8]  E8 03 10 00 00 00 00 00
 (1652821640.758702)  can0  014   [5]  0D D0 00 10 27
 (1652821640.762994)  can0  1E5   [8]  1C 00 77 70 00 00 01 3F
 (1652821640.765197)  can0  010   [4]  28 76 01 01
 (1652821640.768619)  can0  012   [8]  E8 03 10 00 00 00 00 00
 (1652821640.768622)  can0  014   [5]  0E E0 00 13 27
 (1652821640.772993)  can0  1E5   [8]  1C 00 77 10 00 00 00 DF
 (1652821640.778618)  can0  012   [8]  E8 03 10 00 00 00 00 00
 (1652821640.778703)  can0  014   [5]  0D E0 00 0D 27
 (1652821640.782994)  can0  1E5   [8]  1C 00 77 30 00 00 00 FF
 (1652821640.788619)  can0  012   [8]  E8 03 10 00 00 00 00 00
 (1652821640.788622)  can0  014   [5]  0D E0 00 10 27
 (1652821640.792992)  can0  1E5   [8]  1C 00 77 50 00 00 01 1F
 (1652821640.798616)  can0  012   [8]  E8 03 10 00 00 00 00 00
 (1652821640.798702)  can0  014   [5]  0E E0 00 10 27
 (1652821640.802991)  can0  1E5   [8]  1C 00 77 70 00 00 01 3F
 (1652821640.808619)  can0  012   [8]  E8 03 10 00 00 00 00 00
 (1652821640.808704)  can0  014   [5]  0D E0 00 10 27
 (1652821640.812995)  can0  1E5   [8]  1C 00 77 10 00 00 00 DF
 (1652821640.818620)  can0  012   [8]  E8 03 10 00 00 00 00 00
 (1652821640.818623)  can0  014   [5]  0E E0 00 10 27
 (1652821640.818839)  can0  0E3   [2]  2A 03
 (1652821640.822995)  can0  1E5   [8]  1C 00 77 30 00 00 00 FF
 (1652821640.828620)  can0  012   [8]  E8 03 10 00 00 00 00 00
 (1652821640.828622)  can0  014   [5]  0F F0 00 13 27
 (1652821640.832996)  can0  1E5   [8]  1C 00 77 50 00 00 01 1F
 (1652821640.838620)  can0  012   [8]  E8 03 10 00 00 00 00 00
 (1652821640.838705)  can0  014   [5]  0D F0 00 0D 27
 (1652821640.842994)  can0  1E5   [8]  1C 00 77 70 00 00 01 3F
 (1652821640.848618)  can0  012   [8]  E8 03 10 00 00 00 00 00
 (1652821640.848704)  can0  014   [5]  0F F0 00 10 27
 (1652821640.852994)  can0  1E5   [8]  1C 00 77 10 00 00 00 DF
 (1652821640.858495)  can0  012   [8]  E8 03 10 00 00 00 00 00
 (1652821640.858715)  can0  014   [5]  0E F0 00 10 27
 (1652821640.862995)  can0  1E5   [8]  1C 00 77 30 00 00 00 FF
 (1652821640.865246)  can0  010   [4]  28 76 01 01
 (1652821640.868621)  can0  012   [8]  E8 03 10 00 00 00 00 00
 (1652821640.868706)  can0  014   [5]  0E F0 00 13 27
 (1652821640.872995)  can0  1E5   [8]  1C 00 77 50 00 00 01 1F
 (1652821640.878622)  can0  012   [8]  E8 03 10 00 00 00 00 00
 (1652821640.878624)  can0  014   [5]  0E F0 00 0D 27
 (1652821640.882996)  can0  1E5   [8]  1C 00 77 70 00 00 01 3F
 (1652821640.888620)  can0  012   [8]  E8 03 10 00 00 00 00 00
 (1652821640.888623)  can0  014   [5]  0F 00 01 10 27
 (1652821640.892996)  can0  1E5   [8]  1C 00 77 10 00 00 00 DF
 (1652821640.898505)  can0  012   [8]  E8 03 10 00 00 00 00 00
 (1652821640.898716)  can0  014   [5]  0F F0 00 10 27
 (1652821640.902995)  can0  1E5   [8]  1C 00 77 30 00 00 00 FF
 (1652821640.908620)  can0  012   [8]  E8 03 10 00 00 00 00 00
 (1652821640.908705)  can0  014   [5]  0F F0 00 10 27
 (1652821640.912996)  can0  1E5   [8]  1C 00 77 50 00 00 01 1F
 (1652821640.918621)  can0  012   [8]  E8 03 10 00 00 00 00 00
 (1652821640.918624)  can0  014   [5]  11 00 01 10 27
 (1652821640.922996)  can0  1E5   [8]  1C 00 77 70 00 00 01 3F
 (1652821640.928623)  can0  012   [8]  E8 03 10 00 00 00 00 00
 (1652821640.928626)  can0  014   [5]  0F 00 01 10 27
 (1652821640.932997)  can0  1E5   [8]  1C 00 77 10 00 00 00 DF
 (1652821640.938621)  can0  012   [8]  E8 03 10 00 00 00 00 00
 (1652821640.938624)  can0  014   [5]  11 10 01 14 27
 (1652821640.942998)  can0  1E5   [8]  1C 00 77 30 00 00 00 FF
 (1652821640.948522)  can0  012   [8]  E8 03 10 00 00 00 00 00
 (1652821640.948728)  can0  014   [5]  10 F0 00 0C 27
 (1652821640.952996)  can0  1E5   [8]  1C 00 77 50 00 00 01 1F
 (1652821640.958621)  can0  012   [8]  E8 03 10 00 00 00 00 00
 (1652821640.958623)  can0  014   [5]  0F 10 01 10 27
 (1652821640.962997)  can0  1E5   [8]  1C 00 77 70 00 00 01 3F
 (1652821640.965247)  can0  010   [4]  28 76 01 01
 (1652821640.965249)  can0  0E2   [2]  32 03
 (1652821640.968624)  can0  012   [8]  E8 03 10 00 00 00 00 00
 (1652821640.968626)  can0  014   [5]  10 00 01 16 27
 (1652821640.972998)  can0  1E5   [8]  1C 00 77 10 00 00 00 DF
 (1652821640.978497)  can0  012   [8]  E8 03 10 00 00 00 00 00
 (1652821640.978721)  can0  014   [5]  10 10 01 0A 27
 (1652821640.983020)  can0  1E5   [8]  1C 00 77 30 00 00 00 FF
 (1652821640.988622)  can0  012   [8]  E8 03 10 00 00 00 00 00
 (1652821640.988706)  can0  014   [5]  11 00 01 10 27
 (1652821640.992998)  can0  1E5   [8]  1C 00 77 50 00 00 01 1F
 (1652821640.998562)  can0  012   [8]  E8 03 10 00 00 00 00 00
 (1652821640.998706)  can0  014   [5]  10 10 01 10 27
 (1652821641.002995)  can0  1E5   [8]  1C 00 77 70 00 00 01 3F
 (1652821641.008499)  can0  012   [8]  E8 03 10 00 00 00 00 00
 (1652821641.008723)  can0  014   [5]  10 10 01 10 27
 (1652821641.012997)  can0  1E5   [8]  1C 00 77 10 00 00 00 DF
 (1652821641.018498)  can0  012   [8]  E8 03 10 00 00 00 00 00
 (1652821641.018723)  can0  014   [5]  11 10 01 10 27
 (1652821641.022999)  can0  1E5   [8]  1C 00 77 30 00 00 00 FF
 (1652821641.028625)  can0  012   [8]  E8 03 10 00 00 00 00 00
 (1652821641.028627)  can0  014   [5]  10 00 01 10 27
 (1652821641.032998)  can0  1E5   [8]  1C 00 77 50 00 00 01 1F
 (1652821641.038498)  can0  012   [8]  E8 03 10 00 00 00 00 00
 (1652821641.038721)  can0  014   [5]  10 10 01 10 27
 (1652821641.042999)  can0  1E5   [8]  1C 00 77 70 00 00 01 3F
 (1652821641.048644)  can0  012   [8]  E8 03 10 00 00 00 00 00
 (1652821641.048650)  can0  014   [5]  10 10 01 10 27
 (1652821641.053000)  can0  1E5   [8]  1C 00 77 10 00 00 00 DF
 (1652821641.058624)  can0  012   [8]  E8 03 10 00 00 00 00 00
 (1652821641.058710)  can0  014   [5]  10 10 01 10 27
 (1652821641.062999)  can0  1E5   [8]  1C 00 77 30 00 00 00 FF
 (1652821641.065249)  can0  010   [4]  28 76 01 01
 (1652821641.068499)  can0  012   [8]  E8 03 10 00 00 00 00 00
 (1652821641.068723)  can0  014   [5]  11 10 01 13 27
 (1652821641.072999)  can0  1E5   [8]  1C 00 77 50 00 00 01 1F
 (1652821641.078625)  can0  012   [8]  E8 03 10 00 00 00 00 00
 (1652821641.078627)  can0  014   [5]  11 20 01 0D 27
 (1652821641.083000)  can0  1E5   [8]  1C 00 77 70 00 00 01 3F
 (1652821641.088498)  can0  012   [8]  E8 03 10 00 00 00 00 00
 (1652821641.088723)  can0  014   [5]  11 20 01 14 27
 (1652821641.093000)  can0  1E5   [8]  1C 00 77 10 00 00 00 DF
 (1652821641.098622)  can0  012   [8]  E8 03 10 00 00 00 00 00
 (1652821641.098624)  can0  014   [5]  12 10 01 0F 27
 (1652821641.103006)  can0  1E5   [8]  1C 00 77 30 00 00 00 FF
 (1652821641.108500)  can0  012   [8]  E8 03 10 00 00 00 00 00
 (1652821641.108722)  can0  014   [5]  11 20 01 0D 27
 (1652821641.112997)  can0  1E5   [8]  1C 00 77 50 00 00 01 1F
 (1652821641.118625)  can0  012   [8]  E8 03 10 00 00 00 00 00
 (1652821641.118627)  can0  014   [5]  11 20 01 10 27
 (1652821641.123001)  can0  1E5   [8]  1C 00 77 70 00 00 01 3F
 (1652821641.128501)  can0  012   [8]  E8 03 10 00 00 00 00 00
 (1652821641.128711)  can0  014   [5]  11 20 01 10 27
 (1652821641.133001)  can0  1E5   [8]  1C 00 77 10 00 00 00 DF
 (1652821641.138501)  can0  012   [8]  E8 03 10 00 00 00 00 00
 (1652821641.138725)  can0  014   [5]  12 10 01 10 27
 (1652821641.143001)  can0  1E5   [8]  1C 00 77 30 00 00 00 FF
 (1652821641.148500)  can0  012   [8]  E8 03 10 00 00 00 00 00
 (1652821641.148726)  can0  014   [5]  12 30 01 14 27
 (1652821641.153002)  can0  1E5   [8]  1C 00 77 50 00 00 01 1F
 (1652821641.158626)  can0  012   [8]  E8 03 10 00 00 00 00 00
 (1652821641.158629)  can0  014   [5]  13 20 01 0C 27
 (1652821641.163003)  can0  1E5   [8]  1C 00 77 70 00 00 01 3F
 (1652821641.165251)  can0  010   [4]  28 76 01 01
 (1652821641.168502)  can0  012   [8]  E8 03 10 00 00 00 00 00
 (1652821641.168725)  can0  014   [5]  14 30 01 13 27
 (1652821641.173003)  can0  1E5   [8]  1C 00 77 10 00 00 00 DF
 (1652821641.178488)  can0  012   [8]  E8 03 10 00 00 00 00 00
 (1652821641.178728)  can0  014   [5]  12 20 01 0D 27
 (1652821641.183024)  can0  1E5   [8]  1C 00 77 30 00 00 00 FF
 (1652821641.188628)  can0  012   [8]  E8 03 10 00 00 00 00 00
 (1652821641.188630)  can0  014   [5]  13 30 01 10 27
 (1652821641.193002)  can0  1E5   [8]  1C 00 77 50 00 00 01 1F
 (1652821641.198499)  can0  012   [8]  E8 03 10 00 00 00 00 00
 (1652821641.198722)  can0  014   [5]  12 30 01 10 27
 (1652821641.203003)  can0  1E5   [8]  1C 00 77 70 00 00 01 3F
 (1652821641.208503)  can0  012   [8]  E8 03 10 00 00 00 00 00
 (1652821641.208722)  can0  014   [5]  12 30 01 10 27
 (1652821641.213003)  can0  1E5   [8]  1C 00 77 10 00 00 00 DF
 (1652821641.218502)  can0  012   [8]  E8 03 10 00 00 00 00 00
 (1652821641.218726)  can0  014   [5]  14 30 01 10 27
 (1652821641.223001)  can0  1E5   [8]  1C 00 77 30 00 00 00 FF
 (1652821641.228503)  can0  012   [8]  E8 03 10 00 00 00 00 00
 (1652821641.228723)  can0  014   [5]  14 30 01 10 27
 (1652821641.233002)  can0  1E5   [8]  1C 00 77 50 00 00 01 1F
 (1652821641.238502)  can0  012   [8]  E8 03 10 00 00 00 00 00
 (1652821641.238724)  can0  014   [5]  12 40 01 14 27
 (1652821641.243003)  can0  1E5   [8]  1C 00 77 70 00 00 01 3F
 (1652821641.248556)  can0  012   [8]  E8 03 10 00 00 00 00 00
 (1652821641.248693)  can0  014   [5]  14 30 01 0C 27
 (1652821641.253001)  can0  1E5   [8]  1C 00 79 10 01 00 00 E2
 (1652821641.258502)  can0  012   [8]  E8 03 10 00 00 00 00 00
 (1652821641.258727)  can0  014   [5]  13 30 01 10 27
 (1652821641.263003)  can0  1E5   [8]  1C 00 77 30 00 00 00 FF
 (1652821641.265252)  can0  010   [4]  28 76 01 01
 (1652821641.268503)  can0  012   [8]  E8 03 10 00 00 00 00 00
 (1652821641.268724)  can0  014   [5]  14 30 01 13 27
 (1652821641.273003)  can0  1E5   [8]  1C 00 77 50 00 00 01 1F
 (1652821641.278504)  can0  012   [8]  E8 03 10 00 00 00 00 00
 (1652821641.278726)  can0  014   [5]  14 40 01 0D 27
 (1652821641.283003)  can0  1E5   [8]  1C 00 77 70 00 00 01 3F
 (1652821641.288503)  can0  012   [8]  E8 03 10 00 00 00 00 00
 (1652821641.288724)  can0  014   [5]  14 30 01 10 27
 (1652821641.293004)  can0  1E5   [8]  1C 00 77 10 00 00 00 DF
 (1652821641.298502)  can0  012   [8]  E8 03 10 00 00 00 00 00
 (1652821641.298724)  can0  014   [5]  14 40 01 10 27
 (1652821641.303004)  can0  1E5   [8]  1C 00 77 30 00 00 00 FF
 (1652821641.308504)  can0  012   [8]  E8 03 10 00 00 00 00 00
 (1652821641.308728)  can0  014   [5]  14 40 01 13 27
 (1652821641.313004)  can0  1E5   [8]  1C 00 77 50 00 00 01 1F
 (1652821641.318506)  can0  012   [8]  E8 03 10 00 00 00 00 00
 (1652821641.318727)  can0  014   [5]  13 40 01 0D 27
 (1652821641.323004)  can0  1E5   [8]  1C 00 77 70 00 00 01 3F
 (1652821641.328504)  can0  012   [8]  E8 03 10 00 00 00 00 00
 (1652821641.328703)  can0  014   [5]  14 50 01 10 27
 (1652821641.333005)  can0  1E5   [8]  1C 00 77 10 00 00 00 DF
 (1652821641.338505)  can0  012   [8]  E8 03 10 00 00 00 00 00
 (1652821641.338728)  can0  014   [5]  14 40 01 10 27
 (1652821641.343006)  can0  1E5   [8]  1C 00 77 30 00 00 00 FF
 (1652821641.348527)  can0  012   [8]  E8 03 10 00 00 00 00 00
 (1652821641.348737)  can0  014   [5]  14 40 01 10 27
 (1652821641.353005)  can0  1E5   [8]  1C 00 77 50 00 00 01 1F
 (1652821641.358506)  can0  012   [8]  E8 03 10 00 00 00 00 00
 (1652821641.358728)  can0  014   [5]  14 50 01 10 27
 (1652821641.363005)  can0  1E5   [8]  1C 00 77 70 00 00 01 3F
 (1652821641.365130)  can0  010   [4]  28 76 01 01
 (1652821641.368504)  can0  012   [8]  E8 03 10 00 00 00 00 00
 (1652821641.368726)  can0  014   [5]  18 50 01 12 27
 (1652821641.373007)  can0  1E5   [8]  1C 00 77 10 00 00 00 DF
 (1652821641.378505)  can0  012   [8]  E8 03 10 00 00 00 00 00
 (1652821641.378729)  can0  014   [5]  15 50 01 11 27
 (1652821641.383005)  can0  1E5   [8]  1C 00 77 30 00 00 00 FF
 (1652821641.388508)  can0  012   [8]  E8 03 10 00 00 00 00 00
 (1652821641.388726)  can0  014   [5]  14 50 01 0D 27
 (1652821641.392960)  can0  1E5   [8]  1C 00 77 50 00 00 01 1F
 (1652821641.398504)  can0  012   [8]  E8 03 10 00 00 00 00 00
 (1652821641.398726)  can0  014   [5]  14 50 01 10 27
 (1652821641.403003)  can0  1E5   [8]  1C 00 77 70 00 00 01 3F
 (1652821641.408503)  can0  012   [8]  E8 03 10 00 00 00 00 00
 (1652821641.408726)  can0  014   [5]  14 50 01 10 27
 (1652821641.413006)  can0  1E5   [8]  1C 00 77 10 00 00 00 DF
 (1652821641.418506)  can0  012   [8]  E8 03 10 00 00 00 00 00
 (1652821641.418730)  can0  014   [5]  17 50 01 10 27
 (1652821641.423006)  can0  1E5   [8]  1C 00 77 30 00 00 00 FF
 (1652821641.428506)  can0  012   [8]  E8 03 10 00 00 00 00 00
 (1652821641.428727)  can0  014   [5]  18 50 01 10 27
 (1652821641.433007)  can0  1E5   [8]  1C 00 77 50 00 00 01 1F
 (1652821641.438507)  can0  012   [8]  E8 03 10 00 00 00 00 00
 (1652821641.438726)  can0  014   [5]  15 70 01 12 27
 (1652821641.443005)  can0  1E5   [8]  1C 00 77 70 00 00 01 3F
 (1652821641.448508)  can0  012   [8]  E8 03 10 00 00 00 00 00
 (1652821641.448726)  can0  014   [5]  16 50 01 0E 27
 (1652821641.453007)  can0  1E5   [8]  1C 00 77 10 00 00 00 DF
 (1652821641.458513)  can0  012   [8]  E8 03 10 00 00 00 00 00
 (1652821641.458705)  can0  014   [5]  14 70 01 10 27
 (1652821641.463006)  can0  1E5   [8]  1C 00 77 30 00 00 00 FF
 (1652821641.465132)  can0  010   [4]  28 76 01 01
 (1652821641.468507)  can0  012   [8]  E8 03 10 00 00 00 00 00
 (1652821641.468727)  can0  014   [5]  18 60 01 13 27
 (1652821641.473007)  can0  1E5   [8]  1C 00 77 50 00 00 01 1F
 (1652821641.478531)  can0  012   [8]  E8 03 10 00 00 00 00 00
 (1652821641.478737)  can0  014   [5]  16 60 01 0D 27
 (1652821641.483032)  can0  1E5   [8]  1C 00 77 70 00 00 01 3F
 (1652821641.488507)  can0  012   [8]  E8 03 10 00 00 00 00 00
 (1652821641.488728)  can0  014   [5]  17 60 01 10 27
 (1652821641.492881)  can0  1E5   [8]  1C 00 77 10 00 00 00 DF
 (1652821641.498518)  can0  012   [8]  E8 03 10 00 00 00 00 00
 (1652821641.498713)  can0  014   [5]  17 70 01 14 27
 (1652821641.503006)  can0  1E5   [8]  1C 00 77 30 00 00 00 FF
 (1652821641.508485)  can0  012   [8]  E8 03 10 00 00 00 00 00
 (1652821641.508724)  can0  014   [5]  16 60 01 0C 27
 (1652821641.513008)  can0  1E5   [8]  1C 00 77 50 00 00 01 1F
 (1652821641.518509)  can0  012   [8]  E8 03 10 00 00 00 00 00
 (1652821641.518728)  can0  014   [5]  17 70 01 10 27
 (1652821641.523008)  can0  1E5   [8]  1C 00 77 70 00 00 01 3F
 (1652821641.528507)  can0  012   [8]  E8 03 10 00 00 00 00 00
 (1652821641.528729)  can0  014   [5]  17 60 01 10 27
 (1652821641.533010)  can0  1E5   [8]  1C 00 77 10 00 00 00 DF
 (1652821641.538510)  can0  012   [8]  E8 03 10 00 00 00 00 00
 (1652821641.538728)  can0  014   [5]  16 70 01 10 27
 (1652821641.543031)  can0  1E5   [8]  1C 00 77 30 00 00 00 FF
 (1652821641.548531)  can0  012   [8]  E8 03 10 00 00 00 00 00
 (1652821641.548742)  can0  014   [5]  17 70 01 15 27
 (1652821641.548829)  can0  0E4   [2]  32 02
 (1652821641.552884)  can0  1E5   [8]  1C 00 77 50 00 00 01 1F
 (1652821641.558506)  can0  012   [8]  E8 03 10 00 00 00 00 00
 (1652821641.558733)  can0  014   [5]  17 60 01 0B 27
 (1652821641.563010)  can0  1E5   [8]  1C 00 77 70 00 00 01 3F
 (1652821641.565135)  can0  010   [4]  28 76 01 01
 (1652821641.568509)  can0  012   [8]  E8 03 10 00 00 00 00 00
 (1652821641.568729)  can0  014   [5]  17 70 01 14 27
 (1652821641.573010)  can0  1E5   [8]  1C 00 77 10 00 00 00 DF
 (1652821641.578533)  can0  012   [8]  E8 03 10 00 00 00 00 00
 (1652821641.578740)  can0  014   [5]  16 70 01 0C 27
 (1652821641.582908)  can0  1E5   [8]  1C 00 77 30 00 00 00 FF
 (1652821641.588510)  can0  012   [8]  E8 03 10 00 00 00 00 00
 (1652821641.588733)  can0  014   [5]  17 70 01 10 27
 (1652821641.593010)  can0  1E5   [8]  1C 00 77 50 00 00 01 1F
 (1652821641.598508)  can0  012   [8]  E8 03 10 00 00 00 00 00
 (1652821641.598730)  can0  014   [5]  18 80 01 12 27
 (1652821641.603009)  can0  1E5   [8]  1C 00 77 70 00 00 01 3F
 (1652821641.608510)  can0  012   [8]  E8 03 10 00 00 00 00 00
 (1652821641.608731)  can0  014   [5]  18 80 01 11 27
 (1652821641.612885)  can0  1E5   [8]  1C 00 77 10 00 00 00 DF
 (1652821641.618510)  can0  012   [8]  E8 03 10 00 00 00 00 00
 (1652821641.618730)  can0  014   [5]  17 80 01 0D 27
 (1652821641.623011)  can0  1E5   [8]  1C 00 77 30 00 00 00 FF
 (1652821641.628510)  can0  012   [8]  E8 03 10 00 00 00 00 00
 (1652821641.628731)  can0  014   [5]  17 80 01 10 27
 (1652821641.632885)  can0  1E5   [8]  1C 00 77 50 00 00 01 1F
 (1652821641.638511)  can0  012   [8]  E8 03 10 00 00 00 00 00
 (1652821641.638731)  can0  014   [5]  18 80 01 10 27
 (1652821641.642886)  can0  1E5   [8]  1C 00 77 70 00 00 01 3F
 (1652821641.648511)  can0  012   [8]  E8 03 10 00 00 00 00 00
 (1652821641.648732)  can0  014   [5]  18 70 01 10 27
 (1652821641.653010)  can0  1E5   [8]  1C 00 77 10 00 00 00 DF
 (1652821641.658512)  can0  012   [8]  E8 03 10 00 00 00 00 00
 (1652821641.658731)  can0  014   [5]  19 80 01 10 27
 (1652821641.663012)  can0  1E5   [8]  1C 00 77 30 00 00 00 FF
 (1652821641.665261)  can0  010   [4]  28 76 01 01
 (1652821641.668511)  can0  012   [8]  E8 03 10 00 00 00 00 00
 (1652821641.668731)  can0  014   [5]  18 90 01 17 27
 (1652821641.673012)  can0  1E5   [8]  1C 00 77 50 00 00 01 1F
 (1652821641.678534)  can0  012   [8]  E8 03 10 00 00 00 00 00
 (1652821641.678744)  can0  014   [5]  18 80 01 09 27
 (1652821641.682908)  can0  1E5   [8]  1C 00 77 70 00 00 01 3F
 (1652821641.688510)  can0  012   [8]  E8 03 10 00 00 00 00 00
 (1652821641.688731)  can0  014   [5]  17 80 01 10 27
 (1652821641.692887)  can0  1E5   [8]  1C 00 77 10 00 00 00 DF
 (1652821641.698509)  can0  012   [8]  E8 03 10 00 00 00 00 00
 (1652821641.698735)  can0  014   [5]  18 80 01 14 27
 (1652821641.702886)  can0  1E5   [8]  1C 00 77 30 00 00 00 FF
 (1652821641.708511)  can0  012   [8]  E8 03 10 00 00 00 00 00
 (1652821641.708738)  can0  014   [5]  18 70 01 0C 27
 (1652821641.712887)  can0  1E5   [8]  1C 00 77 50 00 00 01 1F
 (1652821641.718513)  can0  012   [8]  E8 03 10 00 00 00 00 00
 (1652821641.718732)  can0  014   [5]  19 90 01 10 27
 (1652821641.722888)  can0  1E5   [8]  1C 00 77 70 00 00 01 3F
 (1652821641.728513)  can0  012   [8]  E8 03 10 00 00 00 00 00
 (1652821641.728735)  can0  014   [5]  16 80 01 10 27
 (1652821641.732888)  can0  1E5   [8]  1C 00 77 10 00 00 00 DF
 (1652821641.738513)  can0  012   [8]  E8 03 10 00 00 00 00 00
 (1652821641.738737)  can0  014   [5]  16 80 01 10 27
 (1652821641.742886)  can0  1E5   [8]  1C 00 77 30 00 00 00 FF
 (1652821641.748526)  can0  012   [8]  E8 03 10 00 00 00 00 00
 (1652821641.748719)  can0  014   [5]  18 90 01 11 27
 (1652821641.753011)  can0  1E5   [8]  1C 00 77 50 00 00 01 1F
 (1652821641.758510)  can0  012   [8]  E8 03 10 00 00 00 00 00
 (1652821641.758737)  can0  014   [5]  19 70 01 0F 27
 (1652821641.762889)  can0  1E5   [8]  1C 00 77 70 00 00 01 3F
 (1652821641.765264)  can0  010   [4]  28 76 01 01
 (1652821641.768515)  can0  012   [8]  E8 03 10 00 00 00 00 00
 (1652821641.768738)  can0  014   [5]  1A 90 01 13 27
 (1652821641.772861)  can0  1E5   [8]  1C 00 77 10 00 00 00 DF
 (1652821641.778514)  can0  012   [8]  E8 03 10 00 00 00 00 00
 (1652821641.778734)  can0  014   [5]  1A A0 01 0D 27
 (1652821641.782890)  can0  1E5   [8]  1C 00 77 30 00 00 00 FF
 (1652821641.788513)  can0  012   [8]  E8 03 10 00 00 00 00 00
 (1652821641.788734)  can0  014   [5]  18 80 01 10 27
 (1652821641.792889)  can0  1E5   [8]  1C 00 77 50 00 00 01 1F
 (1652821641.798512)  can0  012   [8]  E8 03 10 00 00 00 00 00
 (1652821641.798736)  can0  014   [5]  19 A0 01 10 27
 (1652821641.802886)  can0  1E5   [8]  1C 00 77 70 00 00 01 3F
 (1652821641.808513)  can0  012   [8]  E8 03 10 00 00 00 00 00
 (1652821641.808734)  can0  014   [5]  19 80 01 10 27
 (1652821641.812888)  can0  1E5   [8]  1C 00 77 10 00 00 00 DF
 (1652821641.818517)  can0  012   [8]  E8 03 10 00 00 00 00 00
 (1652821641.818738)  can0  014   [5]  1A 90 01 10 27
 (1652821641.818852)  can0  0E3   [2]  52 03
 (1652821641.822889)  can0  1E5   [8]  1C 00 77 30 00 00 00 FF
 (1652821641.828515)  can0  012   [8]  E8 03 10 00 00 00 00 00
 (1652821641.828734)  can0  014   [5]  1A A0 01 13 27
 (1652821641.833014)  can0  1E5   [8]  1C 00 77 50 00 00 01 1F
 (1652821641.838501)  can0  012   [8]  E8 03 10 00 00 00 00 00
 (1652821641.838741)  can0  014   [5]  1A 90 01 0D 27
 (1652821641.842913)  can0  1E5   [8]  1C 00 77 70 00 00 01 3F
 (1652821641.848539)  can0  012   [8]  E8 03 10 00 00 00 00 00
 (1652821641.848745)  can0  014   [5]  19 A0 01 10 27
 (1652821641.852888)  can0  1E5   [8]  1C 00 77 10 00 00 00 DF
 (1652821641.858515)  can0  012   [8]  E8 03 10 00 00 00 00 00
 (1652821641.858739)  can0  014   [5]  1A 90 01 10 27
 (1652821641.862891)  can0  1E5   [8]  1C 00 77 30 00 00 00 FF
 (1652821641.865264)  can0  010   [4]  28 76 01 01
 (1652821641.868514)  can0  012   [8]  E8 03 10 00 00 00 00 00
 (1652821641.868738)  can0  014   [5]  1A A0 01 15 27
 (1652821641.872843)  can0  1E5   [8]  1C 00 77 50 00 00 01 1F
 (1652821641.878517)  can0  012   [8]  E8 03 10 00 00 00 00 00
 (1652821641.878739)  can0  014   [5]  1A A0 01 0B 27
 (1652821641.882890)  can0  1E5   [8]  1C 00 77 70 00 00 01 3F
 (1652821641.888513)  can0  012   [8]  E8 03 10 00 00 00 00 00
 (1652821641.888735)  can0  014   [5]  1B A0 01 12 27
 (1652821641.892890)  can0  1E5   [8]  1C 00 77 10 00 00 00 DF
 (1652821641.898514)  can0  012   [8]  E8 03 10 00 00 00 00 00
 (1652821641.898739)  can0  014   [5]  1A A0 01 12 27
 (1652821641.902889)  can0  1E5   [8]  1C 00 77 30 00 00 00 FF
 (1652821641.908516)  can0  012   [8]  E8 03 10 00 00 00 00 00
 (1652821641.908738)  can0  014   [5]  19 90 01 0C 27
 (1652821641.912845)  can0  1E5   [8]  1C 00 77 50 00 00 01 1F
 (1652821641.918515)  can0  012   [8]  E8 03 10 00 00 00 00 00
 (1652821641.918738)  can0  014   [5]  1B 80 01 10 27
 (1652821641.922891)  can0  1E5   [8]  1C 00 77 70 00 00 01 3F
 (1652821641.928517)  can0  012   [8]  E8 03 10 00 00 00 00 00
 (1652821641.928740)  can0  014   [5]  1B 90 01 10 27
 (1652821641.932892)  can0  1E5   [8]  1C 00 77 10 00 00 00 DF
 (1652821641.938516)  can0  012   [8]  E8 03 10 00 00 00 00 00
 (1652821641.938737)  can0  014   [5]  1B A0 01 10 27
 (1652821641.942893)  can0  1E5   [8]  1C 00 77 30 00 00 00 FF
 (1652821641.948516)  can0  012   [8]  E8 03 10 00 00 00 00 00
 (1652821641.948737)  can0  014   [5]  1B B0 01 10 27
 (1652821641.952893)  can0  1E5   [8]  1C 00 77 50 00 00 01 1F
 (1652821641.958517)  can0  012   [8]  E8 03 10 00 00 00 00 00
 (1652821641.958740)  can0  014   [5]  1A B0 01 10 27
 (1652821641.962893)  can0  1E5   [8]  1C 00 77 70 00 00 01 3F
 (1652821641.965141)  can0  010   [4]  28 76 01 01
 (1652821641.965362)  can0  0E2   [2]  5A 03
 (1652821641.968518)  can0  012   [8]  E8 03 10 00 00 00 00 00
 (1652821641.968737)  can0  014   [5]  1B B0 01 1B 27
 (1652821641.972893)  can0  1E5   [8]  1C 00 77 10 00 00 00 DF
 (1652821641.978519)  can0  012   [8]  E8 03 10 00 00 00 00 00
 (1652821641.978737)  can0  014   [5]  1B C0 01 09 27
 (1652821641.982894)  can0  1E5   [8]  1C 00 77 30 00 00 00 FF
 (1652821641.988517)  can0  012   [8]  E8 03 10 00 00 00 00 00
 (1652821641.988739)  can0  014   [5]  1C B0 01 0C 27
 (1652821641.992892)  can0  1E5   [8]  1C 00 77 50 00 00 01 1F
 (1652821641.998529)  can0  012   [8]  E8 03 10 00 00 00 00 00
 (1652821641.998717)  can0  014   [5]  1B D0 01 10 27
 (1652821642.002847)  can0  1E5   [8]  1C 00 77 70 00 00 01 3F
 (1652821642.008515)  can0  012   [8]  E8 03 10 00 00 00 00 00
 (1652821642.008741)  can0  014   [5]  1A C0 01 14 27
 (1652821642.012892)  can0  1E5   [8]  1C 00 77 10 00 00 00 DF
 (1652821642.018519)  can0  012   [8]  E8 03 10 00 00 00 00 00
 (1652821642.018739)  can0  014   [5]  1C B0 01 0C 27
 (1652821642.022894)  can0  1E5   [8]  1C 00 77 30 00 00 00 FF
 (1652821642.028519)  can0  012   [8]  E8 03 10 00 00 00 00 00
 (1652821642.028739)  can0  014   [5]  1C C0 01 10 27
 (1652821642.032895)  can0  1E5   [8]  1C 00 77 50 00 00 01 1F
 (1652821642.038519)  can0  012   [8]  E8 03 10 00 00 00 00 00
 (1652821642.038741)  can0  014   [5]  1C C0 01 10 27
 (1652821642.042894)  can0  1E5   [8]  1C 00 77 70 00 00 01 3F
 (1652821642.048518)  can0  012   [8]  E8 03 10 00 00 00 00 00
 (1652821642.048739)  can0  014   [5]  1B C0 01 10 27
 (1652821642.052891)  can0  1E5   [8]  1C 00 77 10 00 00 00 DF
 (1652821642.058519)  can0  012   [8]  E8 03 10 00 00 00 00 00
 (1652821642.058739)  can0  014   [5]  1C C0 01 12 27
 (1652821642.062895)  can0  1E5   [8]  1C 00 77 30 00 00 00 FF
 (1652821642.065144)  can0  010   [4]  28 76 01 01
 (1652821642.068473)  can0  012   [8]  E8 03 10 00 00 00 00 00
 (1652821642.068716)  can0  014   [5]  1D B0 01 14 27
 (1652821642.072892)  can0  1E5   [8]  1C 00 77 50 00 00 01 1F
 (1652821642.078519)  can0  012   [8]  E8 03 10 00 00 00 00 00
 (1652821642.078740)  can0  014   [5]  1C D0 01 0A 27
 (1652821642.082895)  can0  1E5   [8]  1C 00 77 70 00 00 01 3F
 (1652821642.088521)  can0  012   [8]  E8 03 10 00 00 00 00 00
 (1652821642.088740)  can0  014   [5]  1C D0 01 10 27
 (1652821642.092895)  can0  1E5   [8]  1C 00 77 10 00 00 00 DF
 (1652821642.098518)  can0  012   [8]  E8 03 10 00 00 00 00 00
 (1652821642.098740)  can0  014   [5]  1C D0 01 10 27
 (1652821642.102892)  can0  1E5   [8]  1C 00 77 30 00 00 00 FF
 (1652821642.108520)  can0  012   [8]  E8 03 10 00 00 00 00 00
 (1652821642.108741)  can0  014   [5]  1D C0 01 13 27
 (1652821642.112896)  can0  1E5   [8]  1C 00 77 50 00 00 01 1F
 (1652821642.118521)  can0  012   [8]  E8 03 10 00 00 00 00 00
 (1652821642.118741)  can0  014   [5]  1D C0 01 0D 27
 (1652821642.122896)  can0  1E5   [8]  1C 00 77 70 00 00 01 3F
 (1652821642.128519)  can0  012   [8]  E8 03 10 00 00 00 00 00
 (1652821642.128740)  can0  014   [5]  1D D0 01 10 27
 (1652821642.132895)  can0  1E5   [8]  1C 00 77 10 00 00 00 DF
 (1652821642.138520)  can0  012   [8]  E8 03 10 00 00 00 00 00
 (1652821642.138741)  can0  014   [5]  1C E0 01 11 27
 (1652821642.142896)  can0  1E5   [8]  1C 00 77 30 00 00 00 FF
 (1652821642.148521)  can0  012   [8]  E8 03 10 00 00 00 00 00
 (1652821642.148741)  can0  014   [5]  1D D0 01 10 27
 (1652821642.152896)  can0  1E5   [8]  1C 00 77 50 00 00 01 1F
 (1652821642.158521)  can0  012   [8]  E8 03 10 00 00 00 00 00
 (1652821642.158743)  can0  014   [5]  1C D0 01 11 27
 (1652821642.162897)  can0  1E5   [8]  1C 00 77 70 00 00 01 3F
 (1652821642.165146)  can0  010   [4]  28 76 01 01
 (1652821642.168522)  can0  012   [8]  E8 03 10 00 00 00 00 00
 (1652821642.168742)  can0  014   [5]  1E D0 01 11 27
 (1652821642.172897)  can0  1E5   [8]  1C 00 77 10 00 00 00 DF
