 (1652821712.085516)  can0  1E5   [8]  1C 00 77 30 00 00 00 FF
 (1652821712.086673)  can0  012   [8]  E8 03 10 00 00 00 00 00
 (1652821712.094614)  can0  014   [5]  00 00 00 10 27
 (1652821712.095370)  can0  1E5   [8]  1C 00 77 50 00 00 01 1F
 (1652821712.096673)  can0  012   [8]  E8 03 10 00 00 00 00 00
 (1652821712.104308)  can0  010   [4]  26 73 00 01
 (1652821712.104642)  can0  014   [5]  00 00 00 16 27
 (1652821712.105423)  can0  1E5   [8]  1C 00 77 70 00 00 01 3F
 (1652821712.106673)  can0  012   [8]  E8 03 10 00 00 00 00 00
 (1652821712.114674)  can0  014   [5]  00 00 00 0A 27
 (1652821712.115424)  can0  1E5   [8]  1C 00 77 10 00 00 00 DF
 (1652821712.116675)  can0  012   [8]  E8 03 10 00 00 00 00 00
 (1652821712.124676)  can0  014   [5]  00 00 00 10 27
 (1652821712.125427)  can0  1E5   [8]  1C 00 77 30 00 00 00 FF
 (1652821712.126675)  can0  012   [8]  E8 03 10 00 00 00 00 00
 (1652821712.134676)  can0  014   [5]  00 00 00 10 27
 (1652821712.135427)  can0  1E5   [8]  1C 00 77 50 00 00 01 1F
 (1652821712.136676)  can0  012   [8]  E8 03 10 00 00 00 00 00
 (1652821712.144675)  can0  014   [5]  00 00 00 10 27
 (1652821712.145425)  can0  1E5   [8]  1C 00 77 70 00 00 01 3F
 (1652821712.146642)  can0  012   [8]  E8 03 10 00 00 00 00 00
 (1652821712.154629)  can0  014   [5]  00 00 00 10 27
 (1652821712.155425)  can0  1E5   [8]  1C 00 77 10 00 00 00 DF
 (1652821712.156675)  can0  012   [8]  E8 03 10 00 00 00 00 00
 (1652821712.164677)  can0  014   [5]  00 00 00 10 27
 (1652821712.165426)  can0  1E5   [8]  1C 00 77 30 00 00 00 FF
 (1652821712.166675)  can0  012   [8]  E8 03 10 00 00 00 00 00
 (1652821712.174677)  can0  014   [5]  00 00 00 10 27
 (1652821712.175389)  can0  1E5   [8]  1C 00 77 50 00 00 01 1F
 (1652821712.176683)  can0  012   [8]  E8 03 10 00 00 00 00 00
 (1652821712.184673)  can0  014   [5]  00 00 00 10 27
 (1652821712.185427)  can0  1E5   [8]  1C 00 77 70 00 00 01 3F
 (1652821712.186675)  can0  012   [8]  E8 03 10 00 00 00 00 00
 (1652821712.194629)  can0  014   [5]  00 00 00 10 27
 (1652821712.195376)  can0  1E5   [8]  1C 00 77 10 00 00 00 DF
 (1652821712.196626)  can0  012   [8]  E8 03 10 00 00 00 00 00
 (1652821712.204251)  can0  010   [4]  26 73 00 01
 (1652821712.204623)  can0  014   [5]  00 00 00 16 27
 (1652821712.205373)  can0  1E5   [8]  1C 00 77 30 00 00 00 FF
 (1652821712.206623)  can0  012   [8]  E8 03 10 00 00 00 00 00
 (1652821712.214628)  can0  014   [5]  00 00 00 0A 27
 (1652821712.215375)  can0  1E5   [8]  1C 00 77 50 00 00 01 1F
 (1652821712.216630)  can0  012   [8]  E8 03 10 00 00 00 00 00
 (1652821712.224617)  can0  014   [5]  00 00 00 10 27
 (1652821712.225362)  can0  1E5   [8]  1C 00 77 70 00 00 01 3F
 (1652821712.226612)  can0  012   [8]  E8 03 10 00 00 00 00 00
 (1652821712.234683)  can0  014   [5]  00 00 00 10 27
 (1652821712.235433)  can0  1E5   [8]  1C 00 77 10 00 00 00 DF
 (1652821712.236683)  can0  012   [8]  E8 03 10 00 00 00 00 00
 (1652821712.244638)  can0  014   [5]  00 00 00 10 27
 (1652821712.245433)  can0  1E5   [8]  1C 00 77 30 00 00 00 FF
 (1652821712.246683)  can0  012   [8]  E8 03 10 00 00 00 00 00
 (1652821712.254631)  can0  014   [5]  00 00 00 10 27
 (1652821712.255374)  can0  1E5   [8]  1C 00 77 50 00 00 01 1F
 (1652821712.256675)  can0  012   [8]  E8 03 10 00 00 00 00 00
 (1652821712.264678)  can0  014   [5]  00 00 00 10 27
 (1652821712.265428)  can0  1E5   [8]  1C 00 77 70 00 00 01 3F
 (1652821712.266678)  can0  012   [8]  E8 03 10 00 00 00 00 00
 (1652821712.274649)  can0  014   [5]  00 00 00 10 27
 (1652821712.275392)  can0  1E5   [8]  1C 00 77 10 00 00 00 DF
 (1652821712.276678)  can0  012   [8]  E8 03 10 00 00 00 00 00
 (1652821712.284678)  can0  014   [5]  00 00 00 10 27
 (1652821712.285429)  can0  1E5   [8]  1C 00 77 30 00 00 00 FF
 (1652821712.286678)  can0  012   [8]  E8 03 10 00 00 00 00 00
 (1652821712.294619)  can0  014   [5]  00 00 00 10 27
 (1652821712.295363)  can0  1E5   [8]  1C 00 77 50 00 00 01 1F
 (1652821712.296613)  can0  012   [8]  E8 03 10 00 00 00 00 00
 (1652821712.304304)  can0  010   [4]  26 73 00 01
 (1652821712.304678)  can0  014   [5]  00 00 00 16 27
 (1652821712.305428)  can0  1E5   [8]  1C 00 77 70 00 00 01 3F
 (1652821712.306680)  can0  012   [8]  E8 03 10 00 00 00 00 00
 (1652821712.314678)  can0  014   [5]  00 00 00 0A 27
 (1652821712.315429)  can0  1E5   [8]  1C 00 77 10 00 00 00 DF
 (1652821712.316679)  can0  012   [8]  E8 03 10 00 00 00 00 00
 (1652821712.324680)  can0  014   [5]  00 00 00 10 27
 (1652821712.325430)  can0  1E5   [8]  1C 00 77 30 00 00 00 FF
 (1652821712.326645)  can0  012   [8]  E8 03 10 00 00 00 00 00
 (1652821712.334679)  can0  014   [5]  00 00 00 10 27
 (1652821712.335430)  can0  1E5   [8]  1C 00 77 50 00 00 01 1F
 (1652821712.336679)  can0  012   [8]  E8 03 10 00 00 00 00 00
 (1652821712.344678)  can0  014   [5]  00 00 00 10 27
 (1652821712.345429)  can0  1E5   [8]  1C 00 77 70 00 00 01 3F
 (1652821712.346679)  can0  012   [8]  E8 03 10 00 00 00 00 00
 (1652821712.354656)  can0  014   [5]  00 00 00 10 27
 (1652821712.355429)  can0  1E5   [8]  1C 00 77 10 00 00 00 DF
 (1652821712.356679)  can0  012   [8]  E8 03 10 00 00 00 00 00
 (1652821712.364680)  can0  014   [5]  00 00 00 10 27
 (1652821712.365429)  can0  1E5   [8]  1C 00 77 30 00 00 00 FF
 (1652821712.366680)  can0  012   [8]  E8 03 10 00 00 00 00 00
 (1652821712.374680)  can0  014   [5]  00 00 00 10 27
 (1652821712.375430)  can0  1E5   [8]  1C 00 77 50 00 00 01 1F
 (1652821712.376678)  can0  012   [8]  E8 03 10 00 00 00 00 00
 (1652821712.384681)  can0  014   [5]  00 00 00 10 27
 (1652821712.385430)  can0  1E5   [8]  1C 00 77 70 00 00 01 3F
 (1652821712.386681)  can0  012   [8]  E8 03 10 00 00 00 00 00
 (1652821712.394681)  can0  014   [5]  00 00 00 10 27
 (1652821712.395431)  can0  1E5   [8]  1C 00 77 10 00 00 00 DF
 (1652821712.396681)  can0  012   [8]  E8 03 10 00 00 00 00 00
 (1652821712.404305)  can0  010   [4]  26 73 00 01
 (1652821712.404679)  can0  014   [5]  00 00 00 16 27
 (1652821712.405431)  can0  1E5   [8]  1C 00 77 30 00 00 00 FF
 (1652821712.406681)  can0  012   [8]  E8 03 10 00 00 00 00 00
 (1652821712.414689)  can0  014   [5]  00 00 00 0A 27
 (1652821712.415439)  can0  1E5   [8]  1C 00 77 50 00 00 01 1F
 (1652821712.416689)  can0  012   [8]  E8 03 10 00 00 00 00 00
 (1652821712.424679)  can0  014   [5]  00 00 00 10 27
 (1652821712.425386)  can0  1E5   [8]  1C 00 77 70 00 00 01 3F
 (1652821712.426679)  can0  012   [8]  E8 03 10 00 00 00 00 00
 (1652821712.434681)  can0  014   [5]  00 00 00 10 27
 (1652821712.435432)  can0  1E5   [8]  1C 00 77 10 00 00 00 DF
 (1652821712.436681)  can0  012   [8]  E8 03 10 00 00 00 00 00
 (1652821712.444682)  can0  014   [5]  00 00 00 10 27
 (1652821712.445432)  can0  1E5   [8]  1C 00 77 30 00 00 00 FF
 (1652821712.446682)  can0  012   [8]  E8 03 10 00 00 00 00 00
 (1652821712.454659)  can0  014   [5]  00 00 00 10 27
 (1652821712.455433)  can0  1E5   [8]  1C 00 77 50 00 00 01 1F
 (1652821712.456682)  can0  012   [8]  E8 03 10 00 00 00 00 00
 (1652821712.464682)  can0  014   [5]  00 00 00 10 27
 (1652821712.465431)  can0  1E5   [8]  1C 00 77 70 00 00 01 3F
 (1652821712.466682)  can0  012   [8]  E8 03 10 00 00 00 00 00
 (1652821712.474636)  can0  014   [5]  00 00 00 10 27
 (1652821712.475432)  can0  1E5   [8]  1C 00 77 10 00 00 00 DF
 (1652821712.476680)  can0  012   [8]  E8 03 10 00 00 00 00 00
 (1652821712.484680)  can0  014   [5]  00 00 00 10 27
 (1652821712.485430)  can0  1E5   [8]  1C 00 77 30 00 00 00 FF
 (1652821712.486681)  can0  012   [8]  E8 03 10 00 00 00 00 00
 (1652821712.494683)  can0  014   [5]  00 00 00 10 27
 (1652821712.495433)  can0  1E5   [8]  1C 00 77 50 00 00 01 1F
 (1652821712.496683)  can0  012   [8]  E8 03 10 00 00 00 00 00
 (1652821712.504316)  can0  010   [4]  26 73 00 01
 (1652821712.504687)  can0  014   [5]  00 00 00 16 27
 (1652821712.505433)  can0  1E5   [8]  1C 00 77 70 00 00 01 3F
 (1652821712.506684)  can0  012   [8]  E8 03 10 00 00 00 00 00
 (1652821712.514683)  can0  014   [5]  00 00 00 0A 27
 (1652821712.515433)  can0  1E5   [8]  1C 00 77 10 00 00 00 DF
 (1652821712.516683)  can0  012   [8]  E8 03 10 00 00 00 00 00
 (1652821712.524681)  can0  014   [5]  00 00 00 10 27
 (1652821712.525433)  can0  1E5   [8]  1C 00 77 30 00 00 00 FF
 (1652821712.526683)  can0  012   [8]  E8 03 10 00 00 00 00 00
 (1652821712.534683)  can0  014   [5]  00 00 00 10 27
 (1652821712.535433)  can0  1E5   [8]  1C 00 77 50 00 00 01 1F
 (1652821712.536681)  can0  012   [8]  E8 03 10 00 00 00 00 00
 (1652821712.544684)  can0  014   [5]  00 00 00 10 27
 (1652821712.545433)  can0  1E5   [8]  1C 00 77 70 00 00 01 3F
 (1652821712.546684)  can0  012   [8]  E8 03 10 00 00 00 00 00
 (1652821712.554655)  can0  014   [5]  00 00 00 10 27
 (1652821712.555434)  can0  1E5   [8]  1C 00 77 10 00 00 00 DF
 (1652821712.556640)  can0  012   [8]  E8 03 10 00 00 00 00 00
 (1652821712.564684)  can0  014   [5]  00 00 00 10 27
 (1652821712.565434)  can0  1E5   [8]  1C 00 77 30 00 00 00 FF
 (1652821712.566684)  can0  012   [8]  E8 03 10 00 00 00 00 00
 (1652821712.574683)  can0  014   [5]  00 00 00 10 27
 (1652821712.575434)  can0  1E5   [8]  1C 00 77 50 00 00 01 1F
 (1652821712.576682)  can0  012   [8]  E8 03 10 00 00 00 00 00
 (1652821712.584682)  can0  014   [5]  00 00 00 10 27
 (1652821712.585433)  can0  1E5   [8]  1C 00 77 70 00 00 01 3F
 (1652821712.586682)  can0  012   [8]  E8 03 10 00 00 00 00 00
 (1652821712.594685)  can0  014   [5]  00 00 00 10 27
 (1652821712.595435)  can0  1E5   [8]  1C 00 77 10 00 00 00 DF
 (1652821712.596684)  can0  012   [8]  E8 03 10 00 00 00 00 00
 (1652821712.604309)  can0  010   [4]  26 73 00 01
 (1652821712.604686)  can0  014   [5]  00 00 00 16 27
 (1652821712.605434)  can0  1E5   [8]  1C 00 77 30 00 00 00 FF
 (1652821712.606683)  can0  012   [8]  E8 03 10 00 00 00 00 00
 (1652821712.614685)  can0  014   [5]  00 00 00 0A 27
 (1652821712.615437)  can0  1E5   [8]  1C 00 77 50 00 00 01 1F
 (1652821712.616685)  can0  012   [8]  E8 03 10 00 00 00 00 00
 (1652821712.624684)  can0  014   [5]  00 00 00 10 27
 (1652821712.625437)  can0  1E5   [8]  1C 00 77 70 00 00 01 3F
 (1652821712.626686)  can0  012   [8]  E8 03 10 00 00 00 00 00
 (1652821712.634686)  can0  014   [5]  00 00 00 10 27
 (1652821712.635435)  can0  1E5   [8]  1C 00 77 10 00 00 00 DF
 (1652821712.636686)  can0  012   [8]  E8 03 10 00 00 00 00 00
 (1652821712.644685)  can0  014   [5]  00 00 00 10 27
 (1652821712.645436)  can0  1E5   [8]  1C 00 77 30 00 00 00 FF
 (1652821712.646685)  can0  012   [8]  E8 03 10 00 00 00 00 00
 (1652821712.654663)  can0  014   [5]  00 00 00 10 27
 (1652821712.655390)  can0  1E5   [8]  1C 00 77 50 00 00 01 1F
 (1652821712.656685)  can0  012   [8]  E8 03 10 00 00 00 00 00
 (1652821712.664685)  can0  014   [5]  00 00 00 10 27
 (1652821712.665436)  can0  1E5   [8]  1C 00 77 70 00 00 01 3F
 (1652821712.666686)  can0  012   [8]  E8 03 10 00 00 00 00 00
 (1652821712.674685)  can0  014   [5]  00 00 00 10 27
 (1652821712.675436)  can0  1E5   [8]  1C 00 77 10 00 00 00 DF
 (1652821712.676641)  can0  012   [8]  E8 03 10 00 00 00 00 00
 (1652821712.684686)  can0  014   [5]  00 00 00 10 27
 (1652821712.685436)  can0  1E5   [8]  1C 00 77 30 00 00 00 FF
 (1652821712.686686)  can0  012   [8]  E8 03 10 00 00 00 00 00
 (1652821712.694688)  can0  014   [5]  00 00 00 10 27
 (1652821712.695436)  can0  1E5   [8]  1C 00 77 50 00 00 01 1F
 (1652821712.696686)  can0  012   [8]  E8 03 10 00 00 00 00 00
 (1652821712.704314)  can0  010   [4]  26 73 00 01
 (1652821712.704635)  can0  014   [5]  00 00 00 16 27
 (1652821712.705437)  can0  1E5   [8]  1C 00 77 70 00 00 01 3F
 (1652821712.706687)  can0  012   [8]  E8 03 10 00 00 00 00 00
 (1652821712.714687)  can0  014   [5]  00 00 00 0A 27
 (1652821712.715436)  can0  1E5   [8]  1C 00 77 10 00 00 00 DF
 (1652821712.716688)  can0  012   [8]  E8 03 10 00 00 00 00 00
 (1652821712.724687)  can0  014   [5]  00 00 00 10 27
 (1652821712.725437)  can0  1E5   [8]  1C 00 77 30 00 00 00 FF
 (1652821712.726687)  can0  012   [8]  E8 03 10 00 00 00 00 00
 (1652821712.726690)  can0  0E3   [2]  10 00
 (1652821712.734698)  can0  014   [5]  00 00 00 13 27
 (1652821712.735445)  can0  1E5   [8]  1C 00 77 50 00 00 01 1F
 (1652821712.736695)  can0  012   [8]  E8 03 10 00 00 00 00 00
 (1652821712.744688)  can0  014   [5]  00 00 00 0D 27
 (1652821712.745438)  can0  1E5   [8]  1C 00 77 70 00 00 01 3F
 (1652821712.746687)  can0  012   [8]  E8 03 10 00 00 00 00 00
 (1652821712.754686)  can0  014   [5]  00 00 00 10 27
 (1652821712.755438)  can0  1E5   [8]  1C 00 77 10 00 00 00 DF
 (1652821712.756688)  can0  012   [8]  E8 03 10 00 00 00 00 00
 (1652821712.764689)  can0  014   [5]  00 00 00 10 27
 (1652821712.765438)  can0  1E5   [8]  1C 00 77 30 00 00 00 FF
 (1652821712.766688)  can0  012   [8]  E8 03 10 00 00 00 00 00
 (1652821712.774687)  can0  014   [5]  00 00 00 10 27
 (1652821712.775438)  can0  1E5   [8]  1C 00 77 50 00 00 01 1F
 (1652821712.776688)  can0  012   [8]  E8 03 10 00 00 00 00 00
 (1652821712.784688)  can0  014   [5]  00 00 00 10 27
 (1652821712.785439)  can0  1E5   [8]  1C 00 77 70 00 00 01 3F
 (1652821712.786644)  can0  012   [8]  E8 03 10 00 00 00 00 00
 (1652821712.794688)  can0  014   [5]  00 00 00 10 27
 (1652821712.795438)  can0  1E5   [8]  1C 00 77 10 00 00 00 DF
 (1652821712.796689)  can0  012   [8]  E8 03 10 00 00 00 00 00
 (1652821712.804315)  can0  010   [4]  26 73 00 01
 (1652821712.804317)  can0  0E2   [2]  88 00
 (1652821712.804686)  can0  014   [5]  00 00 00 1B 27
 (1652821712.804769)  can0  0E4   [2]  88 00
 (1652821712.805439)  can0  1E5   [8]  1C 00 77 30 00 00 00 FF
 (1652821712.806688)  can0  012   [8]  E8 03 10 00 00 00 00 00
 (1652821712.814690)  can0  014   [5]  00 00 00 05 27
 (1652821712.815440)  can0  1E5   [8]  1C 00 77 50 00 00 01 1F
 (1652821712.816689)  can0  012   [8]  E8 03 10 00 00 00 00 00
 (1652821712.824688)  can0  014   [5]  00 00 00 10 27
 (1652821712.825439)  can0  1E5   [8]  1C 00 77 70 00 00 01 3F
 (1652821712.826690)  can0  012   [8]  E8 03 10 00 00 00 00 00
 (1652821712.834690)  can0  014   [5]  00 00 00 10 27
 (1652821712.835439)  can0  1E5   [8]  1C 00 77 10 00 00 00 DF
 (1652821712.836688)  can0  012   [8]  E8 03 10 00 00 00 00 00
 (1652821712.844689)  can0  014   [5]  00 00 00 10 27
 (1652821712.845439)  can0  1E5   [8]  1C 00 77 30 00 00 00 FF
 (1652821712.846689)  can0  012   [8]  E8 03 10 00 00 00 00 00
 (1652821712.854689)  can0  014   [5]  00 00 00 10 27
 (1652821712.855439)  can0  1E5   [8]  1C 00 77 50 00 00 01 1F
 (1652821712.856688)  can0  012   [8]  E8 03 10 00 00 00 00 00
 (1652821712.864690)  can0  014   [5]  00 00 00 10 27
 (1652821712.865440)  can0  1E5   [8]  1C 00 77 70 00 00 01 3F
 (1652821712.866689)  can0  012   [8]  E8 03 10 00 00 00 00 00
 (1652821712.874690)  can0  014   [5]  00 00 00 10 27
 (1652821712.875441)  can0  1E5   [8]  1C 00 77 10 00 00 00 DF
 (1652821712.876690)  can0  012   [8]  E8 03 10 00 00 00 00 00
 (1652821712.884688)  can0  014   [5]  00 00 00 10 27
 (1652821712.885395)  can0  1E5   [8]  1C 00 77 30 00 00 00 FF
 (1652821712.886689)  can0  012   [8]  E8 03 10 00 00 00 00 00
 (1652821712.894691)  can0  014   [5]  00 00 00 10 27
 (1652821712.895441)  can0  1E5   [8]  1C 00 77 50 00 00 01 1F
 (1652821712.896691)  can0  012   [8]  E8 03 10 00 00 00 00 00
 (1652821712.904316)  can0  010   [4]  26 73 00 01
 (1652821712.904693)  can0  014   [5]  00 00 00 16 27
 (1652821712.905440)  can0  1E5   [8]  1C 00 77 70 00 00 01 3F
 (1652821712.906691)  can0  012   [8]  E8 03 10 00 00 00 00 00
 (1652821712.914692)  can0  014   [5]  00 00 00 0A 27
 (1652821712.915441)  can0  1E5   [8]  1C 00 77 10 00 00 00 DF
 (1652821712.916690)  can0  012   [8]  E8 03 10 00 00 00 00 00
 (1652821712.924692)  can0  014   [5]  00 00 00 10 27
 (1652821712.925441)  can0  1E5   [8]  1C 00 77 30 00 00 00 FF
 (1652821712.926690)  can0  012   [8]  E8 03 10 00 00 00 00 00
 (1652821712.934646)  can0  014   [5]  00 00 00 10 27
 (1652821712.935443)  can0  1E5   [8]  1C 00 77 50 00 00 01 1F
 (1652821712.936693)  can0  012   [8]  E8 03 10 00 00 00 00 00
 (1652821712.944691)  can0  014   [5]  00 00 00 10 27
 (1652821712.945441)  can0  1E5   [8]  1C 00 77 70 00 00 01 3F
 (1652821712.946692)  can0  012   [8]  E8 03 10 00 00 00 00 00
 (1652821712.954700)  can0  014   [5]  00 00 00 10 27
 (1652821712.955443)  can0  1E5   [8]  1C 00 77 10 00 00 00 DF
 (1652821712.956693)  can0  012   [8]  E8 03 10 00 00 00 00 00
 (1652821712.964693)  can0  014   [5]  00 00 00 10 27
 (1652821712.965442)  can0  1E5   [8]  1C 00 77 30 00 00 00 FF
 (1652821712.966693)  can0  012   [8]  E8 03 10 00 00 00 00 00
 (1652821712.974692)  can0  014   [5]  00 00 00 10 27
 (1652821712.975442)  can0  1E5   [8]  1C 00 77 50 00 00 01 1F
 (1652821712.976693)  can0  012   [8]  E8 03 10 00 00 00 00 00
 (1652821712.984693)  can0  014   [5]  00 00 00 10 27
 (1652821712.985444)  can0  1E5   [8]  1C 00 77 70 00 00 01 3F
 (1652821712.986693)  can0  012   [8]  E8 03 10 00 00 00 00 00
 (1652821712.994691)  can0  014   [5]  00 00 00 10 27
 (1652821712.995443)  can0  1E5   [8]  1C 00 77 10 00 00 00 DF
 (1652821712.996693)  can0  012   [8]  E8 03 10 00 00 00 00 00
 (1652821713.004337)  can0  010   [4]  26 73 00 01
 (1652821713.004659)  can0  014   [5]  00 00 00 16 27
 (1652821713.005443)  can0  1E5   [8]  1C 00 77 30 00 00 00 FF
 (1652821713.006693)  can0  012   [8]  E8 03 10 00 00 00 00 00
 (1652821713.014691)  can0  014   [5]  00 00 00 0A 27
 (1652821713.015441)  can0  1E5   [8]  1C 00 77 50 00 00 01 1F
 (1652821713.016656)  can0  012   [8]  E8 03 10 00 00 00 00 00
 (1652821713.024637)  can0  014   [5]  00 00 00 10 27
 (1652821713.025443)  can0  1E5   [8]  1C 00 77 70 00 00 01 3F
 (1652821713.026692)  can0  012   [8]  E8 03 10 00 00 00 00 00
 (1652821713.034697)  can0  014   [5]  00 00 00 10 27
 (1652821713.035447)  can0  1E5   [8]  1C 00 77 10 00 00 00 DF
 (1652821713.036697)  can0  012   [8]  E8 03 10 00 00 00 00 00
 (1652821713.044693)  can0  014   [5]  00 00 00 10 27
 (1652821713.045445)  can0  1E5   [8]  1C 00 77 30 00 00 00 FF
 (1652821713.046694)  can0  012   [8]  E8 03 10 00 00 00 00 00
 (1652821713.054703)  can0  014   [5]  00 00 00 10 27
 (1652821713.055445)  can0  1E5   [8]  1C 00 77 50 00 00 01 1F
 (1652821713.056694)  can0  012   [8]  E8 03 10 00 00 00 00 00
 (1652821713.064694)  can0  014   [5]  00 00 00 10 27
 (1652821713.065444)  can0  1E5   [8]  1C 00 77 70 00 00 01 3F
 (1652821713.066669)  can0  012   [8]  E8 03 10 00 00 00 00 00
 (1652821713.074694)  can0  014   [5]  00 00 00 10 27
 (1652821713.075443)  can0  1E5   [8]  1C 00 77 10 00 00 00 DF
 (1652821713.076694)  can0  012   [8]  E8 03 10 00 00 00 00 00
 (1652821713.084698)  can0  014   [5]  00 00 00 10 27
 (1652821713.085380)  can0  1E5   [8]  1C 00 77 30 00 00 00 FF
 (1652821713.086645)  can0  012   [8]  E8 03 10 00 00 00 00 00
 (1652821713.094641)  can0  014   [5]  00 00 00 10 27
 (1652821713.095386)  can0  1E5   [8]  1C 00 77 50 00 00 01 1F
 (1652821713.096628)  can0  012   [8]  E8 03 10 00 00 00 00 00
 (1652821713.104272)  can0  010   [4]  26 73 00 01
 (1652821713.104636)  can0  014   [5]  00 00 00 16 27
 (1652821713.105391)  can0  1E5   [8]  1C 00 77 70 00 00 01 3F
 (1652821713.106641)  can0  012   [8]  E8 03 10 00 00 00 00 00
 (1652821713.114643)  can0  014   [5]  00 00 00 0A 27
 (1652821713.115392)  can0  1E5   [8]  1C 00 77 10 00 00 00 DF
 (1652821713.116642)  can0  012   [8]  E8 03 10 00 00 00 00 00
 (1652821713.124645)  can0  014   [5]  00 00 00 10 27
 (1652821713.125391)  can0  1E5   [8]  1C 00 77 30 00 00 00 FF
 (1652821713.126641)  can0  012   [8]  E8 03 10 00 00 00 00 00
 (1652821713.134643)  can0  014   [5]  00 00 00 10 27
 (1652821713.135391)  can0  1E5   [8]  1C 00 77 50 00 00 01 1F
 (1652821713.136642)  can0  012   [8]  E8 03 10 00 00 00 00 00
 (1652821713.144643)  can0  014   [5]  00 00 00 10 27
 (1652821713.145392)  can0  1E5   [8]  1C 00 77 70 00 00 01 3F
 (1652821713.146642)  can0  012   [8]  E8 03 10 00 00 00 00 00
 (1652821713.154643)  can0  014   [5]  00 00 00 10 27
 (1652821713.155392)  can0  1E5   [8]  1C 00 77 10 00 00 00 DF
 (1652821713.156643)  can0  012   [8]  E8 03 10 00 00 00 00 00
 (1652821713.164643)  can0  014   [5]  00 00 00 10 27
 (1652821713.165393)  can0  1E5   [8]  1C 00 77 30 00 00 00 FF
 (1652821713.166643)  can0  012   [8]  E8 03 10 00 00 00 00 00
 (1652821713.174642)  can0  014   [5]  00 00 00 10 27
 (1652821713.175393)  can0  1E5   [8]  1C 00 77 50 00 00 01 1F
 (1652821713.176642)  can0  012   [8]  E8 03 10 00 00 00 00 00
 (1652821713.184643)  can0  014   [5]  00 00 00 10 27
 (1652821713.185393)  can0  1E5   [8]  1C 00 77 70 00 00 01 3F
 (1652821713.186643)  can0  012   [8]  E8 03 10 00 00 00 00 00
 (1652821713.194643)  can0  014   [5]  00 00 00 10 27
 (1652821713.195393)  can0  1E5   [8]  1C 00 77 10 00 00 00 DF
 (1652821713.196643)  can0  012   [8]  E8 03 10 00 00 00 00 00
 (1652821713.204268)  can0  010   [4]  26 73 00 01
 (1652821713.204643)  can0  014   [5]  00 00 00 16 27
 (1652821713.205393)  can0  1E5   [8]  1C 00 77 30 00 00 00 FF
 (1652821713.206643)  can0  012   [8]  E8 03 10 00 00 00 00 00
 (1652821713.214643)  can0  014   [5]  00 00 00 0A 27
 (1652821713.215393)  can0  1E5   [8]  1C 00 77 50 00 00 01 1F
 (1652821713.216643)  can0  012   [8]  E8 03 10 00 00 00 00 00
 (1652821713.224644)  can0  014   [5]  00 00 00 10 27
 (1652821713.225394)  can0  1E5   [8]  1C 00 77 70 00 00 01 3F
 (1652821713.226643)  can0  012   [8]  E8 03 10 00 00 00 00 00
 (1652821713.234644)  can0  014   [5]  00 00 00 10 27
 (1652821713.235394)  can0  1E5   [8]  1C 00 77 10 00 00 00 DF
 (1652821713.236644)  can0  012   [8]  E8 03 10 00 00 00 00 00
 (1652821713.244645)  can0  014   [5]  00 00 00 10 27
 (1652821713.245394)  can0  1E5   [8]  1C 00 77 30 00 00 00 FF
 (1652821713.246644)  can0  012   [8]  E8 03 10 00 00 00 00 00
 (1652821713.254644)  can0  014   [5]  00 00 00 10 27
 (1652821713.255394)  can0  1E5   [8]  1C 00 77 50 00 00 01 1F
 (1652821713.256644)  can0  012   [8]  E8 03 10 00 00 00 00 00
 (1652821713.261531)  can0  0F0   [1]  01
 (1652821713.261662)  can0  011   [2]  03 01
 (1652821713.261663)  can0  021   [8]  01 00 00 00 00 00 00 00
 (1652821713.264697)  can0  014   [5]  00 00 00 19 27
 (1652821713.265445)  can0  1E5   [8]  1C 00 77 70 00 00 01 3F
 (1652821713.266697)  can0  012   [8]  E8 03 10 00 00 00 00 00
 (1652821713.274696)  can0  014   [5]  00 00 00 07 27
 (1652821713.275446)  can0  1E5   [8]  1C 00 77 10 00 00 00 DF
 (1652821713.276695)  can0  012   [8]  E8 03 10 00 00 00 00 00
 (1652821713.284699)  can0  014   [5]  00 00 00 10 27
 (1652821713.285448)  can0  1E5   [8]  1C 00 77 30 00 00 00 FF
 (1652821713.286698)  can0  012   [8]  E8 03 10 00 00 00 00 00
 (1652821713.294699)  can0  014   [5]  00 00 00 10 27
 (1652821713.295448)  can0  1E5   [8]  1C 00 77 50 00 00 01 1F
 (1652821713.296697)  can0  012   [8]  E8 03 10 00 00 00 00 00
 (1652821713.304332)  can0  010   [4]  2B 7A 03 01
 (1652821713.304671)  can0  014   [5]  00 00 00 16 27
 (1652821713.305448)  can0  1E5   [8]  1C 00 77 70 00 00 01 3F
 (1652821713.306698)  can0  012   [8]  E8 03 10 00 00 00 00 00
 (1652821713.314698)  can0  014   [5]  00 00 00 0A 27
 (1652821713.315448)  can0  1E5   [8]  1C 00 77 10 00 00 00 DF
 (1652821713.316696)  can0  012   [8]  E8 03 10 00 00 00 00 00
 (1652821713.324699)  can0  014   [5]  00 00 00 10 27
 (1652821713.325448)  can0  1E5   [8]  1C 00 77 30 00 00 00 FF
 (1652821713.326699)  can0  012   [8]  E8 03 10 00 00 00 00 00
 (1652821713.334700)  can0  014   [5]  00 00 00 10 27
 (1652821713.335448)  can0  1E5   [8]  1C 00 77 50 00 00 01 1F
 (1652821713.336700)  can0  012   [8]  E8 03 10 00 00 00 00 00
 (1652821713.344700)  can0  014   [5]  00 00 00 10 27
 (1652821713.345448)  can0  1E5   [8]  1C 00 77 70 00 00 01 3F
 (1652821713.346700)  can0  012   [8]  E8 03 10 00 00 00 00 00
 (1652821713.354679)  can0  014   [5]  00 00 00 10 27
 (1652821713.355450)  can0  1E5   [8]  1C 00 77 10 00 00 00 DF
 (1652821713.356701)  can0  012   [8]  E8 03 10 00 00 00 00 00
 (1652821713.364700)  can0  014   [5]  00 00 00 10 27
 (1652821713.365450)  can0  1E5   [8]  1C 00 77 30 00 00 00 FF
 (1652821713.366701)  can0  012   [8]  E8 03 10 00 00 00 00 00
 (1652821713.374700)  can0  014   [5]  00 00 00 10 27
 (1652821713.375450)  can0  1E5   [8]  1C 00 77 50 00 00 01 1F
 (1652821713.376701)  can0  012   [8]  E8 03 10 00 00 00 00 00
 (1652821713.384720)  can0  014   [5]  00 00 00 10 27
 (1652821713.385470)  can0  1E5   [8]  1C 00 77 70 00 00 01 3F
 (1652821713.386719)  can0  012   [8]  E8 03 10 00 00 00 00 00
 (1652821713.394678)  can0  014   [5]  00 00 00 10 27
 (1652821713.395450)  can0  1E5   [8]  1C 00 77 10 00 00 00 DF
 (1652821713.396701)  can0  012   [8]  E8 03 10 00 00 00 00 00
 (1652821713.404326)  can0  010   [4]  2B 7A 03 01
 (1652821713.404683)  can0  014   [5]  00 00 00 16 27
 (1652821713.405450)  can0  1E5   [8]  1C 00 77 30 00 00 00 FF
 (1652821713.406701)  can0  012   [8]  E8 03 10 00 00 00 00 00
 (1652821713.414725)  can0  014   [5]  00 00 00 0A 27
 (1652821713.415475)  can0  1E5   [8]  1C 00 77 50 00 00 01 1F
 (1652821713.416724)  can0  012   [8]  E8 03 10 00 00 00 00 00
 (1652821713.424702)  can0  014   [5]  00 00 00 10 27
 (1652821713.425453)  can0  1E5   [8]  1C 00 77 70 00 00 01 3F
 (1652821713.426702)  can0  012   [8]  E8 03 10 00 00 00 00 00
 (1652821713.434726)  can0  014   [5]  01 00 00 10 27
 (1652821713.435474)  can0  1E5   [8]  1C 00 77 10 00 00 00 DF
 (1652821713.436724)  can0  012   [8]  E8 03 10 00 00 00 00 00
 (1652821713.444702)  can0  014   [5]  00 00 00 10 27
 (1652821713.445439)  can0  1E5   [8]  1C 00 77 30 00 00 00 FF
 (1652821713.446724)  can0  012   [8]  E8 03 10 00 00 00 00 00
 (1652821713.454679)  can0  014   [5]  00 00 00 10 27
 (1652821713.455452)  can0  1E5   [8]  1C 00 77 50 00 00 01 1F
 (1652821713.456702)  can0  012   [8]  E8 03 10 00 00 00 00 00
 (1652821713.464724)  can0  014   [5]  00 00 00 10 27
 (1652821713.465476)  can0  1E5   [8]  1C 00 77 70 00 00 01 3F
 (1652821713.466725)  can0  012   [8]  E8 03 10 00 00 00 00 00
 (1652821713.474703)  can0  014   [5]  00 00 00 10 27
 (1652821713.475455)  can0  1E5   [8]  1C 00 77 10 00 00 00 DF
 (1652821713.476702)  can0  012   [8]  E8 03 10 00 00 00 00 00
 (1652821713.484721)  can0  014   [5]  00 00 00 10 27
 (1652821713.485478)  can0  1E5   [8]  1C 00 77 30 00 00 00 FF
 (1652821713.486726)  can0  012   [8]  E8 03 10 00 00 00 00 00
 (1652821713.494704)  can0  014   [5]  00 00 00 10 27
 (1652821713.495452)  can0  1E5   [8]  1C 00 77 50 00 00 01 1F
 (1652821713.496690)  can0  012   [8]  E8 03 10 00 00 00 00 00
 (1652821713.504357)  can0  010   [4]  2B 7A 03 01
 (1652821713.504676)  can0  014   [5]  00 00 00 16 27
 (1652821713.505452)  can0  1E5   [8]  1C 00 77 70 00 00 01 3F
 (1652821713.506702)  can0  012   [8]  E8 03 10 00 00 00 00 00
 (1652821713.514727)  can0  014   [5]  00 00 00 0A 27
 (1652821713.515476)  can0  1E5   [8]  1C 00 77 10 00 00 00 DF
 (1652821713.516726)  can0  012   [8]  E8 03 10 00 00 00 00 00
 (1652821713.524703)  can0  014   [5]  00 00 00 10 27
 (1652821713.525453)  can0  1E5   [8]  1C 00 77 30 00 00 00 FF
 (1652821713.526704)  can0  012   [8]  E8 03 10 00 00 00 00 00
 (1652821713.534726)  can0  014   [5]  00 00 00 10 27
 (1652821713.535475)  can0  1E5   [8]  1C 00 77 50 00 00 01 1F
 (1652821713.536727)  can0  012   [8]  E8 03 10 00 00 00 00 00
 (1652821713.544704)  can0  014   [5]  00 00 00 10 27
 (1652821713.545454)  can0  1E5   [8]  1C 00 77 70 00 00 01 3F
 (1652821713.546704)  can0  012   [8]  E8 03 10 00 00 00 00 00
 (1652821713.554680)  can0  014   [5]  00 00 00 10 27
 (1652821713.555454)  can0  1E5   [8]  1C 00 77 10 00 00 00 DF
 (1652821713.556704)  can0  012   [8]  E8 03 10 00 00 00 00 00
 (1652821713.564693)  can0  014   [5]  00 00 00 10 27
 (1652821713.565479)  can0  1E5   [8]  1C 00 77 30 00 00 00 FF
 (1652821713.566730)  can0  012   [8]  E8 03 10 00 00 00 00 00
 (1652821713.574704)  can0  014   [5]  00 00 00 10 27
 (1652821713.575453)  can0  1E5   [8]  1C 00 77 50 00 00 01 1F
 (1652821713.576704)  can0  012   [8]  E8 03 10 00 00 00 00 00
 (1652821713.584724)  can0  014   [5]  00 00 00 10 27
 (1652821713.585476)  can0  1E5   [8]  1C 00 77 70 00 00 01 3F
 (1652821713.586727)  can0  012   [8]  E8 03 10 00 00 00 00 00
 (1652821713.594706)  can0  014   [5]  00 00 00 10 27
 (1652821713.595455)  can0  1E5   [8]  1C 00 77 10 00 00 00 DF
 (1652821713.596708)  can0  012   [8]  E8 03 10 00 00 00 00 00
 (1652821713.604352)  can0  010   [4]  2B 7A 03 01
 (1652821713.604675)  can0  014   [5]  01 10 00 16 27
 (1652821713.605455)  can0  1E5   [8]  1C 00 77 30 00 00 00 FF
 (1652821713.606705)  can0  012   [8]  E8 03 10 00 00 00 00 00
 (1652821713.614706)  can0  014   [5]  00 00 00 0A 27
 (1652821713.615434)  can0  1E5   [8]  1C 00 77 50 00 00 01 1F
 (1652821713.616727)  can0  012   [8]  E8 03 10 00 00 00 00 00
 (1652821713.624705)  can0  014   [5]  00 00 00 10 27
 (1652821713.625455)  can0  1E5   [8]  1C 00 77 70 00 00 01 3F
 (1652821713.626706)  can0  012   [8]  E8 03 10 00 00 00 00 00
 (1652821713.634729)  can0  014   [5]  01 10 00 10 27
 (1652821713.635478)  can0  1E5   [8]  1C 00 77 10 00 00 00 DF
 (1652821713.636728)  can0  012   [8]  E8 03 10 00 00 00 00 00
 (1652821713.644706)  can0  014   [5]  00 00 00 10 27
 (1652821713.645456)  can0  1E5   [8]  1C 00 77 30 00 00 00 FF
 (1652821713.646706)  can0  012   [8]  E8 03 10 00 00 00 00 00
 (1652821713.654683)  can0  014   [5]  01 10 00 10 27
 (1652821713.655456)  can0  1E5   [8]  1C 00 77 50 00 00 01 1F
 (1652821713.656705)  can0  012   [8]  E8 03 10 00 00 00 00 00
 (1652821713.664707)  can0  014   [5]  00 00 00 10 27
 (1652821713.665456)  can0  1E5   [8]  1C 00 77 70 00 00 01 3F
 (1652821713.666693)  can0  012   [8]  E8 03 10 00 00 00 00 00
 (1652821713.674707)  can0  014   [5]  01 10 00 10 27
 (1652821713.675456)  can0  1E5   [8]  1C 00 77 10 00 00 00 DF
 (1652821713.676706)  can0  012   [8]  E8 03 10 00 00 00 00 00
 (1652821713.684725)  can0  014   [5]  01 00 00 10 27
 (1652821713.685477)  can0  1E5   [8]  1C 00 77 30 00 00 00 FF
 (1652821713.686726)  can0  012   [8]  E8 03 10 00 00 00 00 00
 (1652821713.694707)  can0  014   [5]  01 10 00 10 27
 (1652821713.695456)  can0  1E5   [8]  1C 00 77 50 00 00 01 1F
 (1652821713.696706)  can0  012   [8]  E8 03 10 00 00 00 00 00
 (1652821713.704357)  can0  010   [4]  2B 7A 03 01
 (1652821713.704680)  can0  014   [5]  01 10 00 16 27
 (1652821713.705457)  can0  1E5   [8]  1C 00 77 70 00 00 01 3F
 (1652821713.706707)  can0  012   [8]  E8 03 10 00 00 00 00 00
 (1652821713.714708)  can0  014   [5]  01 00 00 0A 27
 (1652821713.715456)  can0  1E5   [8]  1C 00 77 10 00 00 00 DF
 (1652821713.716707)  can0  012   [8]  E8 03 10 00 00 00 00 00
 (1652821713.724708)  can0  014   [5]  01 10 00 10 27
 (1652821713.725457)  can0  1E5   [8]  1C 00 77 30 00 00 00 FF
 (1652821713.726708)  can0  012   [8]  E8 03 10 00 00 00 00 00
 (1652821713.726710)  can0  0E3   [2]  3A 00
 (1652821713.734697)  can0  014   [5]  01 10 00 13 27
 (1652821713.735482)  can0  1E5   [8]  1C 00 77 50 00 00 01 1F
 (1652821713.736731)  can0  012   [8]  E8 03 10 00 00 00 00 00
 (1652821713.744708)  can0  014   [5]  01 10 00 0D 27
 (1652821713.745457)  can0  1E5   [8]  1C 00 77 70 00 00 01 3F
 (1652821713.746709)  can0  012   [8]  E8 03 10 00 00 00 00 00
 (1652821713.754684)  can0  014   [5]  01 10 00 10 27
 (1652821713.755457)  can0  1E5   [8]  1C 00 77 10 00 00 00 DF
 (1652821713.756708)  can0  012   [8]  E8 03 10 00 00 00 00 00
 (1652821713.764708)  can0  014   [5]  01 10 00 10 27
 (1652821713.765459)  can0  1E5   [8]  1C 00 77 30 00 00 00 FF
 (1652821713.766708)  can0  012   [8]  E8 03 10 00 00 00 00 00
 (1652821713.774709)  can0  014   [5]  02 10 00 10 27
 (1652821713.775459)  can0  1E5   [8]  1C 00 77 50 00 00 01 1F
 (1652821713.776708)  can0  012   [8]  E8 03 10 00 00 00 00 00
 (1652821713.784706)  can0  014   [5]  01 20 00 10 27
 (1652821713.785437)  can0  1E5   [8]  1C 00 77 70 00 00 01 3F
 (1652821713.786727)  can0  012   [8]  E8 03 10 00 00 00 00 00
 (1652821713.794708)  can0  014   [5]  01 10 00 10 27
 (1652821713.795458)  can0  1E5   [8]  1C 00 77 10 00 00 00 DF
 (1652821713.796709)  can0  012   [8]  E8 03 10 00 00 00 00 00
 (1652821713.804357)  can0  010   [4]  2B 7A 03 01
 (1652821713.804366)  can0  0E2   [2]  B2 00
 (1652821713.804680)  can0  014   [5]  02 20 00 1B 27
 (1652821713.804797)  can0  0E4   [2]  B2 00
 (1652821713.805459)  can0  1E5   [8]  1C 00 77 30 00 00 00 FF
 (1652821713.806709)  can0  012   [8]  E8 03 10 00 00 00 00 00
 (1652821713.814709)  can0  014   [5]  02 20 00 05 27
 (1652821713.815460)  can0  1E5   [8]  1C 00 77 50 00 00 01 1F
 (1652821713.816709)  can0  012   [8]  E8 03 10 00 00 00 00 00
 (1652821713.824710)  can0  014   [5]  02 20 00 10 27
 (1652821713.825459)  can0  1E5   [8]  1C 00 77 70 00 00 01 3F
 (1652821713.826709)  can0  012   [8]  E8 03 10 00 00 00 00 00
 (1652821713.834711)  can0  014   [5]  02 20 00 10 27
 (1652821713.835460)  can0  1E5   [8]  1C 00 77 10 00 00 00 DF
 (1652821713.836697)  can0  012   [8]  E8 03 10 00 00 00 00 00
 (1652821713.844709)  can0  014   [5]  02 30 00 10 27
 (1652821713.845459)  can0  1E5   [8]  1C 00 77 30 00 00 00 FF
 (1652821713.846710)  can0  012   [8]  E8 03 10 00 00 00 00 00
 (1652821713.854665)  can0  014   [5]  02 20 00 10 27
 (1652821713.855464)  can0  1E5   [8]  1C 00 77 50 00 00 01 1F
 (1652821713.856711)  can0  012   [8]  E8 03 10 00 00 00 00 00
 (1652821713.864711)  can0  014   [5]  03 30 00 10 27
 (1652821713.865459)  can0  1E5   [8]  1C 00 77 70 00 00 01 3F
 (1652821713.866711)  can0  012   [8]  E8 03 10 00 00 00 00 00
 (1652821713.874711)  can0  014   [5]  03 20 00 10 27
 (1652821713.875461)  can0  1E5   [8]  1C 00 77 10 00 00 00 DF
 (1652821713.876711)  can0  012   [8]  E8 03 10 00 00 00 00 00
 (1652821713.884710)  can0  014   [5]  04 30 00 11 27
 (1652821713.885460)  can0  1E5   [8]  1C 00 77 30 00 00 00 FF
 (1652821713.886710)  can0  012   [8]  E8 03 10 00 00 00 00 00
 (1652821713.894710)  can0  014   [5]  03 40 00 13 27
 (1652821713.895460)  can0  1E5   [8]  1C 00 77 50 00 00 01 1F
 (1652821713.896712)  can0  012   [8]  E8 03 10 00 00 00 00 00
 (1652821713.904323)  can0  010   [4]  2B 7A 03 01
 (1652821713.904658)  can0  014   [5]  03 20 00 12 27
 (1652821713.905462)  can0  1E5   [8]  1C 00 77 70 00 00 01 3F
 (1652821713.906712)  can0  012   [8]  E8 03 10 00 00 00 00 00
 (1652821713.914711)  can0  014   [5]  04 40 00 0A 27
 (1652821713.915462)  can0  1E5   [8]  1C 00 77 10 00 00 00 DF
 (1652821713.916710)  can0  012   [8]  E8 03 10 00 00 00 00 00
 (1652821713.924734)  can0  014   [5]  04 30 00 10 27
 (1652821713.925484)  can0  1E5   [8]  1C 00 77 30 00 00 00 FF
 (1652821713.926733)  can0  012   [8]  E8 03 10 00 00 00 00 00
 (1652821713.934731)  can0  014   [5]  04 40 00 10 27
 (1652821713.935486)  can0  1E5   [8]  1C 00 77 50 00 00 01 1F
 (1652821713.936736)  can0  012   [8]  E8 03 10 00 00 00 00 00
 (1652821713.944710)  can0  014   [5]  05 40 00 10 27
 (1652821713.945463)  can0  1E5   [8]  1C 00 77 70 00 00 01 3F
 (1652821713.946712)  can0  012   [8]  E8 03 10 00 00 00 00 00
 (1652821713.954655)  can0  014   [5]  04 40 00 10 27
 (1652821713.955463)  can0  1E5   [8]  1C 00 77 10 00 00 00 DF
 (1652821713.956712)  can0  012   [8]  E8 03 10 00 00 00 00 00
 (1652821713.964713)  can0  014   [5]  05 40 00 10 27
 (1652821713.965462)  can0  1E5   [8]  1C 00 77 30 00 00 00 FF
 (1652821713.966712)  can0  012   [8]  E8 03 10 00 00 00 00 00
 (1652821713.974737)  can0  014   [5]  05 50 00 10 27
 (1652821713.975486)  can0  1E5   [8]  1C 00 77 50 00 00 01 1F
 (1652821713.976734)  can0  012   [8]  E8 03 10 00 00 00 00 00
 (1652821713.984732)  can0  014   [5]  05 50 00 10 27
 (1652821713.985483)  can0  1E5   [8]  1C 00 77 70 00 00 01 3F
 (1652821713.986735)  can0  012   [8]  E8 03 10 00 00 00 00 00
 (1652821713.994711)  can0  014   [5]  06 50 00 10 27
 (1652821713.995464)  can0  1E5   [8]  1C 00 77 10 00 00 00 DF
 (1652821713.996712)  can0  012   [8]  E8 03 10 00 00 00 00 00
 (1652821714.004167)  can0  010   [4]  2B 7A 03 01
 (1652821714.004678)  can0  014   [5]  06 60 00 16 27
 (1652821714.005463)  can0  1E5   [8]  1C 00 77 30 00 00 00 FF
 (1652821714.006714)  can0  012   [8]  E8 03 10 00 00 00 00 00
 (1652821714.014735)  can0  014   [5]  07 60 00 0A 27
 (1652821714.015486)  can0  1E5   [8]  1C 00 77 50 00 00 01 1F
 (1652821714.016737)  can0  012   [8]  E8 03 10 00 00 00 00 00
 (1652821714.024714)  can0  014   [5]  06 60 00 10 27
 (1652821714.025464)  can0  1E5   [8]  1C 00 77 70 00 00 01 3F
 (1652821714.026714)  can0  012   [8]  E8 03 10 00 00 00 00 00
 (1652821714.034713)  can0  014   [5]  07 70 00 10 27
 (1652821714.035463)  can0  1E5   [8]  1C 00 77 10 00 00 00 DF
 (1652821714.036714)  can0  012   [8]  E8 03 10 00 00 00 00 00
 (1652821714.044715)  can0  014   [5]  08 70 00 10 27
 (1652821714.045464)  can0  1E5   [8]  1C 00 77 30 00 00 00 FF
 (1652821714.046713)  can0  012   [8]  E8 03 10 00 00 00 00 00
 (1652821714.054732)  can0  014   [5]  07 80 00 10 27
 (1652821714.055464)  can0  1E5   [8]  1C 00 77 50 00 00 01 1F
 (1652821714.056715)  can0  012   [8]  E8 03 10 00 00 00 00 00
 (1652821714.064715)  can0  014   [5]  09 80 00 13 27
 (1652821714.065464)  can0  1E5   [8]  1C 00 77 70 00 00 01 3F
 (1652821714.066714)  can0  012   [8]  E8 03 10 00 00 00 00 00
 (1652821714.074714)  can0  014   [5]  08 90 00 0D 27
 (1652821714.075464)  can0  1E5   [8]  1C 00 77 10 00 00 00 DF
 (1652821714.076713)  can0  012   [8]  E8 03 10 00 00 00 00 00
 (1652821714.084713)  can0  014   [5]  08 90 00 10 27
 (1652821714.085462)  can0  1E5   [8]  1C 00 77 30 00 00 00 FF
 (1652821714.086694)  can0  012   [8]  E8 03 10 00 00 00 00 00
 (1652821714.094713)  can0  014   [5]  08 A0 00 10 27
 (1652821714.095467)  can0  1E5   [8]  1C 00 77 50 00 00 01 1F
 (1652821714.096714)  can0  012   [8]  E8 03 10 00 00 00 00 00
 (1652821714.104215)  can0  010   [4]  2B 7A 03 01
 (1652821714.104723)  can0  014   [5]  09 A0 00 16 27
 (1652821714.105466)  can0  1E5   [8]  1C 00 77 70 00 00 01 3F
 (1652821714.106715)  can0  012   [8]  E8 03 10 00 00 00 00 00
 (1652821714.114715)  can0  014   [5]  09 B0 00 0A 27
 (1652821714.115465)  can0  1E5   [8]  1C 00 77 10 00 00 00 DF
 (1652821714.116716)  can0  012   [8]  E8 03 10 00 00 00 00 00
 (1652821714.124716)  can0  014   [5]  0A B0 00 10 27
 (1652821714.125465)  can0  1E5   [8]  1C 00 77 30 00 00 00 FF
 (1652821714.126715)  can0  012   [8]  E8 03 10 00 00 00 00 00
 (1652821714.134718)  can0  014   [5]  0A B0 00 13 27
 (1652821714.135467)  can0  1E5   [8]  1C 00 77 50 00 00 01 1F
 (1652821714.136713)  can0  012   [8]  E8 03 10 00 00 00 00 00
 (1652821714.144716)  can0  014   [5]  0C B0 00 0D 27
 (1652821714.145465)  can0  1E5   [8]  1C 00 77 70 00 00 01 3F
 (1652821714.146717)  can0  012   [8]  E8 03 10 00 00 00 00 00
 (1652821714.154736)  can0  014   [5]  0C C0 00 13 27
 (1652821714.155466)  can0  1E5   [8]  1C 00 77 10 00 00 00 DF
 (1652821714.156716)  can0  012   [8]  E8 03 10 00 00 00 00 00
 (1652821714.164716)  can0  014   [5]  0C D0 00 0D 27
 (1652821714.165465)  can0  1E5   [8]  1C 00 77 30 00 00 00 FF
 (1652821714.166717)  can0  012   [8]  E8 03 10 00 00 00 00 00
 (1652821714.174716)  can0  014   [5]  0D E0 00 10 27
 (1652821714.175466)  can0  1E5   [8]  1C 00 77 50 00 00 01 1F
 (1652821714.176718)  can0  012   [8]  E8 03 10 00 00 00 00 00
 (1652821714.184715)  can0  014   [5]  0E D0 00 10 27
 (1652821714.185410)  can0  1E5   [8]  1C 00 77 70 00 00 01 3F
 (1652821714.186714)  can0  012   [8]  E8 03 10 00 00 00 00 00
 (1652821714.194717)  can0  014   [5]  0E F0 00 10 27
 (1652821714.195466)  can0  1E5   [8]  1C 00 77 10 00 00 00 DF
 (1652821714.196717)  can0  012   [8]  E8 03 10 00 00 00 00 00
 (1652821714.204218)  can0  010   [4]  2B 7A 03 01
 (1652821714.204726)  can0  014   [5]  0E F0 00 16 27
 (1652821714.205467)  can0  1E5   [8]  1C 00 77 30 00 00 00 FF
 (1652821714.206717)  can0  012   [8]  E8 03 10 00 00 00 00 00
 (1652821714.214714)  can0  014   [5]  0F F0 00 0A 27
 (1652821714.215467)  can0  1E5   [8]  1C 00 77 50 00 00 01 1F
 (1652821714.216715)  can0  012   [8]  E8 03 10 00 00 00 00 00
 (1652821714.224718)  can0  014   [5]  0F F0 00 10 27
 (1652821714.225468)  can0  1E5   [8]  1C 00 77 70 00 00 01 3F
 (1652821714.226718)  can0  012   [8]  E8 03 10 00 00 00 00 00
 (1652821714.234661)  can0  014   [5]  10 00 01 10 27
 (1652821714.235468)  can0  1E5   [8]  1C 00 77 10 00 00 00 DF
 (1652821714.236717)  can0  012   [8]  E8 03 10 00 00 00 00 00
 (1652821714.244718)  can0  014   [5]  11 00 01 10 27
 (1652821714.245467)  can0  1E5   [8]  1C 00 77 30 00 00 00 FF
 (1652821714.246717)  can0  012   [8]  E8 03 10 00 00 00 00 00
 (1652821714.254737)  can0  014   [5]  12 20 01 10 27
 (1652821714.255468)  can0  1E5   [8]  1C 00 77 50 00 00 01 1F
 (1652821714.256718)  can0  012   [8]  E8 03 10 00 00 00 00 00
 (1652821714.264716)  can0  014   [5]  12 20 01 10 27
 (1652821714.265468)  can0  1E5   [8]  1C 00 77 70 00 00 01 3F
 (1652821714.266718)  can0  012   [8]  E8 03 10 00 00 00 00 00
 (1652821714.274718)  can0  014   [5]  12 20 01 10 27
 (1652821714.275469)  can0  1E5   [8]  1C 00 77 10 00 00 00 DF
 (1652821714.276719)  can0  012   [8]  E8 03 10 00 00 00 00 00
 (1652821714.284717)  can0  014   [5]  13 30 01 10 27
 (1652821714.285467)  can0  1E5   [8]  1C 00 77 30 00 00 00 FF
 (1652821714.286718)  can0  012   [8]  E8 03 10 00 00 00 00 00
 (1652821714.294718)  can0  014   [5]  13 30 01 14 27
 (1652821714.295469)  can0  1E5   [8]  1C 00 77 50 00 00 01 1F
 (1652821714.296718)  can0  012   [8]  E8 03 10 00 00 00 00 00
 (1652821714.304220)  can0  010   [4]  2B 7A 03 01
 (1652821714.304728)  can0  014   [5]  14 20 01 12 27
 (1652821714.305469)  can0  1E5   [8]  1C 00 77 70 00 00 01 3F
 (1652821714.306720)  can0  012   [8]  E8 03 10 00 00 00 00 00
 (1652821714.314719)  can0  014   [5]  14 40 01 0A 27
 (1652821714.315469)  can0  1E5   [8]  1C 00 77 10 00 00 00 DF
 (1652821714.316663)  can0  012   [8]  E8 03 10 00 00 00 00 00
 (1652821714.324719)  can0  014   [5]  14 30 01 10 27
 (1652821714.325470)  can0  1E5   [8]  1C 00 77 30 00 00 00 FF
 (1652821714.326719)  can0  012   [8]  E8 03 10 00 00 00 00 00
 (1652821714.334742)  can0  014   [5]  16 50 01 10 27
 (1652821714.335494)  can0  1E5   [8]  1C 00 77 50 00 00 01 1F
 (1652821714.336743)  can0  012   [8]  E8 03 10 00 00 00 00 00
 (1652821714.344721)  can0  014   [5]  16 60 01 10 27
 (1652821714.345471)  can0  1E5   [8]  1C 00 77 70 00 00 01 3F
 (1652821714.346721)  can0  012   [8]  E8 03 10 00 00 00 00 00
 (1652821714.354697)  can0  014   [5]  17 70 01 11 27
 (1652821714.355469)  can0  1E5   [8]  1C 00 77 10 00 00 00 DF
 (1652821714.356720)  can0  012   [8]  E8 03 10 00 00 00 00 00
 (1652821714.364720)  can0  014   [5]  16 70 01 0F 27
 (1652821714.365471)  can0  1E5   [8]  1C 00 77 30 00 00 00 FF
 (1652821714.366687)  can0  012   [8]  E8 03 10 00 00 00 00 00
 (1652821714.374721)  can0  014   [5]  17 70 01 10 27
 (1652821714.375470)  can0  1E5   [8]  1C 00 77 50 00 00 01 1F
 (1652821714.376720)  can0  012   [8]  E8 03 10 00 00 00 00 00
 (1652821714.384717)  can0  014   [5]  18 90 01 10 27
 (1652821714.385469)  can0  1E5   [8]  1C 00 77 70 00 00 01 3F
 (1652821714.386720)  can0  012   [8]  E8 03 10 00 00 00 00 00
 (1652821714.394721)  can0  014   [5]  1A 90 01 13 27
 (1652821714.395471)  can0  1E5   [8]  1C 00 77 10 00 00 00 DF
 (1652821714.396721)  can0  012   [8]  E8 03 10 00 00 00 00 00
 (1652821714.404345)  can0  010   [4]  2B 7A 03 01
 (1652821714.404693)  can0  014   [5]  19 A0 01 13 27
 (1652821714.405471)  can0  1E5   [8]  1C 00 77 30 00 00 00 FF
 (1652821714.406721)  can0  012   [8]  E8 03 10 00 00 00 00 00
 (1652821714.414722)  can0  014   [5]  1A A0 01 0A 27
 (1652821714.415471)  can0  1E5   [8]  1C 00 77 50 00 00 01 1F
 (1652821714.416721)  can0  012   [8]  E8 03 10 00 00 00 00 00
 (1652821714.424723)  can0  014   [5]  1A A0 01 10 27
 (1652821714.425472)  can0  1E5   [8]  1C 00 77 70 00 00 01 3F
 (1652821714.426721)  can0  012   [8]  E8 03 10 00 00 00 00 00
 (1652821714.434744)  can0  014   [5]  1C B0 01 13 27
 (1652821714.435495)  can0  1E5   [8]  1C 00 77 10 00 00 00 DF
 (1652821714.436746)  can0  012   [8]  E8 03 10 00 00 00 00 00
 (1652821714.444723)  can0  014   [5]  1C C0 01 10 27
 (1652821714.445346)  can0  1E5   [8]  1C 00 77 30 00 00 00 FF
 (1652821714.446724)  can0  012   [8]  E8 03 10 00 00 00 00 00
 (1652821714.454705)  can0  014   [5]  1C C0 01 0D 27
 (1652821714.455472)  can0  1E5   [8]  1C 00 77 50 00 00 01 1F
 (1652821714.456742)  can0  012   [8]  E8 03 10 00 00 00 00 00
 (1652821714.464746)  can0  014   [5]  1D E0 01 15 27
 (1652821714.465436)  can0  1E5   [8]  1C 00 77 70 00 00 01 3F
 (1652821714.466741)  can0  012   [8]  E8 03 10 00 00 00 00 00
 (1652821714.474724)  can0  014   [5]  1C C0 01 0B 27
 (1652821714.475472)  can0  1E5   [8]  1C 00 77 10 00 00 00 DF
 (1652821714.476722)  can0  012   [8]  E8 03 10 00 00 00 00 00
 (1652821714.484721)  can0  014   [5]  1F E0 01 10 27
 (1652821714.485345)  can0  1E5   [8]  1C 00 77 30 00 00 00 FF
 (1652821714.486720)  can0  012   [8]  E8 03 10 00 00 00 00 00
 (1652821714.494723)  can0  014   [5]  1F 00 02 10 27
 (1652821714.495473)  can0  1E5   [8]  1C 00 77 50 00 00 01 1F
 (1652821714.496723)  can0  012   [8]  E8 03 10 00 00 00 00 00
 (1652821714.504194)  can0  010   [4]  2B 7A 03 01
 (1652821714.504702)  can0  014   [5]  20 F0 01 16 27
 (1652821714.505347)  can0  1E5   [8]  1C 00 77 70 00 00 01 3F
 (1652821714.506723)  can0  012   [8]  E8 03 10 00 00 00 00 00
 (1652821714.514723)  can0  014   [5]  1F 00 02 0A 27
 (1652821714.515285)  can0  1E5   [8]  1C 00 77 10 00 00 00 DF
 (1652821714.516723)  can0  012   [8]  E8 03 10 00 00 00 00 00
 (1652821714.524722)  can0  014   [5]  21 10 02 10 27
 (1652821714.525349)  can0  1E5   [8]  1C 00 77 30 00 00 00 FF
 (1652821714.526723)  can0  012   [8]  E8 03 10 00 00 00 00 00
 (1652821714.534724)  can0  014   [5]  22 20 02 10 27
 (1652821714.535474)  can0  1E5   [8]  1C 00 77 50 00 00 01 1F
 (1652821714.536723)  can0  012   [8]  E8 03 10 00 00 00 00 00
 (1652821714.544723)  can0  014   [5]  22 20 02 10 27
 (1652821714.545350)  can0  1E5   [8]  1C 00 77 70 00 00 01 3F
 (1652821714.546725)  can0  012   [8]  E8 03 10 00 00 00 00 00
 (1652821714.554703)  can0  014   [5]  22 20 02 10 27
 (1652821714.555349)  can0  1E5   [8]  1C 00 77 10 00 00 00 DF
 (1652821714.556724)  can0  012   [8]  E8 03 10 00 00 00 00 00
 (1652821714.564703)  can0  014   [5]  24 40 02 10 27
 (1652821714.565475)  can0  1E5   [8]  1C 00 77 30 00 00 00 FF
 (1652821714.566724)  can0  012   [8]  E8 03 10 00 00 00 00 00
 (1652821714.574724)  can0  014   [5]  24 50 02 10 27
 (1652821714.575349)  can0  1E5   [8]  1C 00 77 50 00 00 01 1F
 (1652821714.576724)  can0  012   [8]  E8 03 10 00 00 00 00 00
 (1652821714.584722)  can0  014   [5]  25 50 02 13 27
 (1652821714.585348)  can0  1E5   [8]  1C 00 77 70 00 00 01 3F
 (1652821714.586723)  can0  012   [8]  E8 03 10 00 00 00 00 00
 (1652821714.594725)  can0  014   [5]  24 50 02 0D 27
 (1652821714.595350)  can0  1E5   [8]  1C 00 77 10 00 00 00 DF
 (1652821714.596725)  can0  012   [8]  E8 03 10 00 00 00 00 00
 (1652821714.604225)  can0  010   [4]  2B 7A 03 01
 (1652821714.604733)  can0  014   [5]  27 70 02 16 27
 (1652821714.605350)  can0  1E5   [8]  1C 00 77 30 00 00 00 FF
 (1652821714.606725)  can0  012   [8]  E8 03 10 00 00 00 00 00
 (1652821714.614724)  can0  014   [5]  27 70 02 0A 27
 (1652821714.615350)  can0  1E5   [8]  1C 00 77 50 00 00 01 1F
 (1652821714.616725)  can0  012   [8]  E8 03 10 00 00 00 00 00
 (1652821714.624725)  can0  014   [5]  26 70 02 10 27
 (1652821714.625475)  can0  1E5   [8]  1C 00 77 70 00 00 01 3F
 (1652821714.626725)  can0  012   [8]  E8 03 10 00 00 00 00 00
 (1652821714.634748)  can0  014   [5]  29 80 02 11 27
 (1652821714.635374)  can0  1E5   [8]  1C 00 77 10 00 00 00 DF
 (1652821714.636748)  can0  012   [8]  E8 03 10 00 00 00 00 00
 (1652821714.644726)  can0  014   [5]  29 90 02 0F 27
 (1652821714.645475)  can0  1E5   [8]  1C 00 77 30 00 00 00 FF
 (1652821714.646670)  can0  012   [8]  E8 03 10 00 00 00 00 00
 (1652821714.654693)  can0  014   [5]  28 90 02 10 27
 (1652821714.655351)  can0  1E5   [8]  1C 00 77 50 00 00 01 1F
 (1652821714.656726)  can0  012   [8]  E8 03 10 00 00 00 00 00
 (1652821714.664748)  can0  014   [5]  2A A0 02 10 27
 (1652821714.665375)  can0  1E5   [8]  1C 00 77 70 00 00 01 3F
 (1652821714.666748)  can0  012   [8]  E8 03 10 00 00 00 00 00
 (1652821714.674726)  can0  014   [5]  2A C0 02 10 27
 (1652821714.675352)  can0  1E5   [8]  1C 00 77 10 00 00 00 DF
 (1652821714.676725)  can0  012   [8]  E8 03 10 00 00 00 00 00
 (1652821714.684725)  can0  014   [5]  2B B0 02 10 27
 (1652821714.685350)  can0  1E5   [8]  1C 00 77 30 00 00 00 FF
 (1652821714.686724)  can0  012   [8]  E8 03 10 00 00 00 00 00
 (1652821714.694726)  can0  014   [5]  2C B0 02 14 27
 (1652821714.695352)  can0  1E5   [8]  1C 00 77 50 00 00 01 1F
 (1652821714.696670)  can0  012   [8]  E8 03 10 00 00 00 00 00
 (1652821714.704197)  can0  010   [4]  2B 7A 03 01
 (1652821714.704705)  can0  014   [5]  2D D0 02 12 27
 (1652821714.705353)  can0  1E5   [8]  1C 00 77 70 00 00 01 3F
 (1652821714.706728)  can0  012   [8]  E8 03 10 00 00 00 00 00
 (1652821714.714727)  can0  014   [5]  2D E0 02 0A 27
 (1652821714.715352)  can0  1E5   [8]  1C 00 77 10 00 00 00 DF
 (1652821714.716727)  can0  012   [8]  E8 03 10 00 00 00 00 00
 (1652821714.724727)  can0  014   [5]  2E E0 02 10 27
 (1652821714.725353)  can0  1E5   [8]  1C 00 77 30 00 00 00 FF
 (1652821714.726727)  can0  012   [8]  E8 03 10 00 00 00 00 00
 (1652821714.726730)  can0  0E3   [2]  62 00
 (1652821714.734728)  can0  014   [5]  2E F0 02 13 27
 (1652821714.735356)  can0  1E5   [8]  1C 00 77 50 00 00 01 1F
 (1652821714.736727)  can0  012   [8]  E8 03 10 00 00 00 00 00
 (1652821714.744727)  can0  014   [5]  2F F0 02 0D 27
 (1652821714.745353)  can0  1E5   [8]  1C 00 77 70 00 00 01 3F
 (1652821714.746727)  can0  012   [8]  E8 03 10 00 00 00 00 00
 (1652821714.754700)  can0  014   [5]  31 00 03 13 27
 (1652821714.755352)  can0  1E5   [8]  1C 00 77 10 00 00 00 DF
 (1652821714.756729)  can0  012   [8]  E8 03 10 00 00 00 00 00
 (1652821714.764751)  can0  014   [5]  2F 20 03 11 27
 (1652821714.765376)  can0  1E5   [8]  1C 00 77 30 00 00 00 FF
 (1652821714.766627)  can0  012   [8]  E8 03 10 00 00 00 00 00
 (1652821714.774728)  can0  014   [5]  31 10 03 0C 27
 (1652821714.775354)  can0  1E5   [8]  1C 00 77 50 00 00 01 1F
 (1652821714.776721)  can0  012   [8]  E8 03 10 00 00 00 00 00
 (1652821714.784748)  can0  014   [5]  33 20 03 10 27
 (1652821714.785373)  can0  1E5   [8]  1C 00 77 70 00 00 01 3F
 (1652821714.786622)  can0  012   [8]  E8 03 10 00 00 00 00 00
 (1652821714.794729)  can0  014   [5]  31 30 03 10 27
 (1652821714.795354)  can0  1E5   [8]  1C 00 77 10 00 00 00 DF
 (1652821714.796727)  can0  012   [8]  E8 03 10 00 00 00 00 00
 (1652821714.804230)  can0  010   [4]  2B 7A 03 01
 (1652821714.804450)  can0  0E2   [2]  DA 00
 (1652821714.804699)  can0  014   [5]  32 40 03 1F 27
 (1652821714.804700)  can0  0E4   [2]  DA 00
 (1652821714.805354)  can0  1E5   [8]  1C 00 77 30 00 00 00 FF
 (1652821714.806728)  can0  012   [8]  E8 03 10 00 00 00 00 00
 (1652821714.814728)  can0  014   [5]  35 40 03 04 27
 (1652821714.815355)  can0  1E5   [8]  1C 00 77 50 00 00 01 1F
 (1652821714.816604)  can0  012   [8]  E8 03 10 00 00 00 00 00
 (1652821714.824729)  can0  014   [5]  33 50 03 10 27
 (1652821714.825355)  can0  1E5   [8]  1C 00 77 70 00 00 01 3F
 (1652821714.826729)  can0  012   [8]  E8 03 10 00 00 00 00 00
 (1652821714.834729)  can0  014   [5]  33 70 03 12 27
 (1652821714.835354)  can0  1E5   [8]  1C 00 77 10 00 00 00 DF
 (1652821714.836730)  can0  012   [8]  E8 03 10 00 00 00 00 00
 (1652821714.844730)  can0  014   [5]  37 70 03 0B 27
 (1652821714.845299)  can0  1E5   [8]  1C 00 77 30 00 00 00 FF
 (1652821714.846606)  can0  012   [8]  E8 03 10 00 00 00 00 00
 (1652821714.854703)  can0  014   [5]  34 60 03 10 27
 (1652821714.855354)  can0  1E5   [8]  1C 00 77 50 00 00 01 1F
 (1652821714.856731)  can0  012   [8]  E8 03 10 00 00 00 00 00
 (1652821714.864730)  can0  014   [5]  37 70 03 10 27
 (1652821714.865355)  can0  1E5   [8]  1C 00 77 70 00 00 01 3F
 (1652821714.866604)  can0  012   [8]  E8 03 10 00 00 00 00 00
 (1652821714.874731)  can0  014   [5]  37 80 03 10 27
 (1652821714.875355)  can0  1E5   [8]  1C 00 77 10 00 00 00 DF
 (1652821714.876606)  can0  012   [8]  E8 03 10 00 00 00 00 00
 (1652821714.884729)  can0  014   [5]  38 90 03 10 27
 (1652821714.885353)  can0  1E5   [8]  1C 00 77 30 00 00 00 FF
 (1652821714.886604)  can0  012   [8]  E8 03 10 00 00 00 00 00
 (1652821714.894674)  can0  014   [5]  3A B0 03 11 27
 (1652821714.895356)  can0  1E5   [8]  1C 00 77 50 00 00 01 1F
 (1652821714.896733)  can0  012   [8]  E8 03 10 00 00 00 00 00
 (1652821714.904208)  can0  010   [4]  2B 7A 03 01
 (1652821714.904706)  can0  014   [5]  3A A0 03 15 27
 (1652821714.905355)  can0  1E5   [8]  1C 00 77 70 00 00 01 3F
 (1652821714.906607)  can0  012   [8]  E8 03 10 00 00 00 00 00
 (1652821714.914730)  can0  014   [5]  3B B0 03 0A 27
 (1652821714.915356)  can0  1E5   [8]  1C 00 77 10 00 00 00 DF
 (1652821714.916731)  can0  012   [8]  E8 03 10 00 00 00 00 00
 (1652821714.924731)  can0  014   [5]  3C B0 03 10 27
 (1652821714.925356)  can0  1E5   [8]  1C 00 77 30 00 00 00 FF
 (1652821714.926732)  can0  012   [8]  E8 03 10 00 00 00 00 00
 (1652821714.934700)  can0  014   [5]  3D D0 03 10 27
 (1652821714.935305)  can0  1E5   [8]  1C 00 77 50 00 00 01 1F
 (1652821714.936750)  can0  012   [8]  E8 03 10 00 00 00 00 00
 (1652821714.944675)  can0  014   [5]  3C E0 03 10 27
 (1652821714.945290)  can0  1E5   [8]  1C 00 77 70 00 00 01 3F
 (1652821714.946666)  can0  012   [8]  E8 03 10 00 00 00 00 00
 (1652821714.954687)  can0  014   [5]  3F F0 03 13 27
 (1652821714.955357)  can0  1E5   [8]  1C 00 77 10 00 00 00 DF
 (1652821714.956733)  can0  012   [8]  E8 03 10 00 00 00 00 00
 (1652821714.964732)  can0  014   [5]  3E D0 03 10 27
 (1652821714.965322)  can0  1E5   [8]  1C 00 77 30 00 00 00 FF
 (1652821714.966543)  can0  012   [8]  E8 03 10 00 00 00 00 00
 (1652821714.974732)  can0  014   [5]  41 D0 03 10 27
 (1652821714.975358)  can0  1E5   [8]  1C 00 77 50 00 00 01 1F
 (1652821714.976607)  can0  012   [8]  E8 03 10 00 00 00 00 00
 (1652821714.984717)  can0  014   [5]  3E 00 04 11 27
 (1652821714.985335)  can0  1E5   [8]  1C 00 77 70 00 00 01 3F
 (1652821714.986559)  can0  012   [8]  E8 03 10 00 00 00 00 00
 (1652821714.994731)  can0  014   [5]  42 10 04 10 27
 (1652821714.995356)  can0  1E5   [8]  1C 00 77 10 00 00 00 DF
 (1652821714.996607)  can0  012   [8]  E8 03 10 00 00 00 00 00
 (1652821715.004193)  can0  010   [4]  2B 7A 03 01
 (1652821715.004714)  can0  014   [5]  41 20 04 15 27
 (1652821715.005358)  can0  1E5   [8]  1C 00 77 30 00 00 00 FF
 (1652821715.006609)  can0  012   [8]  E8 03 10 00 00 00 00 00
 (1652821715.014733)  can0  014   [5]  42 20 04 07 27
 (1652821715.015358)  can0  1E5   [8]  1C 00 77 50 00 00 01 1F
 (1652821715.016688)  can0  012   [8]  E8 03 10 00 00 00 00 00
 (1652821715.024733)  can0  014   [5]  43 30 04 10 27
 (1652821715.025359)  can0  1E5   [8]  1C 00 77 70 00 00 01 3F
 (1652821715.026609)  can0  012   [8]  E8 03 10 00 00 00 00 00
 (1652821715.034695)  can0  014   [5]  43 50 04 14 27
 (1652821715.035381)  can0  1E5   [8]  1C 00 77 10 00 00 00 DF
 (1652821715.036630)  can0  012   [8]  E8 03 10 00 00 00 00 00
 (1652821715.044734)  can0  014   [5]  42 40 04 10 27
 (1652821715.045359)  can0  1E5   [8]  1C 00 77 30 00 00 00 FF
 (1652821715.046733)  can0  012   [8]  E8 03 10 00 00 00 00 00
 (1652821715.054716)  can0  014   [5]  46 40 04 0D 27
 (1652821715.055359)  can0  1E5   [8]  1C 00 77 50 00 00 01 1F
 (1652821715.056610)  can0  012   [8]  E8 03 10 00 00 00 00 00
 (1652821715.064735)  can0  014   [5]  44 50 04 0F 27
 (1652821715.065360)  can0  1E5   [8]  1C 00 77 70 00 00 01 3F
 (1652821715.066671)  can0  012   [8]  E8 03 10 00 00 00 00 00
 (1652821715.074734)  can0  014   [5]  47 60 04 13 27
 (1652821715.075361)  can0  1E5   [8]  1C 00 77 10 00 00 00 DF
 (1652821715.076609)  can0  012   [8]  E8 03 10 00 00 00 00 00
 (1652821715.084719)  can0  014   [5]  47 60 04 0D 27
 (1652821715.085337)  can0  1E5   [8]  1C 00 77 30 00 00 00 FF
 (1652821715.086587)  can0  012   [8]  E8 03 10 00 00 00 00 00
 (1652821715.094733)  can0  014   [5]  46 70 04 13 27
 (1652821715.095357)  can0  1E5   [8]  1C 00 77 50 00 00 01 1F
 (1652821715.096629)  can0  012   [8]  E8 03 10 00 00 00 00 00
 (1652821715.104259)  can0  010   [4]  2B 7A 03 01
 (1652821715.104685)  can0  014   [5]  45 70 04 11 27
 (1652821715.105362)  can0  1E5   [8]  1C 00 77 70 00 00 01 3F
 (1652821715.106734)  can0  012   [8]  E8 03 10 00 00 00 00 00
 (1652821715.114734)  can0  014   [5]  49 90 04 0F 27
 (1652821715.115304)  can0  1E5   [8]  1C 00 77 10 00 00 00 DF
 (1652821715.116547)  can0  012   [8]  E8 03 10 00 00 00 00 00
 (1652821715.124736)  can0  014   [5]  48 90 04 12 27
 (1652821715.125360)  can0  1E5   [8]  1C 00 77 30 00 00 00 FF
 (1652821715.126610)  can0  012   [8]  E8 03 10 00 00 00 00 00
 (1652821715.134720)  can0  014   [5]  48 A0 04 0D 27
 (1652821715.135338)  can0  1E5   [8]  1C 00 77 50 00 00 01 1F
 (1652821715.136629)  can0  012   [8]  E8 03 10 00 00 00 00 00
 (1652821715.144735)  can0  014   [5]  48 80 04 0E 27
 (1652821715.145360)  can0  1E5   [8]  1C 00 77 70 00 00 01 3F
 (1652821715.146736)  can0  012   [8]  E8 03 10 00 00 00 00 00
 (1652821715.154718)  can0  014   [5]  4A B0 04 10 27
 (1652821715.155362)  can0  1E5   [8]  1C 00 77 10 00 00 00 DF
 (1652821715.156611)  can0  012   [8]  E8 03 10 00 00 00 00 00
 (1652821715.164738)  can0  014   [5]  4B B0 04 11 27
 (1652821715.165363)  can0  1E5   [8]  1C 00 77 30 00 00 00 FF
 (1652821715.166553)  can0  012   [8]  E8 03 10 00 00 00 00 00
 (1652821715.174736)  can0  014   [5]  4A B0 04 13 27
 (1652821715.175362)  can0  1E5   [8]  1C 00 77 50 00 00 01 1F
 (1652821715.176611)  can0  012   [8]  E8 03 10 00 00 00 00 00
 (1652821715.184755)  can0  014   [5]  4D C0 04 10 27
 (1652821715.185380)  can0  1E5   [8]  1C 00 77 70 00 00 01 3F
 (1652821715.186630)  can0  012   [8]  E8 03 10 00 00 00 00 00
 (1652821715.194735)  can0  014   [5]  4E B0 04 0C 27
 (1652821715.195360)  can0  1E5   [8]  1C 00 77 10 00 00 00 DF
 (1652821715.196612)  can0  012   [8]  E8 03 10 00 00 00 00 00
 (1652821715.204260)  can0  010   [4]  2B 7A 03 01
 (1652821715.204698)  can0  014   [5]  4C D0 04 16 27
 (1652821715.205362)  can0  1E5   [8]  1C 00 77 30 00 00 00 FF
 (1652821715.206611)  can0  012   [8]  E8 03 10 00 00 00 00 00
 (1652821715.214737)  can0  014   [5]  4F E0 04 0A 27
 (1652821715.215362)  can0  1E5   [8]  1C 00 77 50 00 00 01 1F
 (1652821715.216613)  can0  012   [8]  E8 03 10 00 00 00 00 00
 (1652821715.224736)  can0  014   [5]  4D 00 05 14 27
 (1652821715.225361)  can0  1E5   [8]  1C 00 77 70 00 00 01 3F
 (1652821715.226611)  can0  012   [8]  E8 03 10 00 00 00 00 00
 (1652821715.234728)  can0  014   [5]  4F F0 04 0E 27
 (1652821715.235385)  can0  1E5   [8]  1C 00 77 10 00 00 00 DF
 (1652821715.236635)  can0  012   [8]  E8 03 10 00 00 00 00 00
 (1652821715.244739)  can0  014   [5]  4F F0 04 12 27
 (1652821715.245363)  can0  1E5   [8]  1C 00 77 30 00 00 00 FF
 (1652821715.246612)  can0  012   [8]  E8 03 10 00 00 00 00 00
 (1652821715.254719)  can0  014   [5]  4F 00 05 0F 27
 (1652821715.255364)  can0  1E5   [8]  1C 00 77 50 00 00 01 1F
 (1652821715.256613)  can0  012   [8]  E8 03 10 00 00 00 00 00
 (1652821715.264738)  can0  014   [5]  4E 00 05 11 27
 (1652821715.265364)  can0  1E5   [8]  1C 00 77 70 00 00 01 3F
 (1652821715.266615)  can0  012   [8]  E8 03 10 00 00 00 00 00
 (1652821715.274739)  can0  014   [5]  51 00 05 0C 27
 (1652821715.275363)  can0  1E5   [8]  1C 00 77 10 00 00 00 DF
 (1652821715.276614)  can0  012   [8]  E8 03 10 00 00 00 00 00
 (1652821715.284730)  can0  014   [5]  4F 00 05 10 27
 (1652821715.285342)  can0  1E5   [8]  1C 00 77 30 00 00 00 FF
 (1652821715.286633)  can0  012   [8]  E8 03 10 00 00 00 00 00
 (1652821715.294737)  can0  014   [5]  4C 10 05 14 27
 (1652821715.295362)  can0  1E5   [8]  1C 00 77 50 00 00 01 1F
 (1652821715.296611)  can0  012   [8]  E8 03 10 00 00 00 00 00
 (1652821715.304262)  can0  010   [4]  2B 7A 03 01
 (1652821715.304689)  can0  014   [5]  53 10 05 12 27
 (1652821715.305364)  can0  1E5   [8]  1C 00 77 70 00 00 01 3F
 (1652821715.306613)  can0  012   [8]  E8 03 10 00 00 00 00 00
 (1652821715.314741)  can0  014   [5]  52 00 05 0A 27
 (1652821715.315364)  can0  1E5   [8]  1C 00 77 10 00 00 00 DF
 (1652821715.316615)  can0  012   [8]  E8 03 10 00 00 00 00 00
 (1652821715.324741)  can0  014   [5]  54 20 05 15 27
 (1652821715.325364)  can0  1E5   [8]  1C 00 77 30 00 00 00 FF
 (1652821715.326614)  can0  012   [8]  E8 03 10 00 00 00 00 00
 (1652821715.334740)  can0  014   [5]  52 F0 04 0E 27
 (1652821715.335366)  can0  1E5   [8]  1C 00 77 50 00 00 01 1F
 (1652821715.336602)  can0  012   [8]  E8 03 10 00 00 00 00 00
 (1652821715.344741)  can0  014   [5]  51 30 05 0D 27
 (1652821715.345363)  can0  1E5   [8]  1C 00 77 70 00 00 01 3F
 (1652821715.346614)  can0  012   [8]  E8 03 10 00 00 00 00 00
 (1652821715.354722)  can0  014   [5]  54 40 05 10 27
 (1652821715.355365)  can0  1E5   [8]  1C 00 77 10 00 00 00 DF
 (1652821715.356615)  can0  012   [8]  E8 03 10 00 00 00 00 00
 (1652821715.364740)  can0  014   [5]  53 30 05 10 27
 (1652821715.365366)  can0  1E5   [8]  1C 00 77 30 00 00 00 FF
 (1652821715.366615)  can0  012   [8]  E8 03 10 00 00 00 00 00
 (1652821715.374741)  can0  014   [5]  54 40 05 14 27
 (1652821715.375366)  can0  1E5   [8]  1C 00 77 50 00 00 01 1F
 (1652821715.376616)  can0  012   [8]  E8 03 10 00 00 00 00 00
 (1652821715.384710)  can0  014   [5]  55 40 05 10 27
 (1652821715.385364)  can0  1E5   [8]  1C 00 77 70 00 00 01 3F
 (1652821715.386614)  can0  012   [8]  E8 03 10 00 00 00 00 00
 (1652821715.394739)  can0  014   [5]  55 30 05 0C 27
 (1652821715.395364)  can0  1E5   [8]  1C 00 77 10 00 00 00 DF
 (1652821715.396617)  can0  012   [8]  E8 03 10 00 00 00 00 00
 (1652821715.404227)  can0  010   [4]  2B 7A 03 01
 (1652821715.404688)  can0  014   [5]  55 60 05 17 27
 (1652821715.405365)  can0  1E5   [8]  1C 00 77 30 00 00 00 FF
 (1652821715.406615)  can0  012   [8]  E8 03 10 00 00 00 00 00
 (1652821715.414742)  can0  014   [5]  56 50 05 09 27
 (1652821715.415366)  can0  1E5   [8]  1C 00 77 50 00 00 01 1F
 (1652821715.416614)  can0  012   [8]  E8 03 10 00 00 00 00 00
 (1652821715.424763)  can0  014   [5]  56 50 05 14 27
 (1652821715.425389)  can0  1E5   [8]  1C 00 77 70 00 00 01 3F
 (1652821715.426639)  can0  012   [8]  E8 03 10 00 00 00 00 00
 (1652821715.434765)  can0  014   [5]  57 80 05 0C 27
 (1652821715.435388)  can0  1E5   [8]  1C 00 77 10 00 00 00 DF
 (1652821715.436636)  can0  012   [8]  E8 03 10 00 00 00 00 00
 (1652821715.444742)  can0  014   [5]  57 80 05 14 27
 (1652821715.445367)  can0  1E5   [8]  1C 00 77 30 00 00 00 FF
 (1652821715.446616)  can0  012   [8]  E8 03 10 00 00 00 00 00
 (1652821715.454686)  can0  014   [5]  58 60 05 0C 27
 (1652821715.455367)  can0  1E5   [8]  1C 00 77 50 00 00 01 1F
 (1652821715.456617)  can0  012   [8]  E8 03 10 00 00 00 00 00
 (1652821715.464618)  can0  014   [5]  58 80 05 10 27
 (1652821715.465368)  can0  1E5   [8]  1C 00 77 70 00 00 01 3F
 (1652821715.466618)  can0  012   [8]  E8 03 10 00 00 00 00 00
 (1652821715.474766)  can0  014   [5]  59 90 05 16 27
 (1652821715.475390)  can0  1E5   [8]  1C 00 77 10 00 00 00 DF
 (1652821715.476641)  can0  012   [8]  E8 03 10 00 00 00 00 00
 (1652821715.484761)  can0  014   [5]  5A 80 05 0D 27
 (1652821715.485387)  can0  1E5   [8]  1C 00 77 30 00 00 00 FF
 (1652821715.486636)  can0  012   [8]  E8 03 10 00 00 00 00 00
 (1652821715.494741)  can0  014   [5]  5A B0 05 14 27
 (1652821715.495366)  can0  1E5   [8]  1C 00 77 50 00 00 01 1F
 (1652821715.496616)  can0  012   [8]  E8 03 10 00 00 00 00 00
 (1652821715.504221)  can0  010   [4]  2B 7A 03 01
 (1652821715.504716)  can0  014   [5]  5A 90 05 0F 27
 (1652821715.505367)  can0  1E5   [8]  1C 00 77 70 00 00 01 3F
 (1652821715.506618)  can0  012   [8]  E8 03 10 00 00 00 00 00
 (1652821715.514743)  can0  014   [5]  5B A0 05 0E 27
 (1652821715.515368)  can0  1E5   [8]  1C 00 77 10 00 00 00 DF
 (1652821715.516618)  can0  012   [8]  E8 03 10 00 00 00 00 00
 (1652821715.524743)  can0  014   [5]  5A B0 05 0F 27
 (1652821715.525369)  can0  1E5   [8]  1C 00 77 30 00 00 00 FF
 (1652821715.526618)  can0  012   [8]  E8 03 10 00 00 00 00 00
 (1652821715.534619)  can0  014   [5]  59 C0 05 0E 27
 (1652821715.535369)  can0  1E5   [8]  1C 00 77 50 00 00 01 1F
 (1652821715.536620)  can0  012   [8]  E8 03 10 00 00 00 00 00
 (1652821715.544617)  can0  014   [5]  5A C0 05 0F 27
 (1652821715.545369)  can0  1E5   [8]  1C 00 77 70 00 00 01 3F
 (1652821715.546619)  can0  012   [8]  E8 03 10 00 00 00 00 00
 (1652821715.554715)  can0  014   [5]  5A E0 05 12 27
 (1652821715.555369)  can0  1E5   [8]  1C 00 77 10 00 00 00 DF
 (1652821715.556619)  can0  012   [8]  E8 03 10 00 00 00 00 00
 (1652821715.564744)  can0  014   [5]  5B B0 05 11 27
 (1652821715.565368)  can0  1E5   [8]  1C 00 77 30 00 00 00 FF
 (1652821715.566619)  can0  012   [8]  E8 03 10 00 00 00 00 00
 (1652821715.574745)  can0  014   [5]  59 B0 05 10 27
 (1652821715.575369)  can0  1E5   [8]  1C 00 77 50 00 00 01 1F
 (1652821715.576619)  can0  012   [8]  E8 03 10 00 00 00 00 00
 (1652821715.584743)  can0  014   [5]  5D E0 05 10 27
 (1652821715.585370)  can0  1E5   [8]  1C 00 77 70 00 00 01 3F
 (1652821715.586619)  can0  012   [8]  E8 03 10 00 00 00 00 00
 (1652821715.594743)  can0  014   [5]  59 D0 05 0F 27
 (1652821715.595370)  can0  1E5   [8]  1C 00 77 10 00 00 00 DF
 (1652821715.596618)  can0  012   [8]  E8 03 10 00 00 00 00 00
 (1652821715.604269)  can0  010   [4]  2B 7A 03 01
 (1652821715.604696)  can0  014   [5]  5F C0 05 15 27
 (1652821715.605369)  can0  1E5   [8]  1C 00 77 30 00 00 00 FF
 (1652821715.606620)  can0  012   [8]  E8 03 10 00 00 00 00 00
 (1652821715.614745)  can0  014   [5]  5D F0 05 0C 27
 (1652821715.615370)  can0  1E5   [8]  1C 00 77 50 00 00 01 1F
 (1652821715.616621)  can0  012   [8]  E8 03 10 00 00 00 00 00
 (1652821715.624745)  can0  014   [5]  5E E0 05 10 27
 (1652821715.625371)  can0  1E5   [8]  1C 00 77 70 00 00 01 3F
 (1652821715.626621)  can0  012   [8]  E8 03 10 00 00 00 00 00
 (1652821715.634622)  can0  014   [5]  5E B0 05 11 27
 (1652821715.635370)  can0  1E5   [8]  1C 00 77 10 00 00 00 DF
 (1652821715.636566)  can0  012   [8]  E8 03 10 00 00 00 00 00
 (1652821715.644746)  can0  014   [5]  5D F0 05 0E 27
 (1652821715.645371)  can0  1E5   [8]  1C 00 77 30 00 00 00 FF
 (1652821715.646621)  can0  012   [8]  E8 03 10 00 00 00 00 00
 (1652821715.654720)  can0  014   [5]  60 10 06 10 27
 (1652821715.655372)  can0  1E5   [8]  1C 00 77 50 00 00 01 1F
 (1652821715.656622)  can0  012   [8]  E8 03 10 00 00 00 00 00
 (1652821715.664746)  can0  014   [5]  5F 00 06 11 27
 (1652821715.665371)  can0  1E5   [8]  1C 00 77 70 00 00 01 3F
 (1652821715.666621)  can0  012   [8]  E8 03 10 00 00 00 00 00
 (1652821715.674746)  can0  014   [5]  5F 00 06 0D 27
 (1652821715.675371)  can0  1E5   [8]  1C 00 77 10 00 00 00 DF
 (1652821715.676622)  can0  012   [8]  E8 03 10 00 00 00 00 00
 (1652821715.684746)  can0  014   [5]  64 20 06 10 27
 (1652821715.685370)  can0  1E5   [8]  1C 00 77 30 00 00 00 FF
 (1652821715.686620)  can0  012   [8]  E8 03 10 00 00 00 00 00
 (1652821715.694747)  can0  014   [5]  62 30 06 17 27
 (1652821715.695372)  can0  1E5   [8]  1C 00 77 50 00 00 01 1F
 (1652821715.696621)  can0  012   [8]  E8 03 10 00 00 00 00 00
 (1652821715.704270)  can0  010   [4]  2B 7A 03 01
 (1652821715.704702)  can0  014   [5]  60 20 06 12 27
 (1652821715.705373)  can0  1E5   [8]  1C 00 77 70 00 00 01 3F
 (1652821715.706623)  can0  012   [8]  E8 03 10 00 00 00 00 00
 (1652821715.714623)  can0  014   [5]  64 30 06 07 27
 (1652821715.715372)  can0  1E5   [8]  1C 00 77 10 00 00 00 DF
 (1652821715.716623)  can0  012   [8]  E8 03 10 00 00 00 00 00
 (1652821715.724748)  can0  014   [5]  5F 50 06 14 27
 (1652821715.725372)  can0  1E5   [8]  1C 00 77 30 00 00 00 FF
 (1652821715.726622)  can0  012   [8]  E8 03 10 00 00 00 00 00
 (1652821715.726708)  can0  0E3   [2]  8A 00
 (1652821715.734747)  can0  014   [5]  61 40 06 13 27
 (1652821715.735371)  can0  1E5   [8]  1C 00 77 50 00 00 01 1F
 (1652821715.736599)  can0  012   [8]  E8 03 10 00 00 00 00 00
 (1652821715.744749)  can0  014   [5]  61 50 06 0D 27
 (1652821715.745372)  can0  1E5   [8]  1C 00 77 70 00 00 01 3F
 (1652821715.746622)  can0  012   [8]  E8 03 10 00 00 00 00 00
 (1652821715.754605)  can0  014   [5]  64 20 06 0F 27
 (1652821715.755374)  can0  1E5   [8]  1C 00 77 10 00 00 00 DF
 (1652821715.756624)  can0  012   [8]  E8 03 10 00 00 00 00 00
 (1652821715.764623)  can0  014   [5]  63 40 06 11 27
 (1652821715.765372)  can0  1E5   [8]  1C 00 77 30 00 00 00 FF
 (1652821715.766625)  can0  012   [8]  E8 03 10 00 00 00 00 00
 (1652821715.774747)  can0  014   [5]  64 40 06 0F 27
 (1652821715.775373)  can0  1E5   [8]  1C 00 77 50 00 00 01 1F
 (1652821715.776622)  can0  012   [8]  E8 03 10 00 00 00 00 00
 (1652821715.784578)  can0  014   [5]  65 40 06 0E 27
 (1652821715.785375)  can0  1E5   [8]  1C 00 77 70 00 00 01 3F
 (1652821715.786622)  can0  012   [8]  E8 03 10 00 00 00 00 00
 (1652821715.794737)  can0  014   [5]  66 50 06 12 27
 (1652821715.795374)  can0  1E5   [8]  1C 00 77 10 00 00 00 DF
 (1652821715.796624)  can0  012   [8]  E8 03 10 00 00 00 00 00
 (1652821715.804249)  can0  010   [4]  2B 7A 03 01
 (1652821715.804335)  can0  0E2   [2]  02 01
 (1652821715.804607)  can0  014   [5]  64 50 06 19 27
 (1652821715.804847)  can0  0E4   [2]  02 01
 (1652821715.805374)  can0  1E5   [8]  1C 00 77 30 00 00 00 FF
 (1652821715.806623)  can0  012   [8]  E8 03 10 00 00 00 00 00
 (1652821715.814749)  can0  014   [5]  65 70 06 08 27
 (1652821715.815375)  can0  1E5   [8]  1C 00 77 50 00 00 01 1F
 (1652821715.816624)  can0  012   [8]  E8 03 10 00 00 00 00 00
 (1652821715.824750)  can0  014   [5]  67 60 06 0D 27
 (1652821715.825374)  can0  1E5   [8]  1C 00 77 70 00 00 01 3F
 (1652821715.826624)  can0  012   [8]  E8 03 10 00 00 00 00 00
 (1652821715.834643)  can0  014   [5]  63 70 06 0F 27
 (1652821715.835397)  can0  1E5   [8]  1C 00 77 10 00 00 00 DF
 (1652821715.836647)  can0  012   [8]  E8 03 10 00 00 00 00 00
 (1652821715.844749)  can0  014   [5]  66 70 06 10 27
 (1652821715.845374)  can0  1E5   [8]  1C 00 77 30 00 00 00 FF
 (1652821715.846624)  can0  012   [8]  E8 03 10 00 00 00 00 00
 (1652821715.854611)  can0  014   [5]  69 60 06 10 27
 (1652821715.855376)  can0  1E5   [8]  1C 00 77 50 00 00 01 1F
 (1652821715.856625)  can0  012   [8]  E8 03 10 00 00 00 00 00
 (1652821715.864750)  can0  014   [5]  67 80 06 13 27
 (1652821715.865376)  can0  1E5   [8]  1C 00 77 70 00 00 01 3F
 (1652821715.866625)  can0  012   [8]  E8 03 10 00 00 00 00 00
 (1652821715.874626)  can0  014   [5]  68 70 06 0D 27
 (1652821715.875375)  can0  1E5   [8]  1C 00 77 10 00 00 00 DF
 (1652821715.876626)  can0  012   [8]  E8 03 10 00 00 00 00 00
 (1652821715.884758)  can0  014   [5]  67 80 06 12 27
 (1652821715.885374)  can0  1E5   [8]  1C 00 77 30 00 00 00 FF
 (1652821715.886623)  can0  012   [8]  E8 03 10 00 00 00 00 00
 (1652821715.894625)  can0  014   [5]  6D 70 06 11 27
 (1652821715.895376)  can0  1E5   [8]  1C 00 77 50 00 00 01 1F
 (1652821715.896625)  can0  012   [8]  E8 03 10 00 00 00 00 00
 (1652821715.904274)  can0  010   [4]  2B 7A 03 01
 (1652821715.904728)  can0  014   [5]  6B 70 06 18 27
 (1652821715.905376)  can0  1E5   [8]  1C 00 77 70 00 00 01 3F
 (1652821715.906627)  can0  012   [8]  E8 03 10 00 00 00 00 00
 (1652821715.914626)  can0  014   [5]  6A B0 06 06 27
 (1652821715.915377)  can0  1E5   [8]  1C 00 77 10 00 00 00 DF
 (1652821715.916627)  can0  012   [8]  E8 03 10 00 00 00 00 00
 (1652821715.924751)  can0  014   [5]  6B A0 06 0F 27
 (1652821715.925377)  can0  1E5   [8]  1C 00 77 30 00 00 00 FF
 (1652821715.926627)  can0  012   [8]  E8 03 10 00 00 00 00 00
 (1652821715.934761)  can0  014   [5]  6B B0 06 15 27
 (1652821715.935377)  can0  1E5   [8]  1C 00 77 50 00 00 01 1F
 (1652821715.936627)  can0  012   [8]  E8 03 10 00 00 00 00 00
 (1652821715.944752)  can0  014   [5]  6D B0 06 10 27
 (1652821715.945377)  can0  1E5   [8]  1C 00 77 70 00 00 01 3F
 (1652821715.946579)  can0  012   [8]  E8 03 10 00 00 00 00 00
 (1652821715.954615)  can0  014   [5]  6C B0 06 0E 27
 (1652821715.955377)  can0  1E5   [8]  1C 00 77 10 00 00 00 DF
 (1652821715.956628)  can0  012   [8]  E8 03 10 00 00 00 00 00
 (1652821715.964627)  can0  014   [5]  6B B0 06 0F 27
 (1652821715.965379)  can0  1E5   [8]  1C 00 77 30 00 00 00 FF
 (1652821715.966625)  can0  012   [8]  E8 03 10 00 00 00 00 00
 (1652821715.974626)  can0  014   [5]  6D B0 06 0F 27
 (1652821715.975378)  can0  1E5   [8]  1C 00 77 50 00 00 01 1F
 (1652821715.976627)  can0  012   [8]  E8 03 10 00 00 00 00 00
 (1652821715.984628)  can0  014   [5]  6D D0 06 13 27
 (1652821715.985375)  can0  1E5   [8]  1C 00 77 70 00 00 01 3F
 (1652821715.986626)  can0  012   [8]  E8 03 10 00 00 00 00 00
 (1652821715.994587)  can0  014   [5]  6E D0 06 0F 27
 (1652821715.995376)  can0  1E5   [8]  1C 00 77 10 00 00 00 DF
 (1652821715.996626)  can0  012   [8]  E8 03 10 00 00 00 00 00
 (1652821716.004276)  can0  010   [4]  2B 7A 03 01
 (1652821716.004732)  can0  014   [5]  6D C0 06 13 27
 (1652821716.005379)  can0  1E5   [8]  1C 00 77 30 00 00 00 FF
 (1652821716.006628)  can0  012   [8]  E8 03 10 00 00 00 00 00
 (1652821716.014629)  can0  014   [5]  6E D0 06 0D 27
 (1652821716.015322)  can0  1E5   [8]  1C 00 77 50 00 00 01 1F
 (1652821716.016628)  can0  012   [8]  E8 03 10 00 00 00 00 00
 (1652821716.024630)  can0  014   [5]  6D E0 06 0D 27
 (1652821716.025379)  can0  1E5   [8]  1C 00 77 70 00 00 01 3F
 (1652821716.026628)  can0  012   [8]  E8 03 10 00 00 00 00 00
 (1652821716.034629)  can0  014   [5]  6E F0 06 12 27
 (1652821716.035378)  can0  1E5   [8]  1C 00 77 10 00 00 00 DF
 (1652821716.036628)  can0  012   [8]  E8 03 10 00 00 00 00 00
 (1652821716.044629)  can0  014   [5]  6E 00 07 0E 27
 (1652821716.045378)  can0  1E5   [8]  1C 00 77 30 00 00 00 FF
 (1652821716.046628)  can0  012   [8]  E8 03 10 00 00 00 00 00
 (1652821716.054621)  can0  014   [5]  6F 00 07 14 27
 (1652821716.055378)  can0  1E5   [8]  1C 00 77 50 00 00 01 1F
 (1652821716.056583)  can0  012   [8]  E8 03 10 00 00 00 00 00
 (1652821716.064592)  can0  014   [5]  6E 10 07 0C 27
 (1652821716.065331)  can0  1E5   [8]  1C 00 77 70 00 00 01 3F
 (1652821716.066652)  can0  012   [8]  E8 03 10 00 00 00 00 00
 (1652821716.074632)  can0  014   [5]  6F 30 07 12 27
 (1652821716.075379)  can0  1E5   [8]  1C 00 77 10 00 00 00 DF
 (1652821716.076630)  can0  012   [8]  E8 03 10 00 00 00 00 00
 (1652821716.084629)  can0  014   [5]  6A 10 07 0E 27
 (1652821716.085335)  can0  1E5   [8]  1C 00 77 30 00 00 00 FF
 (1652821716.086629)  can0  012   [8]  E8 03 10 00 00 00 00 00
 (1652821716.094628)  can0  014   [5]  71 30 07 13 27
 (1652821716.095380)  can0  1E5   [8]  1C 00 77 50 00 00 01 1F
 (1652821716.096629)  can0  012   [8]  E8 03 10 00 00 00 00 00
 (1652821716.104256)  can0  010   [4]  2B 7A 03 01
 (1652821716.104623)  can0  014   [5]  70 20 07 13 27
 (1652821716.105381)  can0  1E5   [8]  1C 00 77 70 00 00 01 3F
 (1652821716.106629)  can0  012   [8]  E8 03 10 00 00 00 00 00
 (1652821716.114574)  can0  014   [5]  72 30 07 0D 27
 (1652821716.115381)  can0  1E5   [8]  1C 00 77 10 00 00 00 DF
 (1652821716.116631)  can0  012   [8]  E8 03 10 00 00 00 00 00
 (1652821716.124631)  can0  014   [5]  70 30 07 14 27
 (1652821716.125382)  can0  1E5   [8]  1C 00 77 30 00 00 00 FF
 (1652821716.126631)  can0  012   [8]  E8 03 10 00 00 00 00 00
 (1652821716.134654)  can0  014   [5]  71 10 07 0A 27
 (1652821716.135404)  can0  1E5   [8]  1C 00 77 50 00 00 01 1F
 (1652821716.136654)  can0  012   [8]  E8 03 10 00 00 00 00 00
 (1652821716.144630)  can0  014   [5]  72 F0 06 11 27
 (1652821716.145381)  can0  1E5   [8]  1C 00 77 70 00 00 01 3F
 (1652821716.146631)  can0  012   [8]  E8 03 10 00 00 00 00 00
 (1652821716.154626)  can0  014   [5]  72 30 07 11 27
 (1652821716.155381)  can0  1E5   [8]  1C 00 77 10 00 00 00 DF
 (1652821716.156631)  can0  012   [8]  E8 03 10 00 00 00 00 00
 (1652821716.164651)  can0  014   [5]  73 40 07 11 27
 (1652821716.165404)  can0  1E5   [8]  1C 00 77 30 00 00 00 FF
 (1652821716.166654)  can0  012   [8]  E8 03 10 00 00 00 00 00
 (1652821716.174632)  can0  014   [5]  72 40 07 0F 27
 (1652821716.175382)  can0  1E5   [8]  1C 00 77 50 00 00 01 1F
 (1652821716.176631)  can0  012   [8]  E8 03 10 00 00 00 00 00
 (1652821716.184629)  can0  014   [5]  74 40 07 0D 27
 (1652821716.185381)  can0  1E5   [8]  1C 00 77 70 00 00 01 3F
 (1652821716.186630)  can0  012   [8]  E8 03 10 00 00 00 00 00
 (1652821716.194632)  can0  014   [5]  76 50 07 10 27
 (1652821716.195382)  can0  1E5   [8]  1C 00 77 10 00 00 00 DF
 (1652821716.196634)  can0  012   [8]  E8 03 10 00 00 00 00 00
 (1652821716.204257)  can0  010   [4]  2B 7A 03 01
 (1652821716.204628)  can0  014   [5]  74 50 07 16 27
 (1652821716.205381)  can0  1E5   [8]  1C 00 77 30 00 00 00 FF
 (1652821716.206632)  can0  012   [8]  E8 03 10 00 00 00 00 00
 (1652821716.214632)  can0  014   [5]  74 50 07 0A 27
 (1652821716.215382)  can0  1E5   [8]  1C 00 77 50 00 00 01 1F
 (1652821716.216631)  can0  012   [8]  E8 03 10 00 00 00 00 00
 (1652821716.224632)  can0  014   [5]  73 60 07 10 27
 (1652821716.225383)  can0  1E5   [8]  1C 00 77 70 00 00 01 3F
 (1652821716.226632)  can0  012   [8]  E8 03 10 00 00 00 00 00
 (1652821716.234633)  can0  014   [5]  77 70 07 11 27
 (1652821716.235383)  can0  1E5   [8]  1C 00 77 10 00 00 00 DF
 (1652821716.236635)  can0  012   [8]  E8 03 10 00 00 00 00 00
 (1652821716.244632)  can0  014   [5]  76 60 07 12 27
 (1652821716.245384)  can0  1E5   [8]  1C 00 77 30 00 00 00 FF
 (1652821716.246631)  can0  012   [8]  E8 03 10 00 00 00 00 00
 (1652821716.254632)  can0  014   [5]  76 70 07 12 27
 (1652821716.255383)  can0  1E5   [8]  1C 00 77 50 00 00 01 1F
 (1652821716.256633)  can0  012   [8]  E8 03 10 00 00 00 00 00
 (1652821716.264632)  can0  014   [5]  7C 70 07 0E 27
 (1652821716.265383)  can0  1E5   [8]  1C 00 77 70 00 00 01 3F
 (1652821716.266633)  can0  012   [8]  E8 03 10 00 00 00 00 00
 (1652821716.274634)  can0  014   [5]  76 70 07 0D 27
 (1652821716.275383)  can0  1E5   [8]  1C 00 77 10 00 00 00 DF
 (1652821716.276633)  can0  012   [8]  E8 03 10 00 00 00 00 00
 (1652821716.284634)  can0  014   [5]  78 80 07 13 27
 (1652821716.285385)  can0  1E5   [8]  1C 00 77 30 00 00 00 FF
 (1652821716.286632)  can0  012   [8]  E8 03 10 00 00 00 00 00
 (1652821716.294633)  can0  014   [5]  78 90 07 0D 27
 (1652821716.295329)  can0  1E5   [8]  1C 00 77 50 00 00 01 1F
 (1652821716.296635)  can0  012   [8]  E8 03 10 00 00 00 00 00
 (1652821716.304260)  can0  010   [4]  2B 7A 03 01
 (1652821716.304632)  can0  014   [5]  7B A0 07 16 27
 (1652821716.305384)  can0  1E5   [8]  1C 00 77 70 00 00 01 3F
 (1652821716.306634)  can0  012   [8]  E8 03 10 00 00 00 00 00
 (1652821716.314634)  can0  014   [5]  79 90 07 0A 27
 (1652821716.315385)  can0  1E5   [8]  1C 00 77 10 00 00 00 DF
 (1652821716.316635)  can0  012   [8]  E8 03 10 00 00 00 00 00
 (1652821716.324635)  can0  014   [5]  79 90 07 13 27
 (1652821716.325384)  can0  1E5   [8]  1C 00 77 30 00 00 00 FF
 (1652821716.326634)  can0  012   [8]  E8 03 10 00 00 00 00 00
 (1652821716.334635)  can0  014   [5]  7A 80 07 0D 27
 (1652821716.335384)  can0  1E5   [8]  1C 00 77 50 00 00 01 1F
 (1652821716.336636)  can0  012   [8]  E8 03 10 00 00 00 00 00
 (1652821716.344578)  can0  014   [5]  75 90 07 11 27
 (1652821716.345385)  can0  1E5   [8]  1C 00 77 70 00 00 01 3F
 (1652821716.346635)  can0  012   [8]  E8 03 10 00 00 00 00 00
 (1652821716.354634)  can0  014   [5]  7C A0 07 12 27
 (1652821716.355385)  can0  1E5   [8]  1C 00 77 10 00 00 00 DF
 (1652821716.356635)  can0  012   [8]  E8 03 10 00 00 00 00 00
 (1652821716.364657)  can0  014   [5]  7C 80 07 0E 27
 (1652821716.365408)  can0  1E5   [8]  1C 00 77 30 00 00 00 FF
 (1652821716.366657)  can0  012   [8]  E8 03 10 00 00 00 00 00
 (1652821716.374637)  can0  014   [5]  7B A0 07 13 27
 (1652821716.375386)  can0  1E5   [8]  1C 00 77 50 00 00 01 1F
 (1652821716.376634)  can0  012   [8]  E8 03 10 00 00 00 00 00
 (1652821716.384635)  can0  014   [5]  7C D0 07 11 27
 (1652821716.385385)  can0  1E5   [8]  1C 00 77 70 00 00 01 3F
 (1652821716.386634)  can0  012   [8]  E8 03 10 00 00 00 00 00
 (1652821716.394634)  can0  014   [5]  7C C0 07 0D 27
 (1652821716.395386)  can0  1E5   [8]  1C 00 77 10 00 00 00 DF
 (1652821716.396637)  can0  012   [8]  E8 03 10 00 00 00 00 00
 (1652821716.404264)  can0  010   [4]  2B 7A 03 01
 (1652821716.404633)  can0  014   [5]  7D C0 07 14 27
 (1652821716.405387)  can0  1E5   [8]  1C 00 77 30 00 00 00 FF
 (1652821716.406637)  can0  012   [8]  E8 03 10 00 00 00 00 00
 (1652821716.414637)  can0  014   [5]  7E D0 07 0D 27
 (1652821716.415385)  can0  1E5   [8]  1C 00 77 50 00 00 01 1F
 (1652821716.416637)  can0  012   [8]  E8 03 10 00 00 00 00 00
 (1652821716.424635)  can0  014   [5]  7E E0 07 10 27
 (1652821716.425342)  can0  1E5   [8]  1C 00 77 70 00 00 01 3F
 (1652821716.426622)  can0  012   [8]  E8 03 10 00 00 00 00 00
 (1652821716.434637)  can0  014   [5]  7F 00 08 12 27
 (1652821716.435387)  can0  1E5   [8]  1C 00 77 10 00 00 00 DF
 (1652821716.436637)  can0  012   [8]  E8 03 10 00 00 00 00 00
 (1652821716.444660)  can0  014   [5]  7D E0 07 0B 27
 (1652821716.445410)  can0  1E5   [8]  1C 00 77 30 00 00 00 FF
 (1652821716.446660)  can0  012   [8]  E8 03 10 00 00 00 00 00
 (1652821716.454657)  can0  014   [5]  7F F0 07 15 27
 (1652821716.455389)  can0  1E5   [8]  1C 00 77 50 00 00 01 1F
 (1652821716.456637)  can0  012   [8]  E8 03 10 00 00 00 00 00
 (1652821716.464661)  can0  014   [5]  7D E0 07 0F 27
 (1652821716.465411)  can0  1E5   [8]  1C 00 77 70 00 00 01 3F
 (1652821716.466661)  can0  012   [8]  E8 03 10 00 00 00 00 00
 (1652821716.474637)  can0  014   [5]  80 F0 07 0C 27
 (1652821716.475387)  can0  1E5   [8]  1C 00 77 10 00 00 00 DF
 (1652821716.476638)  can0  012   [8]  E8 03 10 00 00 00 00 00
 (1652821716.484639)  can0  014   [5]  7C 00 08 14 27
 (1652821716.485387)  can0  1E5   [8]  1C 00 77 30 00 00 00 FF
 (1652821716.486635)  can0  012   [8]  E8 03 10 00 00 00 00 00
 (1652821716.494636)  can0  014   [5]  7E 00 08 0D 27
 (1652821716.495385)  can0  1E5   [8]  1C 00 77 50 00 00 01 1F
 (1652821716.496638)  can0  012   [8]  E8 03 10 00 00 00 00 00
 (1652821716.504248)  can0  010   [4]  2B 7A 03 01
 (1652821716.504614)  can0  014   [5]  82 10 08 18 27
 (1652821716.505336)  can0  1E5   [8]  1C 00 77 70 00 00 01 3F
 (1652821716.506604)  can0  012   [8]  E8 03 10 00 00 00 00 00
 (1652821716.514602)  can0  014   [5]  7F 20 08 0A 27
 (1652821716.515335)  can0  1E5   [8]  1C 00 77 10 00 00 00 DF
 (1652821716.516602)  can0  012   [8]  E8 03 10 00 00 00 00 00
 (1652821716.524637)  can0  014   [5]  79 20 08 0E 27
 (1652821716.525387)  can0  1E5   [8]  1C 00 77 30 00 00 00 FF
 (1652821716.526619)  can0  012   [8]  E8 03 10 00 00 00 00 00
 (1652821716.534637)  can0  014   [5]  81 20 08 13 27
 (1652821716.535389)  can0  1E5   [8]  1C 00 77 50 00 00 01 1F
 (1652821716.536639)  can0  012   [8]  E8 03 10 00 00 00 00 00
 (1652821716.544640)  can0  014   [5]  81 10 08 0C 27
 (1652821716.545390)  can0  1E5   [8]  1C 00 77 70 00 00 01 3F
 (1652821716.546610)  can0  012   [8]  E8 03 10 00 00 00 00 00
 (1652821716.554639)  can0  014   [5]  82 20 08 10 27
 (1652821716.555389)  can0  1E5   [8]  1C 00 77 10 00 00 00 DF
 (1652821716.556639)  can0  012   [8]  E8 03 10 00 00 00 00 00
 (1652821716.564640)  can0  014   [5]  80 30 08 14 27
 (1652821716.565389)  can0  1E5   [8]  1C 00 77 30 00 00 00 FF
 (1652821716.566641)  can0  012   [8]  E8 03 10 00 00 00 00 00
 (1652821716.574641)  can0  014   [5]  84 10 08 11 27
 (1652821716.575376)  can0  1E5   [8]  1C 00 77 50 00 00 01 1F
 (1652821716.576639)  can0  012   [8]  E8 03 10 00 00 00 00 00
 (1652821716.584640)  can0  014   [5]  83 10 08 0B 27
 (1652821716.585389)  can0  1E5   [8]  1C 00 77 70 00 00 01 3F
 (1652821716.586617)  can0  012   [8]  E8 03 10 00 00 00 00 00
 (1652821716.594640)  can0  014   [5]  7F 40 08 13 27
 (1652821716.595389)  can0  1E5   [8]  1C 00 77 10 00 00 00 DF
 (1652821716.596639)  can0  012   [8]  E8 03 10 00 00 00 00 00
 (1652821716.604266)  can0  010   [4]  2B 7A 03 01
 (1652821716.604639)  can0  014   [5]  85 50 08 15 27
 (1652821716.605390)  can0  1E5   [8]  1C 00 77 30 00 00 00 FF
 (1652821716.606641)  can0  012   [8]  E8 03 10 00 00 00 00 00
 (1652821716.614639)  can0  014   [5]  86 40 08 0B 27
 (1652821716.615391)  can0  1E5   [8]  1C 00 77 50 00 00 01 1F
 (1652821716.616640)  can0  012   [8]  E8 03 10 00 00 00 00 00
 (1652821716.624629)  can0  014   [5]  87 50 08 12 27
 (1652821716.625390)  can0  1E5   [8]  1C 00 77 70 00 00 01 3F
 (1652821716.626640)  can0  012   [8]  E8 03 10 00 00 00 00 00
 (1652821716.634641)  can0  014   [5]  84 40 08 0B 27
 (1652821716.635391)  can0  1E5   [8]  1C 00 77 10 00 00 00 DF
 (1652821716.636642)  can0  012   [8]  E8 03 10 00 00 00 00 00
 (1652821716.644641)  can0  014   [5]  84 60 08 12 27
 (1652821716.645390)  can0  1E5   [8]  1C 00 77 30 00 00 00 FF
 (1652821716.646641)  can0  012   [8]  E8 03 10 00 00 00 00 00
 (1652821716.654640)  can0  014   [5]  86 50 08 11 27
 (1652821716.655390)  can0  1E5   [8]  1C 00 77 50 00 00 01 1F
 (1652821716.656641)  can0  012   [8]  E8 03 10 00 00 00 00 00
 (1652821716.664641)  can0  014   [5]  82 70 08 0E 27
 (1652821716.665391)  can0  1E5   [8]  1C 00 77 70 00 00 01 3F
 (1652821716.666642)  can0  012   [8]  E8 03 10 00 00 00 00 00
 (1652821716.674639)  can0  014   [5]  84 50 08 10 27
 (1652821716.675392)  can0  1E5   [8]  1C 00 77 10 00 00 00 DF
 (1652821716.676643)  can0  012   [8]  E8 03 10 00 00 00 00 00
 (1652821716.684642)  can0  014   [5]  88 60 08 11 27
 (1652821716.685391)  can0  1E5   [8]  1C 00 77 30 00 00 00 FF
 (1652821716.686647)  can0  012   [8]  E8 03 10 00 00 00 00 00
 (1652821716.694641)  can0  014   [5]  85 70 08 12 27
 (1652821716.695392)  can0  1E5   [8]  1C 00 77 50 00 00 01 1F
 (1652821716.696640)  can0  012   [8]  E8 03 10 00 00 00 00 00
 (1652821716.704267)  can0  010   [4]  2B 7A 03 01
 (1652821716.704640)  can0  014   [5]  8A 60 08 15 27
 (1652821716.705391)  can0  1E5   [8]  1C 00 77 70 00 00 01 3F
 (1652821716.706642)  can0  012   [8]  E8 03 10 00 00 00 00 00
 (1652821716.714642)  can0  014   [5]  86 90 08 09 27
 (1652821716.715392)  can0  1E5   [8]  1C 00 77 10 00 00 00 DF
 (1652821716.716644)  can0  012   [8]  E8 03 10 00 00 00 00 00
 (1652821716.724642)  can0  014   [5]  89 90 08 11 27
 (1652821716.725393)  can0  1E5   [8]  1C 00 77 30 00 00 00 FF
 (1652821716.726642)  can0  012   [8]  E8 03 10 00 00 00 00 00
 (1652821716.726727)  can0  0E3   [2]  B2 00
 (1652821716.734642)  can0  014   [5]  88 A0 08 11 27
 (1652821716.735392)  can0  1E5   [8]  1C 00 77 50 00 00 01 1F
 (1652821716.736642)  can0  012   [8]  E8 03 10 00 00 00 00 00
 (1652821716.744642)  can0  014   [5]  86 90 08 0C 27
 (1652821716.745393)  can0  1E5   [8]  1C 00 77 70 00 00 01 3F
 (1652821716.746643)  can0  012   [8]  E8 03 10 00 00 00 00 00
 (1652821716.754641)  can0  014   [5]  84 90 08 10 27
 (1652821716.755393)  can0  1E5   [8]  1C 00 77 10 00 00 00 DF
 (1652821716.756641)  can0  012   [8]  E8 03 10 00 00 00 00 00
 (1652821716.764644)  can0  014   [5]  88 80 08 10 27
 (1652821716.765394)  can0  1E5   [8]  1C 00 77 30 00 00 00 FF
 (1652821716.766643)  can0  012   [8]  E8 03 10 00 00 00 00 00
 (1652821716.774644)  can0  014   [5]  8B 70 08 17 27
 (1652821716.775395)  can0  1E5   [8]  1C 00 77 50 00 00 01 1F
 (1652821716.776645)  can0  012   [8]  E8 03 10 00 00 00 00 00
 (1652821716.784644)  can0  014   [5]  89 70 08 0C 27
 (1652821716.785393)  can0  1E5   [8]  1C 00 77 70 00 00 01 3F
 (1652821716.786644)  can0  012   [8]  E8 03 10 00 00 00 00 00
 (1652821716.794643)  can0  014   [5]  8B B0 08 14 27
 (1652821716.795393)  can0  1E5   [8]  1C 00 77 10 00 00 00 DF
 (1652821716.796644)  can0  012   [8]  E8 03 10 00 00 00 00 00
 (1652821716.804270)  can0  010   [4]  2B 7A 03 01
 (1652821716.804355)  can0  0E2   [2]  2A 01
 (1652821716.804642)  can0  014   [5]  8B A0 08 17 27
 (1652821716.804717)  can0  0E4   [2]  2A 01
 (1652821716.805339)  can0  1E5   [8]  1C 00 77 30 00 00 00 FF
 (1652821716.806644)  can0  012   [8]  E8 03 10 00 00 00 00 00
 (1652821716.814645)  can0  014   [5]  8B A0 08 02 27
 (1652821716.815394)  can0  1E5   [8]  1C 00 77 50 00 00 01 1F
 (1652821716.816645)  can0  012   [8]  E8 03 10 00 00 00 00 00
 (1652821716.824642)  can0  014   [5]  8B B0 08 11 27
 (1652821716.825396)  can0  1E5   [8]  1C 00 77 70 00 00 01 3F
 (1652821716.826644)  can0  012   [8]  E8 03 10 00 00 00 00 00
 (1652821716.834645)  can0  014   [5]  8D B0 08 14 27
 (1652821716.835396)  can0  1E5   [8]  1C 00 77 10 00 00 00 DF
 (1652821716.836647)  can0  012   [8]  E8 03 10 00 00 00 00 00
 (1652821716.844645)  can0  014   [5]  8C B0 08 0C 27
 (1652821716.845395)  can0  1E5   [8]  1C 00 77 30 00 00 00 FF
 (1652821716.846645)  can0  012   [8]  E8 03 10 00 00 00 00 00
 (1652821716.854589)  can0  014   [5]  8D C0 08 12 27
 (1652821716.855395)  can0  1E5   [8]  1C 00 77 50 00 00 01 1F
 (1652821716.856645)  can0  012   [8]  E8 03 10 00 00 00 00 00
 (1652821716.864645)  can0  014   [5]  8C D0 08 11 27
 (1652821716.865396)  can0  1E5   [8]  1C 00 77 70 00 00 01 3F
 (1652821716.866646)  can0  012   [8]  E8 03 10 00 00 00 00 00
 (1652821716.874645)  can0  014   [5]  91 D0 08 11 27
 (1652821716.875397)  can0  1E5   [8]  1C 00 77 10 00 00 00 DF
 (1652821716.876647)  can0  012   [8]  E8 03 10 00 00 00 00 00
 (1652821716.884646)  can0  014   [5]  8D D0 08 11 27
 (1652821716.885398)  can0  1E5   [8]  1C 00 77 30 00 00 00 FF
 (1652821716.886646)  can0  012   [8]  E8 03 10 00 00 00 00 00
 (1652821716.894645)  can0  014   [5]  8E E0 08 0D 27
 (1652821716.895395)  can0  1E5   [8]  1C 00 77 50 00 00 01 1F
 (1652821716.896644)  can0  012   [8]  E8 03 10 00 00 00 00 00
 (1652821716.904270)  can0  010   [4]  2B 7A 03 01
 (1652821716.904643)  can0  014   [5]  8A E0 08 17 27
 (1652821716.905396)  can0  1E5   [8]  1C 00 77 70 00 00 01 3F
 (1652821716.906646)  can0  012   [8]  E8 03 10 00 00 00 00 00
 (1652821716.914646)  can0  014   [5]  8C F0 08 07 27
 (1652821716.915396)  can0  1E5   [8]  1C 00 77 10 00 00 00 DF
 (1652821716.916646)  can0  012   [8]  E8 03 10 00 00 00 00 00
 (1652821716.924647)  can0  014   [5]  8C E0 08 14 27
 (1652821716.925396)  can0  1E5   [8]  1C 00 77 30 00 00 00 FF
 (1652821716.926646)  can0  012   [8]  E8 03 10 00 00 00 00 00
 (1652821716.934647)  can0  014   [5]  8B E0 08 11 27
 (1652821716.935398)  can0  1E5   [8]  1C 00 77 50 00 00 01 1F
 (1652821716.936591)  can0  012   [8]  E8 03 10 00 00 00 00 00
 (1652821716.944647)  can0  014   [5]  8E F0 08 11 27
 (1652821716.945397)  can0  1E5   [8]  1C 00 77 70 00 00 01 3F
 (1652821716.946648)  can0  012   [8]  E8 03 10 00 00 00 00 00
 (1652821716.954646)  can0  014   [5]  8E D0 08 09 27
 (1652821716.955396)  can0  1E5   [8]  1C 00 77 10 00 00 00 DF
 (1652821716.956647)  can0  012   [8]  E8 03 10 00 00 00 00 00
 (1652821716.964647)  can0  014   [5]  8C E0 08 15 27
 (1652821716.965397)  can0  1E5   [8]  1C 00 77 30 00 00 00 FF
 (1652821716.966647)  can0  012   [8]  E8 03 10 00 00 00 00 00
 (1652821716.974648)  can0  014   [5]  8B D0 08 0A 27
 (1652821716.975397)  can0  1E5   [8]  1C 00 77 50 00 00 01 1F
 (1652821716.976647)  can0  012   [8]  E8 03 10 00 00 00 00 00
 (1652821716.984648)  can0  014   [5]  92 00 09 14 27
 (1652821716.985399)  can0  1E5   [8]  1C 00 77 70 00 00 01 3F
 (1652821716.986649)  can0  012   [8]  E8 03 10 00 00 00 00 00
 (1652821716.994648)  can0  014   [5]  8C 10 09 0D 27
 (1652821716.995397)  can0  1E5   [8]  1C 00 77 10 00 00 00 DF
 (1652821716.996648)  can0  012   [8]  E8 03 10 00 00 00 00 00
 (1652821717.004282)  can0  010   [4]  2B 7A 03 01
 (1652821717.004646)  can0  014   [5]  92 20 09 16 27
 (1652821717.005398)  can0  1E5   [8]  1C 00 77 30 00 00 00 FF
 (1652821717.006649)  can0  012   [8]  E8 03 10 00 00 00 00 00
 (1652821717.014649)  can0  014   [5]  90 30 09 11 27
 (1652821717.015396)  can0  1E5   [8]  1C 00 77 50 00 00 01 1F
 (1652821717.016646)  can0  012   [8]  E8 03 10 00 00 00 00 00
 (1652821717.024649)  can0  014   [5]  91 30 09 0D 27
 (1652821717.025399)  can0  1E5   [8]  1C 00 77 70 00 00 01 3F
 (1652821717.026648)  can0  012   [8]  E8 03 10 00 00 00 00 00
 (1652821717.034649)  can0  014   [5]  92 30 09 13 27
 (1652821717.035370)  can0  1E5   [8]  1C 00 77 10 00 00 00 DF
 (1652821717.036649)  can0  012   [8]  E8 03 10 00 00 00 00 00
 (1652821717.044649)  can0  014   [5]  8E 30 09 0D 27
 (1652821717.045399)  can0  1E5   [8]  1C 00 77 30 00 00 00 FF
 (1652821717.046650)  can0  012   [8]  E8 03 10 00 00 00 00 00
 (1652821717.054653)  can0  014   [5]  90 00 09 0C 27
 (1652821717.055398)  can0  1E5   [8]  1C 00 77 50 00 00 01 1F
 (1652821717.056649)  can0  012   [8]  E8 03 10 00 00 00 00 00
 (1652821717.064650)  can0  014   [5]  94 10 09 14 27
 (1652821717.065399)  can0  1E5   [8]  1C 00 77 70 00 00 01 3F
 (1652821717.066650)  can0  012   [8]  E8 03 10 00 00 00 00 00
 (1652821717.074650)  can0  014   [5]  94 20 09 10 27
 (1652821717.075400)  can0  1E5   [8]  1C 00 77 10 00 00 00 DF
 (1652821717.076650)  can0  012   [8]  E8 03 10 00 00 00 00 00
 (1652821717.084615)  can0  014   [5]  91 10 09 10 27
 (1652821717.085392)  can0  1E5   [8]  1C 00 77 30 00 00 00 FF
 (1652821717.086673)  can0  012   [8]  E8 03 10 00 00 00 00 00
 (1652821717.094650)  can0  014   [5]  8D 20 09 0E 27
 (1652821717.095399)  can0  1E5   [8]  1C 00 77 50 00 00 01 1F
 (1652821717.096651)  can0  012   [8]  E8 03 10 00 00 00 00 00
 (1652821717.104275)  can0  010   [4]  2B 7A 03 01
 (1652821717.104654)  can0  014   [5]  96 40 09 18 27
 (1652821717.105399)  can0  1E5   [8]  1C 00 77 70 00 00 01 3F
 (1652821717.106651)  can0  012   [8]  E8 03 10 00 00 00 00 00
 (1652821717.114650)  can0  014   [5]  8F 20 09 06 27
 (1652821717.115400)  can0  1E5   [8]  1C 00 77 10 00 00 00 DF
 (1652821717.116650)  can0  012   [8]  E8 03 10 00 00 00 00 00
 (1652821717.124650)  can0  014   [5]  95 30 09 17 27
 (1652821717.125400)  can0  1E5   [8]  1C 00 77 30 00 00 00 FF
 (1652821717.126651)  can0  012   [8]  E8 03 10 00 00 00 00 00
 (1652821717.134650)  can0  014   [5]  90 30 09 0B 27
 (1652821717.135400)  can0  1E5   [8]  1C 00 77 50 00 00 01 1F
 (1652821717.136650)  can0  012   [8]  E8 03 10 00 00 00 00 00
 (1652821717.144651)  can0  014   [5]  97 30 09 0F 27
 (1652821717.145401)  can0  1E5   [8]  1C 00 77 70 00 00 01 3F
 (1652821717.146651)  can0  012   [8]  E8 03 10 00 00 00 00 00
 (1652821717.154594)  can0  014   [5]  95 F0 08 12 27
 (1652821717.155223)  can0  1E5   [8]  1C 00 77 10 00 00 00 DF
 (1652821717.156628)  can0  012   [8]  E8 03 10 00 00 00 00 00
 (1652821717.164670)  can0  014   [5]  95 50 09 11 27
 (1652821717.165421)  can0  1E5   [8]  1C 00 77 30 00 00 00 FF
 (1652821717.166674)  can0  012   [8]  E8 03 10 00 00 00 00 00
 (1652821717.174651)  can0  014   [5]  95 40 09 0F 27
 (1652821717.175276)  can0  1E5   [8]  1C 00 77 50 00 00 01 1F
 (1652821717.176651)  can0  012   [8]  E8 03 10 00 00 00 00 00
 (1652821717.184614)  can0  014   [5]  96 40 09 14 27
 (1652821717.185425)  can0  1E5   [8]  1C 00 77 70 00 00 01 3F
 (1652821717.186676)  can0  012   [8]  E8 03 10 00 00 00 00 00
 (1652821717.194649)  can0  014   [5]  95 40 09 0E 27
 (1652821717.195249)  can0  1E5   [8]  1C 00 77 10 00 00 00 DF
 (1652821717.196651)  can0  012   [8]  E8 03 10 00 00 00 00 00
 (1652821717.204278)  can0  010   [4]  2B 7A 03 01
 (1652821717.204656)  can0  014   [5]  97 40 09 11 27
 (1652821717.205277)  can0  1E5   [8]  1C 00 77 30 00 00 00 FF
 (1652821717.206653)  can0  012   [8]  E8 03 10 00 00 00 00 00
 (1652821717.214652)  can0  014   [5]  96 70 09 0D 27
 (1652821717.215403)  can0  1E5   [8]  1C 00 77 50 00 00 01 1F
 (1652821717.216652)  can0  012   [8]  E8 03 10 00 00 00 00 00
 (1652821717.224650)  can0  014   [5]  95 60 09 0D 27
 (1652821717.225402)  can0  1E5   [8]  1C 00 77 70 00 00 01 3F
 (1652821717.226653)  can0  012   [8]  E8 03 10 00 00 00 00 00
 (1652821717.234653)  can0  014   [5]  97 60 09 13 27
 (1652821717.235277)  can0  1E5   [8]  1C 00 77 10 00 00 00 DF
 (1652821717.236653)  can0  012   [8]  E8 03 10 00 00 00 00 00
 (1652821717.244654)  can0  014   [5]  99 70 09 13 27
 (1652821717.245277)  can0  1E5   [8]  1C 00 77 30 00 00 00 FF
 (1652821717.246653)  can0  012   [8]  E8 03 10 00 00 00 00 00
 (1652821717.254658)  can0  014   [5]  94 70 09 11 27
 (1652821717.255402)  can0  1E5   [8]  1C 00 77 50 00 00 01 1F
 (1652821717.256653)  can0  012   [8]  E8 03 10 00 00 00 00 00
 (1652821717.264654)  can0  014   [5]  95 60 09 09 27
 (1652821717.265403)  can0  1E5   [8]  1C 00 77 70 00 00 01 3F
 (1652821717.266597)  can0  012   [8]  E8 03 10 00 00 00 00 00
 (1652821717.274652)  can0  014   [5]  95 90 09 15 27
 (1652821717.275404)  can0  1E5   [8]  1C 00 77 10 00 00 00 DF
 (1652821717.276653)  can0  012   [8]  E8 03 10 00 00 00 00 00
 (1652821717.284677)  can0  014   [5]  95 90 09 12 27
 (1652821717.285299)  can0  1E5   [8]  1C 00 77 30 00 00 00 FF
 (1652821717.286676)  can0  012   [8]  E8 03 10 00 00 00 00 00
 (1652821717.294653)  can0  014   [5]  92 A0 09 0C 27
 (1652821717.295402)  can0  1E5   [8]  1C 00 77 50 00 00 01 1F
 (1652821717.296653)  can0  012   [8]  E8 03 10 00 00 00 00 00
 (1652821717.304279)  can0  010   [4]  2B 7A 03 01
 (1652821717.304659)  can0  014   [5]  9C A0 09 15 27
 (1652821717.305280)  can0  1E5   [8]  1C 00 77 70 00 00 01 3F
 (1652821717.306655)  can0  012   [8]  E8 03 10 00 00 00 00 00
 (1652821717.314654)  can0  014   [5]  95 80 09 0B 27
 (1652821717.315404)  can0  1E5   [8]  1C 00 77 10 00 00 00 DF
 (1652821717.316654)  can0  012   [8]  E8 03 10 00 00 00 00 00
 (1652821717.324655)  can0  014   [5]  95 60 09 0D 27
 (1652821717.325279)  can0  1E5   [8]  1C 00 77 30 00 00 00 FF
 (1652821717.326654)  can0  012   [8]  E8 03 10 00 00 00 00 00
 (1652821717.334654)  can0  014   [5]  97 50 09 10 27
 (1652821717.335279)  can0  1E5   [8]  1C 00 77 50 00 00 01 1F
 (1652821717.336653)  can0  012   [8]  E8 03 10 00 00 00 00 00
 (1652821717.344655)  can0  014   [5]  98 A0 09 17 27
 (1652821717.345280)  can0  1E5   [8]  1C 00 77 70 00 00 01 3F
 (1652821717.346656)  can0  012   [8]  E8 03 10 00 00 00 00 00
 (1652821717.354660)  can0  014   [5]  98 A0 09 10 27
 (1652821717.355405)  can0  1E5   [8]  1C 00 77 10 00 00 00 DF
 (1652821717.356657)  can0  012   [8]  E8 03 10 00 00 00 00 00
 (1652821717.364656)  can0  014   [5]  98 90 09 09 27
 (1652821717.365248)  can0  1E5   [8]  1C 00 77 30 00 00 00 FF
 (1652821717.366655)  can0  012   [8]  E8 03 10 00 00 00 00 00
 (1652821717.374655)  can0  014   [5]  98 90 09 13 27
 (1652821717.375280)  can0  1E5   [8]  1C 00 77 50 00 00 01 1F
 (1652821717.376655)  can0  012   [8]  E8 03 10 00 00 00 00 00
 (1652821717.384656)  can0  014   [5]  99 A0 09 12 27
 (1652821717.385280)  can0  1E5   [8]  1C 00 77 70 00 00 01 3F
 (1652821717.386656)  can0  012   [8]  E8 03 10 00 00 00 00 00
 (1652821717.394654)  can0  014   [5]  9A A0 09 0E 27
 (1652821717.395243)  can0  1E5   [8]  1C 00 77 10 00 00 00 DF
 (1652821717.396656)  can0  012   [8]  E8 03 10 00 00 00 00 00
 (1652821717.404281)  can0  010   [4]  2B 7A 03 01
 (1652821717.404664)  can0  014   [5]  98 B0 09 15 27
 (1652821717.405282)  can0  1E5   [8]  1C 00 77 30 00 00 00 FF
 (1652821717.406656)  can0  012   [8]  E8 03 10 00 00 00 00 00
 (1652821717.414629)  can0  014   [5]  9C A0 09 0C 27
 (1652821717.415281)  can0  1E5   [8]  1C 00 77 50 00 00 01 1F
 (1652821717.416656)  can0  012   [8]  E8 03 10 00 00 00 00 00
 (1652821717.424656)  can0  014   [5]  9A A0 09 0F 27
 (1652821717.425281)  can0  1E5   [8]  1C 00 77 70 00 00 01 3F
 (1652821717.426656)  can0  012   [8]  E8 03 10 00 00 00 00 00
 (1652821717.434658)  can0  014   [5]  9C B0 09 10 27
 (1652821717.435281)  can0  1E5   [8]  1C 00 77 10 00 00 00 DF
