 (1652821894.974720)  can0  014   [5]  00 00 00 10 27
 (1652821894.976191)  can0  012   [8]  E8 03 10 00 00 00 00 00
 (1652821894.980673)  can0  1E5   [8]  1C 00 81 70 00 00 01 49
 (1652821894.984718)  can0  014   [5]  00 00 00 10 27
 (1652821894.986195)  can0  012   [8]  E8 03 10 00 00 00 00 00
 (1652821894.990721)  can0  1E5   [8]  1C 00 81 10 00 00 00 E9
 (1652821894.994676)  can0  014   [5]  00 00 00 10 27
 (1652821894.996167)  can0  012   [8]  E8 03 10 00 00 00 00 00
 (1652821895.000719)  can0  1E5   [8]  1C 00 81 30 00 00 01 09
 (1652821895.004103)  can0  010   [4]  26 73 00 01
 (1652821895.004719)  can0  014   [5]  00 00 00 16 27
 (1652821895.006220)  can0  012   [8]  E8 03 10 00 00 00 00 00
 (1652821895.010720)  can0  1E5   [8]  1C 00 81 50 00 00 01 29
 (1652821895.014718)  can0  014   [5]  00 00 00 0A 27
 (1652821895.016222)  can0  012   [8]  E8 03 10 00 00 00 00 00
 (1652821895.020721)  can0  1E5   [8]  1C 00 81 70 00 00 01 49
 (1652821895.024692)  can0  014   [5]  00 00 00 10 27
 (1652821895.026221)  can0  012   [8]  E8 03 10 00 00 00 00 00
 (1652821895.030726)  can0  1E5   [8]  1C 00 81 10 00 00 00 E9
 (1652821895.034721)  can0  014   [5]  00 00 00 10 27
 (1652821895.036219)  can0  012   [8]  E8 03 10 00 00 00 00 00
 (1652821895.040722)  can0  1E5   [8]  1C 00 81 30 00 00 01 09
 (1652821895.044721)  can0  014   [5]  00 00 00 10 27
 (1652821895.046221)  can0  012   [8]  E8 03 10 00 00 00 00 00
 (1652821895.050720)  can0  1E5   [8]  1C 00 81 50 00 00 01 29
 (1652821895.054720)  can0  014   [5]  00 00 00 10 27
 (1652821895.056202)  can0  012   [8]  E8 03 10 00 00 00 00 00
 (1652821895.060720)  can0  1E5   [8]  1C 00 81 70 00 00 01 49
 (1652821895.064719)  can0  014   [5]  00 00 00 10 27
 (1652821895.066223)  can0  012   [8]  E8 03 10 00 00 00 00 00
 (1652821895.070721)  can0  1E5   [8]  1C 00 81 10 00 00 00 E9
 (1652821895.074722)  can0  014   [5]  00 00 00 10 27
 (1652821895.076222)  can0  012   [8]  E8 03 10 00 00 00 00 00
 (1652821895.080727)  can0  1E5   [8]  1C 00 81 30 00 00 01 09
 (1652821895.084721)  can0  014   [5]  00 00 00 10 27
 (1652821895.086222)  can0  012   [8]  E8 03 10 00 00 00 00 00
 (1652821895.090723)  can0  1E5   [8]  1C 00 81 50 00 00 01 29
 (1652821895.094722)  can0  014   [5]  00 00 00 10 27
 (1652821895.096222)  can0  012   [8]  E8 03 10 00 00 00 00 00
 (1652821895.100722)  can0  1E5   [8]  1C 00 81 70 00 00 01 49
 (1652821895.104097)  can0  010   [4]  26 73 00 01
 (1652821895.104720)  can0  014   [5]  00 00 00 16 27
 (1652821895.106223)  can0  012   [8]  E8 03 10 00 00 00 00 00
 (1652821895.110722)  can0  1E5   [8]  1C 00 81 10 00 00 00 E9
 (1652821895.114720)  can0  014   [5]  00 00 00 0A 27
 (1652821895.116222)  can0  012   [8]  E8 03 10 00 00 00 00 00
 (1652821895.120723)  can0  1E5   [8]  1C 00 81 30 00 00 01 09
 (1652821895.124724)  can0  014   [5]  00 00 00 10 27
 (1652821895.126224)  can0  012   [8]  E8 03 10 00 00 00 00 00
 (1652821895.130677)  can0  1E5   [8]  1C 00 81 50 00 00 01 29
 (1652821895.134723)  can0  014   [5]  00 00 00 10 27
 (1652821895.136196)  can0  012   [8]  E8 03 10 00 00 00 00 00
 (1652821895.140723)  can0  1E5   [8]  1C 00 81 70 00 00 01 49
 (1652821895.144722)  can0  014   [5]  00 00 00 10 27
 (1652821895.146223)  can0  012   [8]  E8 03 10 00 00 00 00 00
 (1652821895.150721)  can0  1E5   [8]  1C 00 81 10 00 00 00 E9
 (1652821895.154721)  can0  014   [5]  00 00 00 10 27
 (1652821895.156204)  can0  012   [8]  E8 03 10 00 00 00 00 00
 (1652821895.160724)  can0  1E5   [8]  1C 00 81 30 00 00 01 09
 (1652821895.164723)  can0  014   [5]  00 00 00 10 27
 (1652821895.166224)  can0  012   [8]  E8 03 10 00 00 00 00 00
 (1652821895.170726)  can0  1E5   [8]  1C 00 81 50 00 00 01 29
 (1652821895.174725)  can0  014   [5]  00 00 00 10 27
 (1652821895.176224)  can0  012   [8]  E8 03 10 00 00 00 00 00
 (1652821895.180678)  can0  1E5   [8]  1C 00 81 70 00 00 01 49
 (1652821895.184672)  can0  014   [5]  00 00 00 10 27
 (1652821895.186171)  can0  012   [8]  E8 03 10 00 00 00 00 00
 (1652821895.190723)  can0  1E5   [8]  1C 00 81 10 00 00 00 E9
 (1652821895.194724)  can0  014   [5]  00 00 00 10 27
 (1652821895.196230)  can0  012   [8]  E8 03 10 00 00 00 00 00
 (1652821895.200726)  can0  1E5   [8]  1C 00 81 30 00 00 01 09
 (1652821895.204101)  can0  010   [4]  26 73 00 01
 (1652821895.204723)  can0  014   [5]  00 00 00 16 27
 (1652821895.206225)  can0  012   [8]  E8 03 10 00 00 00 00 00
 (1652821895.210725)  can0  1E5   [8]  1C 00 81 50 00 00 01 29
 (1652821895.214722)  can0  014   [5]  00 00 00 0A 27
 (1652821895.216225)  can0  012   [8]  E8 03 10 00 00 00 00 00
 (1652821895.220724)  can0  1E5   [8]  1C 00 81 70 00 00 01 49
 (1652821895.224726)  can0  014   [5]  00 00 00 10 27
 (1652821895.226226)  can0  012   [8]  E8 03 10 00 00 00 00 00
 (1652821895.230734)  can0  1E5   [8]  1C 00 81 10 00 00 00 E9
 (1652821895.234725)  can0  014   [5]  00 00 00 10 27
 (1652821895.236225)  can0  012   [8]  E8 03 10 00 00 00 00 00
 (1652821895.240725)  can0  1E5   [8]  1C 00 81 30 00 00 01 09
 (1652821895.244725)  can0  014   [5]  00 00 00 10 27
 (1652821895.246225)  can0  012   [8]  E8 03 10 00 00 00 00 00
 (1652821895.250723)  can0  1E5   [8]  1C 00 81 50 00 00 01 29
 (1652821895.254725)  can0  014   [5]  00 00 00 10 27
 (1652821895.256180)  can0  012   [8]  E8 03 10 00 00 00 00 00
 (1652821895.260725)  can0  1E5   [8]  1C 00 81 70 00 00 01 49
 (1652821895.264724)  can0  014   [5]  00 00 00 10 27
 (1652821895.266225)  can0  012   [8]  E8 03 10 00 00 00 00 00
 (1652821895.270727)  can0  1E5   [8]  1C 00 81 10 00 00 00 E9
 (1652821895.274726)  can0  014   [5]  00 00 00 10 27
 (1652821895.276225)  can0  012   [8]  E8 03 10 00 00 00 00 00
 (1652821895.280727)  can0  1E5   [8]  1C 00 81 30 00 00 01 09
 (1652821895.284725)  can0  014   [5]  00 00 00 10 27
 (1652821895.286227)  can0  012   [8]  E8 03 10 00 00 00 00 00
 (1652821895.290726)  can0  1E5   [8]  1C 00 81 50 00 00 01 29
 (1652821895.294731)  can0  014   [5]  00 00 00 10 27
 (1652821895.296226)  can0  012   [8]  E8 03 10 00 00 00 00 00
 (1652821895.300726)  can0  1E5   [8]  1C 00 81 70 00 00 01 49
 (1652821895.304103)  can0  010   [4]  26 73 00 01
 (1652821895.304724)  can0  014   [5]  00 00 00 16 27
 (1652821895.306226)  can0  012   [8]  E8 03 10 00 00 00 00 00
 (1652821895.310727)  can0  1E5   [8]  1C 00 81 10 00 00 00 E9
 (1652821895.314726)  can0  014   [5]  00 00 00 0A 27
 (1652821895.316227)  can0  012   [8]  E8 03 10 00 00 00 00 00
 (1652821895.320746)  can0  1E5   [8]  1C 00 81 30 00 00 01 09
 (1652821895.324750)  can0  014   [5]  00 00 00 10 27
 (1652821895.326250)  can0  012   [8]  E8 03 10 00 00 00 00 00
 (1652821895.330750)  can0  1E5   [8]  1C 00 81 50 00 00 01 29
 (1652821895.334726)  can0  014   [5]  00 00 00 10 27
 (1652821895.336227)  can0  012   [8]  E8 03 10 00 00 00 00 00
 (1652821895.340728)  can0  1E5   [8]  1C 00 81 70 00 00 01 49
 (1652821895.344683)  can0  014   [5]  00 00 00 10 27
 (1652821895.346228)  can0  012   [8]  E8 03 10 00 00 00 00 00
 (1652821895.350726)  can0  1E5   [8]  1C 00 81 10 00 00 00 E9
 (1652821895.354725)  can0  014   [5]  00 00 00 10 27
 (1652821895.356227)  can0  012   [8]  E8 03 10 00 00 00 00 00
 (1652821895.360727)  can0  1E5   [8]  1C 00 81 30 00 00 01 09
 (1652821895.364726)  can0  014   [5]  00 00 00 10 27
 (1652821895.366229)  can0  012   [8]  E8 03 10 00 00 00 00 00
 (1652821895.370729)  can0  1E5   [8]  1C 00 81 50 00 00 01 29
 (1652821895.374728)  can0  014   [5]  00 00 00 10 27
 (1652821895.376229)  can0  012   [8]  E8 03 10 00 00 00 00 00
 (1652821895.380729)  can0  1E5   [8]  1C 00 81 70 00 00 01 49
 (1652821895.384726)  can0  014   [5]  00 00 00 10 27
 (1652821895.386230)  can0  012   [8]  E8 03 10 00 00 00 00 00
 (1652821895.390728)  can0  1E5   [8]  1C 00 81 10 00 00 00 E9
 (1652821895.394726)  can0  014   [5]  00 00 00 10 27
 (1652821895.396230)  can0  012   [8]  E8 03 10 00 00 00 00 00
 (1652821895.400728)  can0  1E5   [8]  1C 00 81 30 00 00 01 09
 (1652821895.404104)  can0  010   [4]  26 73 00 01
 (1652821895.404726)  can0  014   [5]  00 00 00 16 27
 (1652821895.406229)  can0  012   [8]  E8 03 10 00 00 00 00 00
 (1652821895.410707)  can0  1E5   [8]  1C 00 81 50 00 00 01 29
 (1652821895.414726)  can0  014   [5]  00 00 00 0A 27
 (1652821895.416229)  can0  012   [8]  E8 03 10 00 00 00 00 00
 (1652821895.420730)  can0  1E5   [8]  1C 00 81 70 00 00 01 49
 (1652821895.424729)  can0  014   [5]  00 00 00 10 27
 (1652821895.426230)  can0  012   [8]  E8 03 10 00 00 00 00 00
 (1652821895.430729)  can0  1E5   [8]  1C 00 81 10 00 00 00 E9
 (1652821895.434728)  can0  014   [5]  00 00 00 10 27
 (1652821895.436229)  can0  012   [8]  E8 03 10 00 00 00 00 00
 (1652821895.440726)  can0  1E5   [8]  1C 00 81 30 00 00 01 09
 (1652821895.444730)  can0  014   [5]  00 00 00 10 27
 (1652821895.446229)  can0  012   [8]  E8 03 10 00 00 00 00 00
 (1652821895.450727)  can0  1E5   [8]  1C 00 81 50 00 00 01 29
 (1652821895.454727)  can0  014   [5]  00 00 00 10 27
 (1652821895.456205)  can0  012   [8]  E8 03 10 00 00 00 00 00
 (1652821895.460728)  can0  1E5   [8]  1C 00 81 70 00 00 01 49
 (1652821895.464727)  can0  014   [5]  00 00 00 10 27
 (1652821895.466229)  can0  012   [8]  E8 03 10 00 00 00 00 00
 (1652821895.470731)  can0  1E5   [8]  1C 00 81 10 00 00 00 E9
 (1652821895.474731)  can0  014   [5]  00 00 00 10 27
 (1652821895.476183)  can0  012   [8]  E8 03 10 00 00 00 00 00
 (1652821895.480730)  can0  1E5   [8]  1C 00 81 30 00 00 01 09
 (1652821895.484730)  can0  014   [5]  00 00 00 10 27
 (1652821895.486231)  can0  012   [8]  E8 03 10 00 00 00 00 00
 (1652821895.490731)  can0  1E5   [8]  1C 00 81 50 00 00 01 29
 (1652821895.494730)  can0  014   [5]  00 00 00 10 27
 (1652821895.496230)  can0  012   [8]  E8 03 10 00 00 00 00 00
 (1652821895.500671)  can0  1E5   [8]  1C 00 81 70 00 00 01 49
 (1652821895.504117)  can0  010   [4]  26 73 00 01
 (1652821895.504729)  can0  014   [5]  00 00 00 16 27
 (1652821895.506219)  can0  012   [8]  E8 03 10 00 00 00 00 00
 (1652821895.510730)  can0  1E5   [8]  1C 00 81 10 00 00 00 E9
 (1652821895.514729)  can0  014   [5]  00 00 00 0A 27
 (1652821895.516230)  can0  012   [8]  E8 03 10 00 00 00 00 00
 (1652821895.520731)  can0  1E5   [8]  1C 00 81 30 00 00 01 09
 (1652821895.524731)  can0  014   [5]  00 00 00 10 27
 (1652821895.526231)  can0  012   [8]  E8 03 10 00 00 00 00 00
 (1652821895.530731)  can0  1E5   [8]  1C 00 81 50 00 00 01 29
 (1652821895.534731)  can0  014   [5]  00 00 00 10 27
 (1652821895.536230)  can0  012   [8]  E8 03 10 00 00 00 00 00
 (1652821895.540732)  can0  1E5   [8]  1C 00 81 70 00 00 01 49
 (1652821895.544731)  can0  014   [5]  00 00 00 10 27
 (1652821895.546231)  can0  012   [8]  E8 03 10 00 00 00 00 00
 (1652821895.550730)  can0  1E5   [8]  1C 00 81 10 00 00 00 E9
 (1652821895.554729)  can0  014   [5]  00 00 00 10 27
 (1652821895.556206)  can0  012   [8]  E8 03 10 00 00 00 00 00
 (1652821895.560730)  can0  1E5   [8]  1C 00 81 30 00 00 01 09
 (1652821895.564730)  can0  014   [5]  00 00 00 10 27
 (1652821895.566231)  can0  012   [8]  E8 03 10 00 00 00 00 00
 (1652821895.570732)  can0  1E5   [8]  1C 00 81 50 00 00 01 29
 (1652821895.574687)  can0  014   [5]  00 00 00 10 27
 (1652821895.576232)  can0  012   [8]  E8 03 10 00 00 00 00 00
 (1652821895.580733)  can0  1E5   [8]  1C 00 81 70 00 00 01 49
 (1652821895.584730)  can0  014   [5]  00 00 00 10 27
 (1652821895.586232)  can0  012   [8]  E8 03 10 00 00 00 00 00
 (1652821895.590732)  can0  1E5   [8]  1C 00 81 10 00 00 00 E9
 (1652821895.594732)  can0  014   [5]  00 00 00 10 27
 (1652821895.596232)  can0  012   [8]  E8 03 10 00 00 00 00 00
 (1652821895.600733)  can0  1E5   [8]  1C 00 81 30 00 00 01 09
 (1652821895.604108)  can0  010   [4]  26 73 00 01
 (1652821895.604730)  can0  014   [5]  00 00 00 16 27
 (1652821895.606233)  can0  012   [8]  E8 03 10 00 00 00 00 00
 (1652821895.610733)  can0  1E5   [8]  1C 00 81 50 00 00 01 29
 (1652821895.614732)  can0  014   [5]  00 00 00 0A 27
 (1652821895.616233)  can0  012   [8]  E8 03 10 00 00 00 00 00
 (1652821895.620735)  can0  1E5   [8]  1C 00 81 70 00 00 01 49
 (1652821895.624733)  can0  014   [5]  00 00 00 10 27
 (1652821895.626233)  can0  012   [8]  E8 03 10 00 00 00 00 00
 (1652821895.630733)  can0  1E5   [8]  1C 00 81 10 00 00 00 E9
 (1652821895.634734)  can0  014   [5]  00 00 00 10 27
 (1652821895.636234)  can0  012   [8]  E8 03 10 00 00 00 00 00
 (1652821895.640731)  can0  1E5   [8]  1C 00 81 30 00 00 01 09
 (1652821895.644733)  can0  014   [5]  00 00 00 10 27
 (1652821895.646233)  can0  012   [8]  E8 03 10 00 00 00 00 00
 (1652821895.650732)  can0  1E5   [8]  1C 00 81 50 00 00 01 29
 (1652821895.654731)  can0  014   [5]  00 00 00 10 27
 (1652821895.656233)  can0  012   [8]  E8 03 10 00 00 00 00 00
 (1652821895.660734)  can0  1E5   [8]  1C 00 81 70 00 00 01 49
 (1652821895.664732)  can0  014   [5]  00 00 00 10 27
 (1652821895.666235)  can0  012   [8]  E8 03 10 00 00 00 00 00
 (1652821895.670734)  can0  1E5   [8]  1C 00 81 10 00 00 00 E9
 (1652821895.674733)  can0  014   [5]  00 00 00 10 27
 (1652821895.676234)  can0  012   [8]  E8 03 10 00 00 00 00 00
 (1652821895.680733)  can0  1E5   [8]  1C 00 81 30 00 00 01 09
 (1652821895.684735)  can0  014   [5]  00 00 00 10 27
 (1652821895.686235)  can0  012   [8]  E8 03 10 00 00 00 00 00
 (1652821895.690734)  can0  1E5   [8]  1C 00 81 50 00 00 01 29
 (1652821895.694733)  can0  014   [5]  00 00 00 10 27
 (1652821895.696233)  can0  012   [8]  E8 03 10 00 00 00 00 00
 (1652821895.700735)  can0  1E5   [8]  1C 00 81 70 00 00 01 49
 (1652821895.704115)  can0  010   [4]  26 73 00 01
 (1652821895.704753)  can0  014   [5]  00 00 00 16 27
 (1652821895.706222)  can0  012   [8]  E8 03 10 00 00 00 00 00
 (1652821895.710757)  can0  1E5   [8]  1C 00 81 10 00 00 00 E9
 (1652821895.714733)  can0  014   [5]  00 00 00 0A 27
 (1652821895.716236)  can0  012   [8]  E8 03 10 00 00 00 00 00
 (1652821895.720735)  can0  1E5   [8]  1C 00 81 30 00 00 01 09
 (1652821895.724758)  can0  014   [5]  00 00 00 10 27
 (1652821895.726258)  can0  012   [8]  E8 03 10 00 00 00 00 00
 (1652821895.726264)  can0  0E3   [2]  A8 00
 (1652821895.730759)  can0  1E5   [8]  1C 00 81 50 00 00 01 29
 (1652821895.734734)  can0  014   [5]  00 00 00 13 27
 (1652821895.736210)  can0  012   [8]  E8 03 10 00 00 00 00 00
 (1652821895.740736)  can0  1E5   [8]  1C 00 81 70 00 00 01 49
 (1652821895.744737)  can0  014   [5]  00 00 00 0D 27
 (1652821895.746234)  can0  012   [8]  E8 03 10 00 00 00 00 00
 (1652821895.750733)  can0  1E5   [8]  1C 00 81 10 00 00 00 E9
 (1652821895.754733)  can0  014   [5]  00 00 00 10 27
 (1652821895.756215)  can0  012   [8]  E8 03 10 00 00 00 00 00
 (1652821895.760734)  can0  1E5   [8]  1C 00 81 30 00 00 01 09
 (1652821895.764734)  can0  014   [5]  00 00 00 10 27
 (1652821895.766237)  can0  012   [8]  E8 03 10 00 00 00 00 00
 (1652821895.770736)  can0  1E5   [8]  1C 00 81 50 00 00 01 29
 (1652821895.774736)  can0  014   [5]  00 00 00 10 27
 (1652821895.776238)  can0  012   [8]  E8 03 10 00 00 00 00 00
 (1652821895.780736)  can0  1E5   [8]  1C 00 81 70 00 00 01 49
 (1652821895.784737)  can0  014   [5]  00 00 00 10 27
 (1652821895.786236)  can0  012   [8]  E8 03 10 00 00 00 00 00
 (1652821895.790736)  can0  1E5   [8]  1C 00 81 10 00 00 00 E9
 (1652821895.794738)  can0  014   [5]  00 00 00 10 27
 (1652821895.796237)  can0  012   [8]  E8 03 10 00 00 00 00 00
 (1652821895.800736)  can0  1E5   [8]  1C 00 81 30 00 00 01 09
 (1652821895.804112)  can0  010   [4]  26 73 00 01
 (1652821895.804195)  can0  0E2   [2]  20 01
 (1652821895.804735)  can0  014   [5]  00 00 00 1B 27
 (1652821895.804737)  can0  0E4   [2]  20 01
 (1652821895.806236)  can0  012   [8]  E8 03 10 00 00 00 00 00
 (1652821895.810736)  can0  1E5   [8]  1C 00 81 50 00 00 01 29
 (1652821895.814734)  can0  014   [5]  00 00 00 05 27
 (1652821895.816236)  can0  012   [8]  E8 03 10 00 00 00 00 00
 (1652821895.820737)  can0  1E5   [8]  1C 00 81 70 00 00 01 49
 (1652821895.824737)  can0  014   [5]  00 00 00 10 27
 (1652821895.826238)  can0  012   [8]  E8 03 10 00 00 00 00 00
 (1652821895.830736)  can0  1E5   [8]  1C 00 81 10 00 00 00 E9
 (1652821895.834738)  can0  014   [5]  00 00 00 10 27
 (1652821895.836237)  can0  012   [8]  E8 03 10 00 00 00 00 00
 (1652821895.840737)  can0  1E5   [8]  1C 00 81 30 00 00 01 09
 (1652821895.844737)  can0  014   [5]  00 00 00 10 27
 (1652821895.846238)  can0  012   [8]  E8 03 10 00 00 00 00 00
 (1652821895.850735)  can0  1E5   [8]  1C 00 81 50 00 00 01 29
 (1652821895.854736)  can0  014   [5]  00 00 00 10 27
 (1652821895.856217)  can0  012   [8]  E8 03 10 00 00 00 00 00
 (1652821895.860737)  can0  1E5   [8]  1C 00 81 70 00 00 01 49
 (1652821895.864735)  can0  014   [5]  00 00 00 10 27
 (1652821895.866237)  can0  012   [8]  E8 03 10 00 00 00 00 00
 (1652821895.870692)  can0  1E5   [8]  1C 00 81 10 00 00 00 E9
 (1652821895.874739)  can0  014   [5]  00 00 00 10 27
 (1652821895.876238)  can0  012   [8]  E8 03 10 00 00 00 00 00
 (1652821895.880737)  can0  1E5   [8]  1C 00 81 30 00 00 01 09
 (1652821895.884739)  can0  014   [5]  00 00 00 10 27
 (1652821895.886238)  can0  012   [8]  E8 03 10 00 00 00 00 00
 (1652821895.890737)  can0  1E5   [8]  1C 00 81 50 00 00 01 29
 (1652821895.894739)  can0  014   [5]  00 00 00 10 27
 (1652821895.896214)  can0  012   [8]  E8 03 10 00 00 00 00 00
 (1652821895.900739)  can0  1E5   [8]  1C 00 81 70 00 00 01 49
 (1652821895.904114)  can0  010   [4]  26 73 00 01
 (1652821895.904736)  can0  014   [5]  00 00 00 16 27
 (1652821895.906239)  can0  012   [8]  E8 03 10 00 00 00 00 00
 (1652821895.910740)  can0  1E5   [8]  1C 00 81 10 00 00 00 E9
 (1652821895.914736)  can0  014   [5]  00 00 00 0A 27
 (1652821895.916240)  can0  012   [8]  E8 03 10 00 00 00 00 00
 (1652821895.920758)  can0  1E5   [8]  1C 00 81 30 00 00 01 09
 (1652821895.924761)  can0  014   [5]  00 00 00 10 27
 (1652821895.926262)  can0  012   [8]  E8 03 10 00 00 00 00 00
 (1652821895.930761)  can0  1E5   [8]  1C 00 81 50 00 00 01 29
 (1652821895.934738)  can0  014   [5]  00 00 00 10 27
 (1652821895.936248)  can0  012   [8]  E8 03 10 00 00 00 00 00
 (1652821895.940740)  can0  1E5   [8]  1C 00 81 70 00 00 01 49
 (1652821895.944739)  can0  014   [5]  00 00 00 10 27
 (1652821895.946239)  can0  012   [8]  E8 03 10 00 00 00 00 00
 (1652821895.950738)  can0  1E5   [8]  1C 00 81 10 00 00 00 E9
 (1652821895.954737)  can0  014   [5]  00 00 00 10 27
 (1652821895.956219)  can0  012   [8]  E8 03 10 00 00 00 00 00
 (1652821895.960738)  can0  1E5   [8]  1C 00 81 30 00 00 01 09
 (1652821895.964737)  can0  014   [5]  00 00 00 10 27
 (1652821895.966239)  can0  012   [8]  E8 03 10 00 00 00 00 00
 (1652821895.970694)  can0  1E5   [8]  1C 00 81 50 00 00 01 29
 (1652821895.974687)  can0  014   [5]  00 00 00 10 27
 (1652821895.976186)  can0  012   [8]  E8 03 10 00 00 00 00 00
 (1652821895.980689)  can0  1E5   [8]  1C 00 81 70 00 00 01 49
 (1652821895.984691)  can0  014   [5]  00 00 00 10 27
 (1652821895.986189)  can0  012   [8]  E8 03 10 00 00 00 00 00
 (1652821895.990690)  can0  1E5   [8]  1C 00 81 10 00 00 00 E9
 (1652821895.994687)  can0  014   [5]  00 00 00 10 27
 (1652821895.996186)  can0  012   [8]  E8 03 10 00 00 00 00 00
 (1652821896.000687)  can0  1E5   [8]  1C 00 81 30 00 00 01 09
 (1652821896.004072)  can0  010   [4]  26 73 00 01
 (1652821896.004688)  can0  014   [5]  00 00 00 16 27
 (1652821896.006188)  can0  012   [8]  E8 03 10 00 00 00 00 00
 (1652821896.010687)  can0  1E5   [8]  1C 00 81 50 00 00 01 29
 (1652821896.014687)  can0  014   [5]  00 00 00 0A 27
 (1652821896.016187)  can0  012   [8]  E8 03 10 00 00 00 00 00
 (1652821896.020687)  can0  1E5   [8]  1C 00 81 70 00 00 01 49
 (1652821896.024687)  can0  014   [5]  00 00 00 10 27
 (1652821896.026188)  can0  012   [8]  E8 03 10 00 00 00 00 00
 (1652821896.030688)  can0  1E5   [8]  1C 00 81 10 00 00 00 E9
 (1652821896.034692)  can0  014   [5]  00 00 00 10 27
 (1652821896.036187)  can0  012   [8]  E8 03 10 00 00 00 00 00
 (1652821896.040688)  can0  1E5   [8]  1C 00 81 30 00 00 01 09
 (1652821896.044688)  can0  014   [5]  00 00 00 10 27
 (1652821896.046187)  can0  012   [8]  E8 03 10 00 00 00 00 00
 (1652821896.050689)  can0  1E5   [8]  1C 00 81 50 00 00 01 29
 (1652821896.054688)  can0  014   [5]  00 00 00 10 27
 (1652821896.056188)  can0  012   [8]  E8 03 10 00 00 00 00 00
 (1652821896.060688)  can0  1E5   [8]  1C 00 81 70 00 00 01 49
 (1652821896.064688)  can0  014   [5]  00 00 00 10 27
 (1652821896.066188)  can0  012   [8]  E8 03 10 00 00 00 00 00
 (1652821896.070688)  can0  1E5   [8]  1C 00 81 10 00 00 00 E9
 (1652821896.074688)  can0  014   [5]  00 00 00 10 27
 (1652821896.076188)  can0  012   [8]  E8 03 10 00 00 00 00 00
 (1652821896.080688)  can0  1E5   [8]  1C 00 81 30 00 00 01 09
 (1652821896.084689)  can0  014   [5]  00 00 00 10 27
 (1652821896.086189)  can0  012   [8]  E8 03 10 00 00 00 00 00
 (1652821896.090688)  can0  1E5   [8]  1C 00 81 50 00 00 01 29
 (1652821896.094689)  can0  014   [5]  00 00 00 10 27
 (1652821896.096189)  can0  012   [8]  E8 03 10 00 00 00 00 00
 (1652821896.100688)  can0  1E5   [8]  1C 00 81 70 00 00 01 49
 (1652821896.104084)  can0  010   [4]  26 73 00 01
 (1652821896.104689)  can0  014   [5]  00 00 00 16 27
 (1652821896.106188)  can0  012   [8]  E8 03 10 00 00 00 00 00
 (1652821896.110689)  can0  1E5   [8]  1C 00 81 10 00 00 00 E9
 (1652821896.114689)  can0  014   [5]  00 00 00 0A 27
 (1652821896.116189)  can0  012   [8]  E8 03 10 00 00 00 00 00
 (1652821896.120689)  can0  1E5   [8]  1C 00 81 30 00 00 01 09
 (1652821896.124689)  can0  014   [5]  00 00 00 10 27
 (1652821896.126189)  can0  012   [8]  E8 03 10 00 00 00 00 00
 (1652821896.130689)  can0  1E5   [8]  1C 00 81 50 00 00 01 29
 (1652821896.134690)  can0  014   [5]  00 00 00 10 27
 (1652821896.136194)  can0  012   [8]  E8 03 10 00 00 00 00 00
 (1652821896.140689)  can0  1E5   [8]  1C 00 81 70 00 00 01 49
 (1652821896.144690)  can0  014   [5]  00 00 00 10 27
 (1652821896.146202)  can0  012   [8]  E8 03 10 00 00 00 00 00
 (1652821896.146204)  can0  0F0   [1]  01
 (1652821896.146334)  can0  011   [2]  08 01
 (1652821896.146335)  can0  021   [8]  01 00 00 00 00 00 00 00
 (1652821896.150697)  can0  1E5   [8]  1C 00 81 10 00 00 00 E9
 (1652821896.154709)  can0  014   [5]  00 00 00 19 27
 (1652821896.156259)  can0  012   [8]  E8 03 10 00 00 00 00 00
 (1652821896.160742)  can0  1E5   [8]  1C 00 81 30 00 00 01 09
 (1652821896.164743)  can0  014   [5]  00 00 00 07 27
 (1652821896.166257)  can0  012   [8]  E8 03 10 00 00 00 00 00
 (1652821896.170745)  can0  1E5   [8]  1C 00 81 50 00 00 01 29
 (1652821896.174744)  can0  014   [5]  00 00 00 10 27
 (1652821896.176243)  can0  012   [8]  E8 03 10 00 00 00 00 00
 (1652821896.180744)  can0  1E5   [8]  1C 00 81 70 00 00 01 49
 (1652821896.184745)  can0  014   [5]  00 00 00 10 27
 (1652821896.186245)  can0  012   [8]  E8 03 10 00 00 00 00 00
 (1652821896.190744)  can0  1E5   [8]  1C 00 81 10 00 00 00 E9
 (1652821896.194744)  can0  014   [5]  00 00 00 10 27
 (1652821896.196245)  can0  012   [8]  E8 03 10 00 00 00 00 00
 (1652821896.200744)  can0  1E5   [8]  1C 00 81 30 00 00 01 09
 (1652821896.204121)  can0  010   [4]  32 86 08 01
 (1652821896.204743)  can0  014   [5]  00 00 00 16 27
 (1652821896.206245)  can0  012   [8]  E8 03 10 00 00 00 00 00
 (1652821896.210744)  can0  1E5   [8]  1C 00 81 50 00 00 01 29
 (1652821896.214743)  can0  014   [5]  00 00 00 0A 27
 (1652821896.216244)  can0  012   [8]  E8 03 10 00 00 00 00 00
 (1652821896.220746)  can0  1E5   [8]  1C 00 81 70 00 00 01 49
 (1652821896.224744)  can0  014   [5]  00 00 00 10 27
 (1652821896.226245)  can0  012   [8]  E8 03 10 00 00 00 00 00
 (1652821896.230744)  can0  1E5   [8]  1C 00 81 10 00 00 00 E9
 (1652821896.234701)  can0  014   [5]  00 00 00 10 27
 (1652821896.236245)  can0  012   [8]  E8 03 10 00 00 00 00 00
 (1652821896.240746)  can0  1E5   [8]  1C 00 81 30 00 00 01 09
 (1652821896.244746)  can0  014   [5]  00 00 00 10 27
 (1652821896.246248)  can0  012   [8]  E8 03 10 00 00 00 00 00
 (1652821896.250744)  can0  1E5   [8]  1C 00 81 50 00 00 01 29
 (1652821896.254744)  can0  014   [5]  00 00 00 10 27
 (1652821896.256262)  can0  012   [8]  E8 03 10 00 00 00 00 00
 (1652821896.260746)  can0  1E5   [8]  1C 00 81 70 00 00 01 49
 (1652821896.264745)  can0  014   [5]  00 00 00 10 27
 (1652821896.266247)  can0  012   [8]  E8 03 10 00 00 00 00 00
 (1652821896.270746)  can0  1E5   [8]  1C 00 81 10 00 00 00 E9
 (1652821896.274747)  can0  014   [5]  00 00 00 10 27
 (1652821896.276248)  can0  012   [8]  E8 03 10 00 00 00 00 00
 (1652821896.280744)  can0  1E5   [8]  1C 00 81 30 00 00 01 09
 (1652821896.284746)  can0  014   [5]  00 00 00 10 27
 (1652821896.286246)  can0  012   [8]  E8 03 10 00 00 00 00 00
 (1652821896.290746)  can0  1E5   [8]  1C 00 81 50 00 00 01 29
 (1652821896.294746)  can0  014   [5]  00 00 00 10 27
 (1652821896.296203)  can0  012   [8]  E8 03 10 00 00 00 00 00
 (1652821896.300744)  can0  1E5   [8]  1C 00 81 70 00 00 01 49
 (1652821896.304122)  can0  010   [4]  32 86 08 01
 (1652821896.304744)  can0  014   [5]  00 00 00 16 27
 (1652821896.306246)  can0  012   [8]  E8 03 10 00 00 00 00 00
 (1652821896.310747)  can0  1E5   [8]  1C 00 81 10 00 00 00 E9
 (1652821896.314745)  can0  014   [5]  00 00 00 0A 27
 (1652821896.316247)  can0  012   [8]  E8 03 10 00 00 00 00 00
 (1652821896.320748)  can0  1E5   [8]  1C 00 81 30 00 00 01 09
 (1652821896.324747)  can0  014   [5]  01 00 00 10 27
 (1652821896.326246)  can0  012   [8]  E8 03 10 00 00 00 00 00
 (1652821896.330747)  can0  1E5   [8]  1C 00 81 50 00 00 01 29
 (1652821896.334747)  can0  014   [5]  00 00 00 10 27
 (1652821896.336248)  can0  012   [8]  E8 03 10 00 00 00 00 00
 (1652821896.340748)  can0  1E5   [8]  1C 00 81 70 00 00 01 49
 (1652821896.344747)  can0  014   [5]  00 10 00 10 27
 (1652821896.346247)  can0  012   [8]  E8 03 10 00 00 00 00 00
 (1652821896.350747)  can0  1E5   [8]  1C 00 81 10 00 00 00 E9
 (1652821896.354745)  can0  014   [5]  00 00 00 10 27
 (1652821896.356220)  can0  012   [8]  E8 03 10 00 00 00 00 00
 (1652821896.360747)  can0  1E5   [8]  1C 00 81 30 00 00 01 09
 (1652821896.364746)  can0  014   [5]  01 00 00 10 27
 (1652821896.366224)  can0  012   [8]  E8 03 10 00 00 00 00 00
 (1652821896.370749)  can0  1E5   [8]  1C 00 81 50 00 00 01 29
 (1652821896.374748)  can0  014   [5]  00 10 00 10 27
 (1652821896.376248)  can0  012   [8]  E8 03 10 00 00 00 00 00
 (1652821896.380749)  can0  1E5   [8]  1C 00 81 70 00 00 01 49
 (1652821896.384750)  can0  014   [5]  00 00 00 10 27
 (1652821896.386248)  can0  012   [8]  E8 03 10 00 00 00 00 00
 (1652821896.390748)  can0  1E5   [8]  1C 00 81 10 00 00 00 E9
 (1652821896.394748)  can0  014   [5]  01 00 00 10 27
 (1652821896.396249)  can0  012   [8]  E8 03 10 00 00 00 00 00
 (1652821896.400748)  can0  1E5   [8]  1C 00 81 30 00 00 01 09
 (1652821896.404125)  can0  010   [4]  32 86 08 01
 (1652821896.404746)  can0  014   [5]  00 10 00 16 27
 (1652821896.406249)  can0  012   [8]  E8 03 10 00 00 00 00 00
 (1652821896.410748)  can0  1E5   [8]  1C 00 81 50 00 00 01 29
 (1652821896.414747)  can0  014   [5]  01 00 00 0A 27
 (1652821896.416249)  can0  012   [8]  E8 03 10 00 00 00 00 00
 (1652821896.420750)  can0  1E5   [8]  1C 00 81 70 00 00 01 49
 (1652821896.424751)  can0  014   [5]  00 10 00 10 27
 (1652821896.426249)  can0  012   [8]  E8 03 10 00 00 00 00 00
 (1652821896.430751)  can0  1E5   [8]  1C 00 81 10 00 00 00 E9
 (1652821896.434750)  can0  014   [5]  01 10 00 10 27
 (1652821896.436249)  can0  012   [8]  E8 03 10 00 00 00 00 00
 (1652821896.440750)  can0  1E5   [8]  1C 00 81 30 00 00 01 09
 (1652821896.444749)  can0  014   [5]  01 10 00 10 27
 (1652821896.446250)  can0  012   [8]  E8 03 10 00 00 00 00 00
 (1652821896.450751)  can0  1E5   [8]  1C 00 81 50 00 00 01 29
 (1652821896.454749)  can0  014   [5]  01 10 00 10 27
 (1652821896.456228)  can0  012   [8]  E8 03 10 00 00 00 00 00
 (1652821896.460748)  can0  1E5   [8]  1C 00 81 70 00 00 01 49
 (1652821896.464724)  can0  014   [5]  01 10 00 10 27
 (1652821896.466250)  can0  012   [8]  E8 03 10 00 00 00 00 00
 (1652821896.470749)  can0  1E5   [8]  1C 00 81 10 00 00 00 E9
 (1652821896.474749)  can0  014   [5]  02 10 00 10 27
 (1652821896.476250)  can0  012   [8]  E8 03 10 00 00 00 00 00
 (1652821896.480706)  can0  1E5   [8]  1C 00 81 30 00 00 01 09
 (1652821896.484749)  can0  014   [5]  01 10 00 10 27
 (1652821896.486259)  can0  012   [8]  E8 03 10 00 00 00 00 00
 (1652821896.490750)  can0  1E5   [8]  1C 00 81 50 00 00 01 29
 (1652821896.494750)  can0  014   [5]  01 10 00 10 27
 (1652821896.496248)  can0  012   [8]  E8 03 10 00 00 00 00 00
 (1652821896.500750)  can0  1E5   [8]  1C 00 81 70 00 00 01 49
 (1652821896.504119)  can0  010   [4]  32 86 08 01
 (1652821896.504748)  can0  014   [5]  01 20 00 16 27
 (1652821896.506251)  can0  012   [8]  E8 03 10 00 00 00 00 00
 (1652821896.510751)  can0  1E5   [8]  1C 00 81 10 00 00 00 E9
 (1652821896.514749)  can0  014   [5]  02 10 00 0A 27
 (1652821896.516252)  can0  012   [8]  E8 03 10 00 00 00 00 00
 (1652821896.520752)  can0  1E5   [8]  1C 00 81 30 00 00 01 09
 (1652821896.524750)  can0  014   [5]  01 20 00 10 27
 (1652821896.526252)  can0  012   [8]  E8 03 10 00 00 00 00 00
 (1652821896.530749)  can0  1E5   [8]  1C 00 81 50 00 00 01 29
 (1652821896.534752)  can0  014   [5]  01 20 00 10 27
 (1652821896.536242)  can0  012   [8]  E8 03 10 00 00 00 00 00
 (1652821896.540768)  can0  1E5   [8]  1C 00 81 70 00 00 01 49
 (1652821896.544770)  can0  014   [5]  02 20 00 12 27
 (1652821896.546144)  can0  012   [8]  E8 03 10 00 00 00 00 00
 (1652821896.550753)  can0  1E5   [8]  1C 00 81 10 00 00 00 E9
 (1652821896.554750)  can0  014   [5]  02 20 00 0E 27
 (1652821896.556225)  can0  012   [8]  E8 03 10 00 00 00 00 00
 (1652821896.560751)  can0  1E5   [8]  1C 00 81 30 00 00 01 09
 (1652821896.564750)  can0  014   [5]  03 20 00 10 27
 (1652821896.566229)  can0  012   [8]  E8 03 10 00 00 00 00 00
 (1652821896.570750)  can0  1E5   [8]  1C 00 81 50 00 00 01 29
 (1652821896.574751)  can0  014   [5]  03 30 00 10 27
 (1652821896.576261)  can0  012   [8]  E8 03 10 00 00 00 00 00
 (1652821896.580751)  can0  1E5   [8]  1C 00 81 70 00 00 01 49
 (1652821896.584717)  can0  014   [5]  04 30 00 10 27
 (1652821896.586222)  can0  012   [8]  E8 03 10 00 00 00 00 00
 (1652821896.590752)  can0  1E5   [8]  1C 00 81 10 00 00 00 E9
 (1652821896.594753)  can0  014   [5]  04 40 00 10 27
 (1652821896.596222)  can0  012   [8]  E8 03 10 00 00 00 00 00
 (1652821896.600752)  can0  1E5   [8]  1C 00 81 30 00 00 01 09
 (1652821896.604127)  can0  010   [4]  32 86 08 01
 (1652821896.604750)  can0  014   [5]  04 40 00 16 27
 (1652821896.606254)  can0  012   [8]  E8 03 10 00 00 00 00 00
 (1652821896.610755)  can0  1E5   [8]  1C 00 81 50 00 00 01 29
 (1652821896.614750)  can0  014   [5]  05 40 00 0A 27
 (1652821896.616128)  can0  012   [8]  E8 03 10 00 00 00 00 00
 (1652821896.620753)  can0  1E5   [8]  1C 00 81 70 00 00 01 49
 (1652821896.624754)  can0  014   [5]  05 50 00 10 27
 (1652821896.626253)  can0  012   [8]  E8 03 10 00 00 00 00 00
 (1652821896.630755)  can0  1E5   [8]  1C 00 81 10 00 00 00 E9
 (1652821896.634753)  can0  014   [5]  06 50 00 10 27
 (1652821896.636130)  can0  012   [8]  E8 03 10 00 00 00 00 00
 (1652821896.640753)  can0  1E5   [8]  1C 00 81 30 00 00 01 09
 (1652821896.644755)  can0  014   [5]  06 60 00 10 27
 (1652821896.646253)  can0  012   [8]  E8 03 10 00 00 00 00 00
 (1652821896.650753)  can0  1E5   [8]  1C 00 81 50 00 00 01 29
 (1652821896.654752)  can0  014   [5]  07 70 00 10 27
 (1652821896.656231)  can0  012   [8]  E8 03 10 00 00 00 00 00
 (1652821896.660754)  can0  1E5   [8]  1C 00 81 70 00 00 01 49
 (1652821896.664752)  can0  014   [5]  07 80 00 10 27
 (1652821896.666253)  can0  012   [8]  E8 03 10 00 00 00 00 00
 (1652821896.670630)  can0  1E5   [8]  1C 00 81 10 00 00 00 E9
 (1652821896.674755)  can0  014   [5]  08 80 00 10 27
 (1652821896.676254)  can0  012   [8]  E8 03 10 00 00 00 00 00
 (1652821896.680754)  can0  1E5   [8]  1C 00 81 30 00 00 01 09
 (1652821896.684753)  can0  014   [5]  08 90 00 10 27
 (1652821896.686130)  can0  012   [8]  E8 03 10 00 00 00 00 00
 (1652821896.690755)  can0  1E5   [8]  1C 00 81 50 00 00 01 29
 (1652821896.694731)  can0  014   [5]  0A A0 00 10 27
 (1652821896.696254)  can0  012   [8]  E8 03 10 00 00 00 00 00
 (1652821896.700629)  can0  1E5   [8]  1C 00 81 70 00 00 01 49
 (1652821896.704130)  can0  010   [4]  32 86 08 01
 (1652821896.704753)  can0  014   [5]  0A A0 00 16 27
 (1652821896.706255)  can0  012   [8]  E8 03 10 00 00 00 00 00
 (1652821896.710631)  can0  1E5   [8]  1C 00 81 10 00 00 00 E9
 (1652821896.714753)  can0  014   [5]  0A B0 00 0A 27
 (1652821896.716131)  can0  012   [8]  E8 03 10 00 00 00 00 00
 (1652821896.720757)  can0  1E5   [8]  1C 00 81 30 00 00 01 09
 (1652821896.724754)  can0  014   [5]  0C C0 00 10 27
 (1652821896.726256)  can0  012   [8]  E8 03 10 00 00 00 00 00
 (1652821896.726259)  can0  0E3   [2]  D2 00
 (1652821896.730652)  can0  1E5   [8]  1C 00 81 50 00 00 01 29
 (1652821896.734755)  can0  014   [5]  0D C0 00 14 27
 (1652821896.736129)  can0  012   [8]  E8 03 10 00 00 00 00 00
 (1652821896.740754)  can0  1E5   [8]  1C 00 81 70 00 00 01 49
 (1652821896.744756)  can0  014   [5]  0D C0 00 0C 27
 (1652821896.746255)  can0  012   [8]  E8 03 10 00 00 00 00 00
 (1652821896.750754)  can0  1E5   [8]  1C 00 81 10 00 00 00 E9
 (1652821896.754754)  can0  014   [5]  0E E0 00 10 27
 (1652821896.756264)  can0  012   [8]  E8 03 10 00 00 00 00 00
 (1652821896.760629)  can0  1E5   [8]  1C 00 81 30 00 00 01 09
 (1652821896.764754)  can0  014   [5]  0F E0 00 10 27
 (1652821896.766264)  can0  012   [8]  E8 03 10 00 00 00 00 00
 (1652821896.770757)  can0  1E5   [8]  1C 00 81 50 00 00 01 29
 (1652821896.774756)  can0  014   [5]  0F F0 00 10 27
 (1652821896.776257)  can0  012   [8]  E8 03 10 00 00 00 00 00
 (1652821896.780632)  can0  1E5   [8]  1C 00 81 70 00 00 01 49
 (1652821896.784756)  can0  014   [5]  0F 00 01 10 27
 (1652821896.786131)  can0  012   [8]  E8 03 10 00 00 00 00 00
 (1652821896.790757)  can0  1E5   [8]  1C 00 81 10 00 00 00 E9
 (1652821896.794758)  can0  014   [5]  10 00 01 11 27
 (1652821896.796256)  can0  012   [8]  E8 03 10 00 00 00 00 00
 (1652821896.800631)  can0  1E5   [8]  1C 00 81 30 00 00 01 09
 (1652821896.804132)  can0  010   [4]  32 86 08 01
 (1652821896.804135)  can0  0E2   [2]  4A 01
 (1652821896.804755)  can0  014   [5]  10 20 01 1A 27
 (1652821896.804757)  can0  0E4   [2]  4A 01
 (1652821896.806258)  can0  012   [8]  E8 03 10 00 00 00 00 00
 (1652821896.810633)  can0  1E5   [8]  1C 00 81 50 00 00 01 29
 (1652821896.814755)  can0  014   [5]  12 20 01 05 27
 (1652821896.816132)  can0  012   [8]  E8 03 10 00 00 00 00 00
 (1652821896.820757)  can0  1E5   [8]  1C 00 81 70 00 00 01 49
 (1652821896.824757)  can0  014   [5]  12 30 01 10 27
 (1652821896.826257)  can0  012   [8]  E8 03 10 00 00 00 00 00
 (1652821896.830632)  can0  1E5   [8]  1C 00 81 10 00 00 00 E9
 (1652821896.834757)  can0  014   [5]  14 30 01 10 27
 (1652821896.836258)  can0  012   [8]  E8 03 10 00 00 00 00 00
 (1652821896.840757)  can0  1E5   [8]  1C 00 81 30 00 00 01 09
 (1652821896.844757)  can0  014   [5]  15 50 01 10 27
 (1652821896.846133)  can0  012   [8]  E8 03 10 00 00 00 00 00
 (1652821896.850637)  can0  1E5   [8]  1C 00 81 50 00 00 01 29
 (1652821896.854756)  can0  014   [5]  15 50 01 10 27
 (1652821896.856121)  can0  012   [8]  E8 03 10 00 00 00 00 00
 (1652821896.860632)  can0  1E5   [8]  1C 00 81 70 00 00 01 49
 (1652821896.864757)  can0  014   [5]  16 70 01 10 27
 (1652821896.866258)  can0  012   [8]  E8 03 10 00 00 00 00 00
 (1652821896.870633)  can0  1E5   [8]  1C 00 81 10 00 00 00 E9
 (1652821896.874757)  can0  014   [5]  17 70 01 10 27
 (1652821896.876134)  can0  012   [8]  E8 03 10 00 00 00 00 00
 (1652821896.880634)  can0  1E5   [8]  1C 00 81 30 00 00 01 09
 (1652821896.884758)  can0  014   [5]  18 80 01 10 27
 (1652821896.886133)  can0  012   [8]  E8 03 10 00 00 00 00 00
 (1652821896.890759)  can0  1E5   [8]  1C 00 81 50 00 00 01 29
 (1652821896.894758)  can0  014   [5]  18 90 01 11 27
 (1652821896.896259)  can0  012   [8]  E8 03 10 00 00 00 00 00
 (1652821896.900631)  can0  1E5   [8]  1C 00 81 70 00 00 01 49
 (1652821896.904133)  can0  010   [4]  32 86 08 01
 (1652821896.904758)  can0  014   [5]  1A A0 01 18 27
 (1652821896.906135)  can0  012   [8]  E8 03 10 00 00 00 00 00
 (1652821896.910634)  can0  1E5   [8]  1C 00 81 10 00 00 00 E9
 (1652821896.914758)  can0  014   [5]  1B A0 01 07 27
 (1652821896.916259)  can0  012   [8]  E8 03 10 00 00 00 00 00
 (1652821896.920632)  can0  1E5   [8]  1C 00 81 30 00 00 01 09
 (1652821896.924759)  can0  014   [5]  1B D0 01 10 27
 (1652821896.926136)  can0  012   [8]  E8 03 10 00 00 00 00 00
 (1652821896.930633)  can0  1E5   [8]  1C 00 81 50 00 00 01 29
 (1652821896.934759)  can0  014   [5]  1D C0 01 10 27
 (1652821896.936135)  can0  012   [8]  E8 03 10 00 00 00 00 00
 (1652821896.940589)  can0  1E5   [8]  1C 00 81 70 00 00 01 49
 (1652821896.944759)  can0  014   [5]  1D D0 01 11 27
 (1652821896.946260)  can0  012   [8]  E8 03 10 00 00 00 00 00
 (1652821896.950635)  can0  1E5   [8]  1C 00 81 10 00 00 00 E9
 (1652821896.954758)  can0  014   [5]  1F E0 01 0F 27
 (1652821896.956122)  can0  012   [8]  E8 03 10 00 00 00 00 00
 (1652821896.960758)  can0  1E5   [8]  1C 00 81 30 00 00 01 09
 (1652821896.964759)  can0  014   [5]  1F 00 02 10 27
 (1652821896.966135)  can0  012   [8]  E8 03 10 00 00 00 00 00
 (1652821896.970635)  can0  1E5   [8]  1C 00 81 50 00 00 01 29
 (1652821896.974759)  can0  014   [5]  21 00 02 10 27
 (1652821896.976136)  can0  012   [8]  E8 03 10 00 00 00 00 00
 (1652821896.980636)  can0  1E5   [8]  1C 00 81 70 00 00 01 49
 (1652821896.984758)  can0  014   [5]  20 10 02 10 27
 (1652821896.986261)  can0  012   [8]  E8 03 10 00 00 00 00 00
 (1652821896.990655)  can0  1E5   [8]  1C 00 81 10 00 00 00 E9
 (1652821896.994760)  can0  014   [5]  23 20 02 10 27
 (1652821896.996135)  can0  012   [8]  E8 03 10 00 00 00 00 00
 (1652821897.000634)  can0  1E5   [8]  1C 00 81 30 00 00 01 09
 (1652821897.004122)  can0  010   [4]  32 86 08 01
 (1652821897.004759)  can0  014   [5]  22 40 02 16 27
 (1652821897.006137)  can0  012   [8]  E8 03 10 00 00 00 00 00
 (1652821897.010637)  can0  1E5   [8]  1C 00 81 50 00 00 01 29
 (1652821897.014760)  can0  014   [5]  23 50 02 0A 27
 (1652821897.016137)  can0  012   [8]  E8 03 10 00 00 00 00 00
 (1652821897.020637)  can0  1E5   [8]  1C 00 81 70 00 00 01 49
 (1652821897.024762)  can0  014   [5]  26 50 02 14 27
 (1652821897.026136)  can0  012   [8]  E8 03 10 00 00 00 00 00
 (1652821897.030636)  can0  1E5   [8]  1C 00 81 10 00 00 00 E9
 (1652821897.034761)  can0  014   [5]  27 60 02 0C 27
 (1652821897.036137)  can0  012   [8]  E8 03 10 00 00 00 00 00
 (1652821897.040636)  can0  1E5   [8]  1C 00 81 30 00 00 01 09
 (1652821897.044761)  can0  014   [5]  26 80 02 10 27
 (1652821897.046261)  can0  012   [8]  E8 03 10 00 00 00 00 00
 (1652821897.050637)  can0  1E5   [8]  1C 00 81 50 00 00 01 29
 (1652821897.054759)  can0  014   [5]  28 80 02 10 27
 (1652821897.056122)  can0  012   [8]  E8 03 10 00 00 00 00 00
 (1652821897.060624)  can0  1E5   [8]  1C 00 81 70 00 00 01 49
 (1652821897.064760)  can0  014   [5]  2B A0 02 17 27
 (1652821897.066136)  can0  012   [8]  E8 03 10 00 00 00 00 00
 (1652821897.070637)  can0  1E5   [8]  1C 00 81 10 00 00 00 E9
 (1652821897.074762)  can0  014   [5]  29 A0 02 09 27
 (1652821897.076139)  can0  012   [8]  E8 03 10 00 00 00 00 00
 (1652821897.080637)  can0  1E5   [8]  1C 00 81 30 00 00 01 09
 (1652821897.084762)  can0  014   [5]  2B C0 02 10 27
 (1652821897.086263)  can0  012   [8]  E8 03 10 00 00 00 00 00
 (1652821897.090638)  can0  1E5   [8]  1C 00 81 50 00 00 01 29
 (1652821897.094763)  can0  014   [5]  2C D0 02 10 27
 (1652821897.096138)  can0  012   [8]  E8 03 10 00 00 00 00 00
 (1652821897.100639)  can0  1E5   [8]  1C 00 81 70 00 00 01 49
 (1652821897.104138)  can0  010   [4]  32 86 08 01
 (1652821897.104717)  can0  014   [5]  2C E0 02 19 27
 (1652821897.106263)  can0  012   [8]  E8 03 10 00 00 00 00 00
 (1652821897.110638)  can0  1E5   [8]  1C 00 81 10 00 00 00 E9
 (1652821897.114762)  can0  014   [5]  30 D0 02 07 27
 (1652821897.116138)  can0  012   [8]  E8 03 10 00 00 00 00 00
 (1652821897.120638)  can0  1E5   [8]  1C 00 81 30 00 00 01 09
 (1652821897.124763)  can0  014   [5]  30 E0 02 14 27
 (1652821897.126139)  can0  012   [8]  E8 03 10 00 00 00 00 00
 (1652821897.130639)  can0  1E5   [8]  1C 00 81 50 00 00 01 29
 (1652821897.134764)  can0  014   [5]  30 10 03 0C 27
 (1652821897.136139)  can0  012   [8]  E8 03 10 00 00 00 00 00
 (1652821897.140638)  can0  1E5   [8]  1C 00 81 70 00 00 01 49
 (1652821897.144764)  can0  014   [5]  32 20 03 10 27
 (1652821897.146139)  can0  012   [8]  E8 03 10 00 00 00 00 00
 (1652821897.150638)  can0  1E5   [8]  1C 00 81 10 00 00 00 E9
 (1652821897.154761)  can0  014   [5]  32 40 03 10 27
 (1652821897.156120)  can0  012   [8]  E8 03 10 00 00 00 00 00
 (1652821897.160637)  can0  1E5   [8]  1C 00 81 30 00 00 01 09
 (1652821897.164761)  can0  014   [5]  34 50 03 10 27
 (1652821897.166139)  can0  012   [8]  E8 03 10 00 00 00 00 00
 (1652821897.170593)  can0  1E5   [8]  1C 00 81 50 00 00 01 29
 (1652821897.174764)  can0  014   [5]  34 60 03 10 27
 (1652821897.176120)  can0  012   [8]  E8 03 10 00 00 00 00 00
 (1652821897.180640)  can0  1E5   [8]  1C 00 81 70 00 00 01 49
 (1652821897.184764)  can0  014   [5]  36 80 03 13 27
 (1652821897.186141)  can0  012   [8]  E8 03 10 00 00 00 00 00
 (1652821897.190639)  can0  1E5   [8]  1C 00 81 10 00 00 00 E9
 (1652821897.194765)  can0  014   [5]  37 80 03 0D 27
 (1652821897.196139)  can0  012   [8]  E8 03 10 00 00 00 00 00
 (1652821897.200611)  can0  1E5   [8]  1C 00 81 30 00 00 01 09
 (1652821897.204140)  can0  010   [4]  32 86 08 01
 (1652821897.204763)  can0  014   [5]  38 A0 03 18 27
 (1652821897.206140)  can0  012   [8]  E8 03 10 00 00 00 00 00
 (1652821897.210640)  can0  1E5   [8]  1C 00 81 50 00 00 01 29
 (1652821897.214764)  can0  014   [5]  38 A0 03 08 27
 (1652821897.216141)  can0  012   [8]  E8 03 10 00 00 00 00 00
 (1652821897.220640)  can0  1E5   [8]  1C 00 81 70 00 00 01 49
 (1652821897.224765)  can0  014   [5]  3E C0 03 11 27
 (1652821897.226141)  can0  012   [8]  E8 03 10 00 00 00 00 00
 (1652821897.230641)  can0  1E5   [8]  1C 00 81 10 00 00 00 E9
 (1652821897.234766)  can0  014   [5]  3D C0 03 0F 27
 (1652821897.236094)  can0  012   [8]  E8 03 10 00 00 00 00 00
 (1652821897.240642)  can0  1E5   [8]  1C 00 81 30 00 00 01 09
 (1652821897.244765)  can0  014   [5]  3B D0 03 10 27
 (1652821897.246142)  can0  012   [8]  E8 03 10 00 00 00 00 00
 (1652821897.250639)  can0  1E5   [8]  1C 00 81 50 00 00 01 29
 (1652821897.254765)  can0  014   [5]  3E F0 03 11 27
 (1652821897.256121)  can0  012   [8]  E8 03 10 00 00 00 00 00
 (1652821897.260639)  can0  1E5   [8]  1C 00 81 70 00 00 01 49
 (1652821897.264764)  can0  014   [5]  41 00 04 0F 27
 (1652821897.266141)  can0  012   [8]  E8 03 10 00 00 00 00 00
 (1652821897.270641)  can0  1E5   [8]  1C 00 81 10 00 00 00 E9
 (1652821897.274765)  can0  014   [5]  3F 20 04 10 27
 (1652821897.276140)  can0  012   [8]  E8 03 10 00 00 00 00 00
 (1652821897.280642)  can0  1E5   [8]  1C 00 81 30 00 00 01 09
 (1652821897.284767)  can0  014   [5]  47 30 04 13 27
 (1652821897.286142)  can0  012   [8]  E8 03 10 00 00 00 00 00
 (1652821897.290642)  can0  1E5   [8]  1C 00 81 50 00 00 01 29
 (1652821897.294767)  can0  014   [5]  43 40 04 0E 27
 (1652821897.296142)  can0  012   [8]  E8 03 10 00 00 00 00 00
 (1652821897.300613)  can0  1E5   [8]  1C 00 81 70 00 00 01 49
 (1652821897.304141)  can0  010   [4]  32 86 08 01
 (1652821897.304764)  can0  014   [5]  46 40 04 18 27
 (1652821897.306141)  can0  012   [8]  E8 03 10 00 00 00 00 00
 (1652821897.310630)  can0  1E5   [8]  1C 00 81 10 00 00 00 E9
 (1652821897.314765)  can0  014   [5]  45 60 04 0B 27
 (1652821897.316141)  can0  012   [8]  E8 03 10 00 00 00 00 00
 (1652821897.320643)  can0  1E5   [8]  1C 00 81 30 00 00 01 09
 (1652821897.324768)  can0  014   [5]  48 60 04 0F 27
 (1652821897.326142)  can0  012   [8]  E8 03 10 00 00 00 00 00
 (1652821897.330643)  can0  1E5   [8]  1C 00 81 50 00 00 01 29
 (1652821897.334721)  can0  014   [5]  48 80 04 0D 27
 (1652821897.336144)  can0  012   [8]  E8 03 10 00 00 00 00 00
 (1652821897.340644)  can0  1E5   [8]  1C 00 81 70 00 00 01 49
 (1652821897.344768)  can0  014   [5]  4A A0 04 14 27
 (1652821897.346142)  can0  012   [8]  E8 03 10 00 00 00 00 00
 (1652821897.350643)  can0  1E5   [8]  1C 00 81 10 00 00 00 E9
 (1652821897.354768)  can0  014   [5]  4B A0 04 0E 27
 (1652821897.356121)  can0  012   [8]  E8 03 10 00 00 00 00 00
 (1652821897.360642)  can0  1E5   [8]  1C 00 81 30 00 00 01 09
 (1652821897.364766)  can0  014   [5]  4C C0 04 0E 27
 (1652821897.366143)  can0  012   [8]  E8 03 10 00 00 00 00 00
 (1652821897.370666)  can0  1E5   [8]  1C 00 81 50 00 00 01 29
 (1652821897.374791)  can0  014   [5]  4E C0 04 13 27
 (1652821897.376166)  can0  012   [8]  E8 03 10 00 00 00 00 00
 (1652821897.380667)  can0  1E5   [8]  1C 00 81 70 00 00 01 49
 (1652821897.384641)  can0  014   [5]  49 F0 04 0E 27
 (1652821897.386143)  can0  012   [8]  E8 03 10 00 00 00 00 00
 (1652821897.390644)  can0  1E5   [8]  1C 00 81 10 00 00 00 E9
 (1652821897.394770)  can0  014   [5]  51 00 05 11 27
 (1652821897.396144)  can0  012   [8]  E8 03 10 00 00 00 00 00
 (1652821897.400622)  can0  1E5   [8]  1C 00 81 30 00 00 01 09
 (1652821897.404143)  can0  010   [4]  32 86 08 01
 (1652821897.404767)  can0  014   [5]  51 10 05 16 27
 (1652821897.406145)  can0  012   [8]  E8 03 10 00 00 00 00 00
 (1652821897.410643)  can0  1E5   [8]  1C 00 81 50 00 00 01 29
 (1652821897.414767)  can0  014   [5]  51 40 05 08 27
 (1652821897.416145)  can0  012   [8]  E8 03 10 00 00 00 00 00
 (1652821897.420645)  can0  1E5   [8]  1C 00 81 70 00 00 01 49
 (1652821897.424769)  can0  014   [5]  54 40 05 13 27
 (1652821897.426144)  can0  012   [8]  E8 03 10 00 00 00 00 00
 (1652821897.430645)  can0  1E5   [8]  1C 00 81 10 00 00 00 E9
 (1652821897.434644)  can0  014   [5]  54 50 05 11 27
 (1652821897.436145)  can0  012   [8]  E8 03 10 00 00 00 00 00
 (1652821897.440645)  can0  1E5   [8]  1C 00 81 30 00 00 01 09
 (1652821897.444770)  can0  014   [5]  57 60 05 10 27
 (1652821897.446145)  can0  012   [8]  E8 03 10 00 00 00 00 00
 (1652821897.450645)  can0  1E5   [8]  1C 00 81 50 00 00 01 29
 (1652821897.454768)  can0  014   [5]  56 70 05 0E 27
 (1652821897.456121)  can0  012   [8]  E8 03 10 00 00 00 00 00
 (1652821897.460644)  can0  1E5   [8]  1C 00 81 70 00 00 01 49
 (1652821897.464644)  can0  014   [5]  59 90 05 0F 27
 (1652821897.466099)  can0  012   [8]  E8 03 10 00 00 00 00 00
 (1652821897.470646)  can0  1E5   [8]  1C 00 81 10 00 00 00 E9
 (1652821897.474645)  can0  014   [5]  5B A0 05 10 27
 (1652821897.476145)  can0  012   [8]  E8 03 10 00 00 00 00 00
 (1652821897.480645)  can0  1E5   [8]  1C 00 81 30 00 00 01 09
 (1652821897.484770)  can0  014   [5]  5B A0 05 11 27
 (1652821897.486145)  can0  012   [8]  E8 03 10 00 00 00 00 00
 (1652821897.490646)  can0  1E5   [8]  1C 00 81 50 00 00 01 29
 (1652821897.494646)  can0  014   [5]  5D A0 05 14 27
 (1652821897.496144)  can0  012   [8]  E8 03 10 00 00 00 00 00
 (1652821897.500644)  can0  1E5   [8]  1C 00 81 70 00 00 01 49
 (1652821897.504122)  can0  010   [4]  32 86 08 01
 (1652821897.504769)  can0  014   [5]  5F A0 05 14 27
 (1652821897.506147)  can0  012   [8]  E8 03 10 00 00 00 00 00
 (1652821897.510646)  can0  1E5   [8]  1C 00 81 10 00 00 00 E9
 (1652821897.514769)  can0  014   [5]  5F E0 05 07 27
 (1652821897.516148)  can0  012   [8]  E8 03 10 00 00 00 00 00
 (1652821897.520646)  can0  1E5   [8]  1C 00 81 30 00 00 01 09
 (1652821897.524771)  can0  014   [5]  60 10 06 0F 27
 (1652821897.526147)  can0  012   [8]  E8 03 10 00 00 00 00 00
 (1652821897.530646)  can0  1E5   [8]  1C 00 81 50 00 00 01 29
 (1652821897.534647)  can0  014   [5]  61 20 06 10 27
 (1652821897.536146)  can0  012   [8]  E8 03 10 00 00 00 00 00
 (1652821897.540647)  can0  1E5   [8]  1C 00 81 70 00 00 01 49
 (1652821897.544647)  can0  014   [5]  62 30 06 14 27
 (1652821897.546147)  can0  012   [8]  E8 03 10 00 00 00 00 00
 (1652821897.550647)  can0  1E5   [8]  1C 00 81 10 00 00 00 E9
 (1652821897.554644)  can0  014   [5]  63 20 06 0C 27
 (1652821897.556121)  can0  012   [8]  E8 03 10 00 00 00 00 00
 (1652821897.560646)  can0  1E5   [8]  1C 00 81 30 00 00 01 09
 (1652821897.564727)  can0  014   [5]  6A 70 06 14 27
 (1652821897.566122)  can0  012   [8]  E8 03 10 00 00 00 00 00
 (1652821897.570647)  can0  1E5   [8]  1C 00 81 50 00 00 01 29
 (1652821897.574647)  can0  014   [5]  62 70 06 10 27
 (1652821897.576148)  can0  012   [8]  E8 03 10 00 00 00 00 00
 (1652821897.580648)  can0  1E5   [8]  1C 00 81 70 00 00 01 49
 (1652821897.584772)  can0  014   [5]  67 80 06 11 27
 (1652821897.586147)  can0  012   [8]  E8 03 10 00 00 00 00 00
 (1652821897.590648)  can0  1E5   [8]  1C 00 81 10 00 00 00 E9
 (1652821897.594772)  can0  014   [5]  6A 90 06 0F 27
 (1652821897.596147)  can0  012   [8]  E8 03 10 00 00 00 00 00
 (1652821897.600650)  can0  1E5   [8]  1C 00 81 30 00 00 01 09
 (1652821897.604149)  can0  010   [4]  32 86 08 01
 (1652821897.604771)  can0  014   [5]  6B A0 06 13 27
 (1652821897.606149)  can0  012   [8]  E8 03 10 00 00 00 00 00
 (1652821897.610648)  can0  1E5   [8]  1C 00 81 50 00 00 01 29
 (1652821897.614646)  can0  014   [5]  6C E0 06 0B 27
 (1652821897.616148)  can0  012   [8]  E8 03 10 00 00 00 00 00
 (1652821897.620649)  can0  1E5   [8]  1C 00 81 70 00 00 01 49
 (1652821897.624646)  can0  014   [5]  6C F0 06 0F 27
 (1652821897.626149)  can0  012   [8]  E8 03 10 00 00 00 00 00
 (1652821897.630647)  can0  1E5   [8]  1C 00 81 10 00 00 00 E9
 (1652821897.634648)  can0  014   [5]  6E 10 07 13 27
 (1652821897.636147)  can0  012   [8]  E8 03 10 00 00 00 00 00
 (1652821897.640649)  can0  1E5   [8]  1C 00 81 30 00 00 01 09
 (1652821897.644774)  can0  014   [5]  6E 10 07 11 27
 (1652821897.646148)  can0  012   [8]  E8 03 10 00 00 00 00 00
 (1652821897.650649)  can0  1E5   [8]  1C 00 81 50 00 00 01 29
 (1652821897.654661)  can0  014   [5]  75 20 07 0D 27
 (1652821897.656123)  can0  012   [8]  E8 03 10 00 00 00 00 00
 (1652821897.660648)  can0  1E5   [8]  1C 00 81 70 00 00 01 49
 (1652821897.664646)  can0  014   [5]  6C 30 07 0F 27
 (1652821897.666149)  can0  012   [8]  E8 03 10 00 00 00 00 00
 (1652821897.670650)  can0  1E5   [8]  1C 00 81 10 00 00 00 E9
 (1652821897.674774)  can0  014   [5]  76 60 07 14 27
 (1652821897.676151)  can0  012   [8]  E8 03 10 00 00 00 00 00
 (1652821897.680649)  can0  1E5   [8]  1C 00 81 30 00 00 01 09
 (1652821897.684649)  can0  014   [5]  73 80 07 0E 27
 (1652821897.686150)  can0  012   [8]  E8 03 10 00 00 00 00 00
 (1652821897.690650)  can0  1E5   [8]  1C 00 81 50 00 00 01 29
 (1652821897.694774)  can0  014   [5]  7A 80 07 10 27
 (1652821897.696126)  can0  012   [8]  E8 03 10 00 00 00 00 00
 (1652821897.700650)  can0  1E5   [8]  1C 00 81 70 00 00 01 49
 (1652821897.704150)  can0  010   [4]  32 86 08 01
 (1652821897.704649)  can0  014   [5]  77 A0 07 13 27
 (1652821897.706151)  can0  012   [8]  E8 03 10 00 00 00 00 00
 (1652821897.710650)  can0  1E5   [8]  1C 00 81 10 00 00 00 E9
 (1652821897.714649)  can0  014   [5]  7D B0 07 0F 27
 (1652821897.716151)  can0  012   [8]  E8 03 10 00 00 00 00 00
 (1652821897.720654)  can0  1E5   [8]  1C 00 81 30 00 00 01 09
 (1652821897.724652)  can0  014   [5]  7C B0 07 0F 27
 (1652821897.726151)  can0  012   [8]  E8 03 10 00 00 00 00 00
 (1652821897.726209)  can0  0E3   [2]  FA 00
 (1652821897.730652)  can0  1E5   [8]  1C 00 81 50 00 00 01 29
 (1652821897.734652)  can0  014   [5]  7C C0 07 0F 27
 (1652821897.736151)  can0  012   [8]  E8 03 10 00 00 00 00 00
 (1652821897.740651)  can0  1E5   [8]  1C 00 81 70 00 00 01 49
 (1652821897.744775)  can0  014   [5]  80 A0 07 11 27
 (1652821897.746150)  can0  012   [8]  E8 03 10 00 00 00 00 00
 (1652821897.750649)  can0  1E5   [8]  1C 00 81 10 00 00 00 E9
 (1652821897.754641)  can0  014   [5]  7B F0 07 0D 27
 (1652821897.756140)  can0  012   [8]  E8 03 10 00 00 00 00 00
 (1652821897.760670)  can0  1E5   [8]  1C 00 81 30 00 00 01 09
 (1652821897.764649)  can0  014   [5]  81 10 08 11 27
 (1652821897.766151)  can0  012   [8]  E8 03 10 00 00 00 00 00
 (1652821897.770652)  can0  1E5   [8]  1C 00 81 50 00 00 01 29
 (1652821897.774650)  can0  014   [5]  82 30 08 11 27
 (1652821897.776152)  can0  012   [8]  E8 03 10 00 00 00 00 00
 (1652821897.780651)  can0  1E5   [8]  1C 00 81 70 00 00 01 49
 (1652821897.784652)  can0  014   [5]  84 60 08 0D 27
 (1652821897.786152)  can0  012   [8]  E8 03 10 00 00 00 00 00
 (1652821897.790651)  can0  1E5   [8]  1C 00 81 10 00 00 00 E9
 (1652821897.794653)  can0  014   [5]  88 70 08 13 27
 (1652821897.796152)  can0  012   [8]  E8 03 10 00 00 00 00 00
 (1652821897.800652)  can0  1E5   [8]  1C 00 81 30 00 00 01 09
 (1652821897.804153)  can0  010   [4]  32 86 08 01
 (1652821897.804156)  can0  0E2   [2]  72 01
 (1652821897.804775)  can0  014   [5]  86 80 08 1E 27
 (1652821897.804778)  can0  0E4   [2]  72 01
 (1652821897.806152)  can0  012   [8]  E8 03 10 00 00 00 00 00
 (1652821897.810652)  can0  1E5   [8]  1C 00 81 50 00 00 01 29
 (1652821897.814650)  can0  014   [5]  88 80 08 04 27
 (1652821897.816116)  can0  012   [8]  E8 03 10 00 00 00 00 00
 (1652821897.820654)  can0  1E5   [8]  1C 00 81 70 00 00 01 49
 (1652821897.824652)  can0  014   [5]  88 A0 08 0F 27
 (1652821897.826152)  can0  012   [8]  E8 03 10 00 00 00 00 00
 (1652821897.830654)  can0  1E5   [8]  1C 00 81 10 00 00 00 E9
 (1652821897.834651)  can0  014   [5]  8E 90 08 10 27
 (1652821897.836153)  can0  012   [8]  E8 03 10 00 00 00 00 00
 (1652821897.840652)  can0  1E5   [8]  1C 00 81 30 00 00 01 09
 (1652821897.844776)  can0  014   [5]  88 C0 08 0D 27
 (1652821897.846153)  can0  012   [8]  E8 03 10 00 00 00 00 00
 (1652821897.850653)  can0  1E5   [8]  1C 00 81 50 00 00 01 29
 (1652821897.854653)  can0  014   [5]  8F E0 08 13 27
 (1652821897.856124)  can0  012   [8]  E8 03 10 00 00 00 00 00
 (1652821897.860608)  can0  1E5   [8]  1C 00 81 70 00 00 01 49
 (1652821897.864651)  can0  014   [5]  8A E0 08 10 27
 (1652821897.866153)  can0  012   [8]  E8 03 10 00 00 00 00 00
 (1652821897.870654)  can0  1E5   [8]  1C 00 81 10 00 00 00 E9
 (1652821897.874654)  can0  014   [5]  8E F0 08 11 27
 (1652821897.876153)  can0  012   [8]  E8 03 10 00 00 00 00 00
 (1652821897.880654)  can0  1E5   [8]  1C 00 81 30 00 00 01 09
 (1652821897.884653)  can0  014   [5]  93 10 09 0B 27
 (1652821897.886155)  can0  012   [8]  E8 03 10 00 00 00 00 00
 (1652821897.890653)  can0  1E5   [8]  1C 00 81 50 00 00 01 29
 (1652821897.894779)  can0  014   [5]  92 40 09 15 27
 (1652821897.896155)  can0  012   [8]  E8 03 10 00 00 00 00 00
 (1652821897.900653)  can0  1E5   [8]  1C 00 81 70 00 00 01 49
 (1652821897.904154)  can0  010   [4]  32 86 08 01
 (1652821897.904651)  can0  014   [5]  93 40 09 14 27
 (1652821897.906155)  can0  012   [8]  E8 03 10 00 00 00 00 00
 (1652821897.910652)  can0  1E5   [8]  1C 00 81 10 00 00 00 E9
 (1652821897.914653)  can0  014   [5]  95 50 09 09 27
 (1652821897.916154)  can0  012   [8]  E8 03 10 00 00 00 00 00
 (1652821897.920654)  can0  1E5   [8]  1C 00 81 30 00 00 01 09
 (1652821897.924655)  can0  014   [5]  9B 60 09 12 27
 (1652821897.926155)  can0  012   [8]  E8 03 10 00 00 00 00 00
 (1652821897.930655)  can0  1E5   [8]  1C 00 81 50 00 00 01 29
 (1652821897.934751)  can0  014   [5]  95 30 09 10 27
 (1652821897.936155)  can0  012   [8]  E8 03 10 00 00 00 00 00
 (1652821897.940655)  can0  1E5   [8]  1C 00 81 70 00 00 01 49
 (1652821897.944652)  can0  014   [5]  9C 90 09 0C 27
 (1652821897.946157)  can0  012   [8]  E8 03 10 00 00 00 00 00
 (1652821897.950654)  can0  1E5   [8]  1C 00 81 10 00 00 00 E9
 (1652821897.954655)  can0  014   [5]  98 D0 09 14 27
 (1652821897.956125)  can0  012   [8]  E8 03 10 00 00 00 00 00
 (1652821897.960654)  can0  1E5   [8]  1C 00 81 30 00 00 01 09
 (1652821897.964653)  can0  014   [5]  A0 F0 09 0B 27
 (1652821897.966155)  can0  012   [8]  E8 03 10 00 00 00 00 00
 (1652821897.970655)  can0  1E5   [8]  1C 00 81 50 00 00 01 29
 (1652821897.974780)  can0  014   [5]  9C 00 0A 18 27
 (1652821897.976155)  can0  012   [8]  E8 03 10 00 00 00 00 00
 (1652821897.980656)  can0  1E5   [8]  1C 00 81 70 00 00 01 49
 (1652821897.984655)  can0  014   [5]  A8 E0 09 10 27
 (1652821897.986156)  can0  012   [8]  E8 03 10 00 00 00 00 00
 (1652821897.990655)  can0  1E5   [8]  1C 00 81 10 00 00 00 E9
 (1652821897.994653)  can0  014   [5]  9E 10 0A 0B 27
 (1652821897.996156)  can0  012   [8]  E8 03 10 00 00 00 00 00
 (1652821898.000655)  can0  1E5   [8]  1C 00 81 30 00 00 01 09
 (1652821898.004123)  can0  010   [4]  32 86 08 01
 (1652821898.004654)  can0  014   [5]  A1 20 0A 1A 27
 (1652821898.006157)  can0  012   [8]  E8 03 10 00 00 00 00 00
 (1652821898.010655)  can0  1E5   [8]  1C 00 81 50 00 00 01 29
 (1652821898.014654)  can0  014   [5]  A7 40 0A 06 27
 (1652821898.016155)  can0  012   [8]  E8 03 10 00 00 00 00 00
 (1652821898.020657)  can0  1E5   [8]  1C 00 81 70 00 00 01 49
 (1652821898.024657)  can0  014   [5]  9E 60 0A 0F 27
 (1652821898.026125)  can0  012   [8]  E8 03 10 00 00 00 00 00
 (1652821898.030655)  can0  1E5   [8]  1C 00 81 10 00 00 00 E9
 (1652821898.034655)  can0  014   [5]  AC 80 0A 12 27
 (1652821898.036156)  can0  012   [8]  E8 03 10 00 00 00 00 00
 (1652821898.040657)  can0  1E5   [8]  1C 00 81 30 00 00 01 09
 (1652821898.044656)  can0  014   [5]  A5 90 0A 10 27
 (1652821898.046157)  can0  012   [8]  E8 03 10 00 00 00 00 00
 (1652821898.050657)  can0  1E5   [8]  1C 00 81 50 00 00 01 29
 (1652821898.054656)  can0  014   [5]  A3 D0 0A 0D 27
 (1652821898.056112)  can0  012   [8]  E8 03 10 00 00 00 00 00
 (1652821898.060655)  can0  1E5   [8]  1C 00 81 70 00 00 01 49
 (1652821898.064655)  can0  014   [5]  AC C0 0A 11 27
 (1652821898.066156)  can0  012   [8]  E8 03 10 00 00 00 00 00
 (1652821898.070657)  can0  1E5   [8]  1C 00 81 10 00 00 00 E9
 (1652821898.074655)  can0  014   [5]  AB 00 0B 0F 27
 (1652821898.076157)  can0  012   [8]  E8 03 10 00 00 00 00 00
 (1652821898.080658)  can0  1E5   [8]  1C 00 81 30 00 00 01 09
 (1652821898.084657)  can0  014   [5]  AE 00 0B 16 27
 (1652821898.086157)  can0  012   [8]  E8 03 10 00 00 00 00 00
 (1652821898.090612)  can0  1E5   [8]  1C 00 81 50 00 00 01 29
 (1652821898.094658)  can0  014   [5]  B1 B0 0A 0D 27
 (1652821898.096159)  can0  012   [8]  E8 03 10 00 00 00 00 00
 (1652821898.100658)  can0  1E5   [8]  1C 00 81 70 00 00 01 49
 (1652821898.104158)  can0  010   [4]  32 86 08 01
 (1652821898.104780)  can0  014   [5]  B1 F0 0A 1A 27
 (1652821898.106157)  can0  012   [8]  E8 03 10 00 00 00 00 00
 (1652821898.110658)  can0  1E5   [8]  1C 00 81 10 00 00 00 E9
 (1652821898.114656)  can0  014   [5]  B1 20 0B 04 27
 (1652821898.116157)  can0  012   [8]  E8 03 10 00 00 00 00 00
 (1652821898.120658)  can0  1E5   [8]  1C 00 81 30 00 00 01 09
 (1652821898.124658)  can0  014   [5]  B3 30 0B 14 27
 (1652821898.126159)  can0  012   [8]  E8 03 10 00 00 00 00 00
 (1652821898.130658)  can0  1E5   [8]  1C 00 81 50 00 00 01 29
 (1652821898.134658)  can0  014   [5]  B5 60 0B 10 27
 (1652821898.136159)  can0  012   [8]  E8 03 10 00 00 00 00 00
 (1652821898.140657)  can0  1E5   [8]  1C 00 81 70 00 00 01 49
 (1652821898.144659)  can0  014   [5]  B3 50 0B 0C 27
 (1652821898.146158)  can0  012   [8]  E8 03 10 00 00 00 00 00
 (1652821898.150662)  can0  1E5   [8]  1C 00 81 10 00 00 00 E9
 (1652821898.154661)  can0  014   [5]  B7 60 0B 11 27
 (1652821898.156113)  can0  012   [8]  E8 03 10 00 00 00 00 00
 (1652821898.160659)  can0  1E5   [8]  1C 00 81 30 00 00 01 09
 (1652821898.164657)  can0  014   [5]  B9 90 0B 13 27
 (1652821898.166125)  can0  012   [8]  E8 03 10 00 00 00 00 00
 (1652821898.170658)  can0  1E5   [8]  1C 00 81 50 00 00 01 29
 (1652821898.174659)  can0  014   [5]  B6 B0 0B 0F 27
 (1652821898.176159)  can0  012   [8]  E8 03 10 00 00 00 00 00
 (1652821898.180659)  can0  1E5   [8]  1C 00 81 70 00 00 01 49
 (1652821898.184660)  can0  014   [5]  BA A0 0B 0C 27
 (1652821898.186159)  can0  012   [8]  E8 03 10 00 00 00 00 00
 (1652821898.190660)  can0  1E5   [8]  1C 00 81 10 00 00 00 E9
 (1652821898.194660)  can0  014   [5]  BA D0 0B 17 27
 (1652821898.196160)  can0  012   [8]  E8 03 10 00 00 00 00 00
 (1652821898.200659)  can0  1E5   [8]  1C 00 81 30 00 00 01 09
 (1652821898.204160)  can0  010   [4]  32 86 08 01
 (1652821898.204657)  can0  014   [5]  BB B0 0B 12 27
 (1652821898.206159)  can0  012   [8]  E8 03 10 00 00 00 00 00
 (1652821898.210661)  can0  1E5   [8]  1C 00 81 50 00 00 01 29
 (1652821898.214658)  can0  014   [5]  C4 D0 0B 0D 27
 (1652821898.216126)  can0  012   [8]  E8 03 10 00 00 00 00 00
 (1652821898.220660)  can0  1E5   [8]  1C 00 81 70 00 00 01 49
 (1652821898.224660)  can0  014   [5]  B9 E0 0B 0D 27
 (1652821898.226160)  can0  012   [8]  E8 03 10 00 00 00 00 00
 (1652821898.230661)  can0  1E5   [8]  1C 00 81 10 00 00 00 E9
 (1652821898.234661)  can0  014   [5]  C2 E0 0B 12 27
 (1652821898.236162)  can0  012   [8]  E8 03 10 00 00 00 00 00
 (1652821898.240660)  can0  1E5   [8]  1C 00 81 30 00 00 01 09
 (1652821898.244601)  can0  014   [5]  C1 C0 0B 0F 27
 (1652821898.246161)  can0  012   [8]  E8 03 10 00 00 00 00 00
 (1652821898.250660)  can0  1E5   [8]  1C 00 81 50 00 00 01 29
 (1652821898.254741)  can0  014   [5]  C6 F0 0B 11 27
 (1652821898.256138)  can0  012   [8]  E8 03 10 00 00 00 00 00
 (1652821898.260659)  can0  1E5   [8]  1C 00 81 70 00 00 01 49
 (1652821898.264658)  can0  014   [5]  C2 40 0C 14 27
 (1652821898.266162)  can0  012   [8]  E8 03 10 00 00 00 00 00
 (1652821898.270661)  can0  1E5   [8]  1C 00 81 10 00 00 00 E9
 (1652821898.274662)  can0  014   [5]  C4 40 0C 0C 27
 (1652821898.276162)  can0  012   [8]  E8 03 10 00 00 00 00 00
 (1652821898.280661)  can0  1E5   [8]  1C 00 81 30 00 00 01 09
 (1652821898.284662)  can0  014   [5]  C1 70 0C 0E 27
 (1652821898.286161)  can0  012   [8]  E8 03 10 00 00 00 00 00
 (1652821898.290662)  can0  1E5   [8]  1C 00 81 50 00 00 01 29
 (1652821898.294662)  can0  014   [5]  C5 50 0C 10 27
 (1652821898.296162)  can0  012   [8]  E8 03 10 00 00 00 00 00
 (1652821898.300662)  can0  1E5   [8]  1C 00 81 70 00 00 01 49
 (1652821898.304128)  can0  010   [4]  32 86 08 01
 (1652821898.304659)  can0  014   [5]  C6 50 0C 18 27
 (1652821898.306163)  can0  012   [8]  E8 03 10 00 00 00 00 00
 (1652821898.310663)  can0  1E5   [8]  1C 00 81 10 00 00 00 E9
 (1652821898.314660)  can0  014   [5]  C3 70 0C 0A 27
 (1652821898.316163)  can0  012   [8]  E8 03 10 00 00 00 00 00
 (1652821898.320636)  can0  1E5   [8]  1C 00 81 30 00 00 01 09
 (1652821898.324662)  can0  014   [5]  CB 90 0C 0F 27
 (1652821898.326163)  can0  012   [8]  E8 03 10 00 00 00 00 00
 (1652821898.330663)  can0  1E5   [8]  1C 00 81 50 00 00 01 29
 (1652821898.334663)  can0  014   [5]  C5 90 0C 13 27
 (1652821898.336162)  can0  012   [8]  E8 03 10 00 00 00 00 00
 (1652821898.340662)  can0  1E5   [8]  1C 00 81 70 00 00 01 49
 (1652821898.344663)  can0  014   [5]  C5 B0 0C 10 27
 (1652821898.346162)  can0  012   [8]  E8 03 10 00 00 00 00 00
 (1652821898.350662)  can0  1E5   [8]  1C 00 81 10 00 00 00 E9
 (1652821898.354662)  can0  014   [5]  CA B0 0C 0A 27
 (1652821898.356164)  can0  012   [8]  E8 03 10 00 00 00 00 00
 (1652821898.360662)  can0  1E5   [8]  1C 00 81 30 00 00 01 09
 (1652821898.364661)  can0  014   [5]  CA D0 0C 11 27
 (1652821898.366126)  can0  012   [8]  E8 03 10 00 00 00 00 00
 (1652821898.370661)  can0  1E5   [8]  1C 00 81 50 00 00 01 29
 (1652821898.374663)  can0  014   [5]  CB C0 0C 16 27
 (1652821898.376166)  can0  012   [8]  E8 03 10 00 00 00 00 00
 (1652821898.380664)  can0  1E5   [8]  1C 00 81 70 00 00 01 49
 (1652821898.384664)  can0  014   [5]  CB E0 0C 0F 27
 (1652821898.386120)  can0  012   [8]  E8 03 10 00 00 00 00 00
 (1652821898.390664)  can0  1E5   [8]  1C 00 81 10 00 00 00 E9
 (1652821898.394663)  can0  014   [5]  D0 F0 0C 10 27
 (1652821898.396164)  can0  012   [8]  E8 03 10 00 00 00 00 00
 (1652821898.400663)  can0  1E5   [8]  1C 00 81 30 00 00 01 09
 (1652821898.404165)  can0  010   [4]  32 86 08 01
 (1652821898.404662)  can0  014   [5]  D2 10 0D 11 27
 (1652821898.406164)  can0  012   [8]  E8 03 10 00 00 00 00 00
 (1652821898.410664)  can0  1E5   [8]  1C 00 81 50 00 00 01 29
 (1652821898.414661)  can0  014   [5]  CF F0 0C 0E 27
 (1652821898.416164)  can0  012   [8]  E8 03 10 00 00 00 00 00
 (1652821898.420664)  can0  1E5   [8]  1C 00 81 70 00 00 01 49
 (1652821898.424664)  can0  014   [5]  CE 00 0D 0E 27
 (1652821898.426165)  can0  012   [8]  E8 03 10 00 00 00 00 00
 (1652821898.430663)  can0  1E5   [8]  1C 00 81 10 00 00 00 E9
 (1652821898.434664)  can0  014   [5]  D0 F0 0C 13 27
 (1652821898.436164)  can0  012   [8]  E8 03 10 00 00 00 00 00
 (1652821898.440665)  can0  1E5   [8]  1C 00 81 30 00 00 01 09
 (1652821898.444666)  can0  014   [5]  D5 10 0D 0A 27
 (1652821898.446165)  can0  012   [8]  E8 03 10 00 00 00 00 00
 (1652821898.450665)  can0  1E5   [8]  1C 00 81 50 00 00 01 29
 (1652821898.454666)  can0  014   [5]  CE 20 0D 12 27
 (1652821898.456124)  can0  012   [8]  E8 03 10 00 00 00 00 00
 (1652821898.460664)  can0  1E5   [8]  1C 00 81 70 00 00 01 49
 (1652821898.464663)  can0  014   [5]  D5 40 0D 14 27
 (1652821898.466166)  can0  012   [8]  E8 03 10 00 00 00 00 00
 (1652821898.470666)  can0  1E5   [8]  1C 00 81 10 00 00 00 E9
 (1652821898.474665)  can0  014   [5]  D3 60 0D 0F 27
 (1652821898.476167)  can0  012   [8]  E8 03 10 00 00 00 00 00
 (1652821898.480665)  can0  1E5   [8]  1C 00 81 30 00 00 01 09
 (1652821898.484620)  can0  014   [5]  D6 60 0D 0F 27
 (1652821898.486167)  can0  012   [8]  E8 03 10 00 00 00 00 00
 (1652821898.490666)  can0  1E5   [8]  1C 00 81 50 00 00 01 29
 (1652821898.494667)  can0  014   [5]  D4 50 0D 11 27
 (1652821898.496165)  can0  012   [8]  E8 03 10 00 00 00 00 00
 (1652821898.500664)  can0  1E5   [8]  1C 00 81 70 00 00 01 49
 (1652821898.504124)  can0  010   [4]  32 86 08 01
 (1652821898.504664)  can0  014   [5]  D7 F0 0C 16 27
 (1652821898.506166)  can0  012   [8]  E8 03 10 00 00 00 00 00
 (1652821898.510666)  can0  1E5   [8]  1C 00 81 10 00 00 00 E9
 (1652821898.514664)  can0  014   [5]  D7 40 0D 0A 27
 (1652821898.516166)  can0  012   [8]  E8 03 10 00 00 00 00 00
 (1652821898.520686)  can0  1E5   [8]  1C 00 81 30 00 00 01 09
 (1652821898.524688)  can0  014   [5]  D5 60 0D 11 27
 (1652821898.526190)  can0  012   [8]  E8 03 10 00 00 00 00 00
 (1652821898.530689)  can0  1E5   [8]  1C 00 81 50 00 00 01 29
 (1652821898.534667)  can0  014   [5]  D4 50 0D 0F 27
 (1652821898.536167)  can0  012   [8]  E8 03 10 00 00 00 00 00
 (1652821898.540668)  can0  1E5   [8]  1C 00 81 70 00 00 01 49
 (1652821898.544668)  can0  014   [5]  D8 80 0D 0F 27
 (1652821898.546166)  can0  012   [8]  E8 03 10 00 00 00 00 00
 (1652821898.550665)  can0  1E5   [8]  1C 00 81 10 00 00 00 E9
 (1652821898.554667)  can0  014   [5]  D6 80 0D 0E 27
 (1652821898.556168)  can0  012   [8]  E8 03 10 00 00 00 00 00
 (1652821898.560666)  can0  1E5   [8]  1C 00 81 30 00 00 01 09
 (1652821898.564665)  can0  014   [5]  D8 C0 0D 12 27
 (1652821898.566166)  can0  012   [8]  E8 03 10 00 00 00 00 00
 (1652821898.570673)  can0  1E5   [8]  1C 00 81 50 00 00 01 29
 (1652821898.574668)  can0  014   [5]  DB E0 0D 0D 27
 (1652821898.576168)  can0  012   [8]  E8 03 10 00 00 00 00 00
 (1652821898.580669)  can0  1E5   [8]  1C 00 81 70 00 00 01 49
 (1652821898.584666)  can0  014   [5]  D7 D0 0D 13 27
 (1652821898.586168)  can0  012   [8]  E8 03 10 00 00 00 00 00
 (1652821898.590670)  can0  1E5   [8]  1C 00 81 10 00 00 00 E9
 (1652821898.594670)  can0  014   [5]  DD E0 0D 10 27
 (1652821898.596169)  can0  012   [8]  E8 03 10 00 00 00 00 00
 (1652821898.600671)  can0  1E5   [8]  1C 00 81 30 00 00 01 09
 (1652821898.604168)  can0  010   [4]  32 86 08 01
 (1652821898.604666)  can0  014   [5]  DB E0 0D 15 27
 (1652821898.606168)  can0  012   [8]  E8 03 10 00 00 00 00 00
 (1652821898.610668)  can0  1E5   [8]  1C 00 81 50 00 00 01 29
 (1652821898.614666)  can0  014   [5]  DF C0 0D 0B 27
 (1652821898.616140)  can0  012   [8]  E8 03 10 00 00 00 00 00
 (1652821898.620669)  can0  1E5   [8]  1C 00 7F 70 00 00 01 47
 (1652821898.624669)  can0  014   [5]  DC C0 0D 10 27
 (1652821898.626169)  can0  012   [8]  E8 03 10 00 00 00 00 00
 (1652821898.630669)  can0  1E5   [8]  1C 00 81 10 00 00 00 E9
 (1652821898.634668)  can0  014   [5]  DC D0 0D 12 27
 (1652821898.636169)  can0  012   [8]  E8 03 10 00 00 00 00 00
 (1652821898.640669)  can0  1E5   [8]  1C 00 81 30 00 00 01 09
 (1652821898.644669)  can0  014   [5]  E2 F0 0D 0E 27
 (1652821898.646169)  can0  012   [8]  E8 03 10 00 00 00 00 00
 (1652821898.650669)  can0  1E5   [8]  1C 00 81 50 00 00 01 29
 (1652821898.654669)  can0  014   [5]  D9 20 0E 11 27
 (1652821898.656169)  can0  012   [8]  E8 03 10 00 00 00 00 00
 (1652821898.660667)  can0  1E5   [8]  1C 00 81 70 00 00 01 49
 (1652821898.664668)  can0  014   [5]  E0 20 0E 11 27
 (1652821898.666169)  can0  012   [8]  E8 03 10 00 00 00 00 00
 (1652821898.670670)  can0  1E5   [8]  1C 00 81 10 00 00 00 E9
 (1652821898.674670)  can0  014   [5]  E8 20 0E 0E 27
 (1652821898.676170)  can0  012   [8]  E8 03 10 00 00 00 00 00
 (1652821898.680670)  can0  1E5   [8]  1C 00 81 30 00 00 01 09
 (1652821898.684670)  can0  014   [5]  E1 00 0E 14 27
 (1652821898.686170)  can0  012   [8]  E8 03 10 00 00 00 00 00
 (1652821898.690669)  can0  1E5   [8]  1C 00 81 50 00 00 01 29
 (1652821898.694670)  can0  014   [5]  DF 10 0E 0C 27
 (1652821898.696170)  can0  012   [8]  E8 03 10 00 00 00 00 00
 (1652821898.700671)  can0  1E5   [8]  1C 00 81 70 00 00 01 49
 (1652821898.704170)  can0  010   [4]  32 86 08 01
 (1652821898.704668)  can0  014   [5]  DF 10 0E 16 27
 (1652821898.706170)  can0  012   [8]  E8 03 10 00 00 00 00 00
 (1652821898.710671)  can0  1E5   [8]  1C 00 81 10 00 00 00 E9
 (1652821898.714646)  can0  014   [5]  E4 20 0E 0B 27
 (1652821898.716169)  can0  012   [8]  E8 03 10 00 00 00 00 00
 (1652821898.720670)  can0  1E5   [8]  1C 00 81 30 00 00 01 09
 (1652821898.724671)  can0  014   [5]  DE 30 0E 0F 27
 (1652821898.726170)  can0  012   [8]  E8 03 10 00 00 00 00 00
 (1652821898.726230)  can0  0E3   [2]  22 01
 (1652821898.730625)  can0  1E5   [8]  1C 00 81 50 00 00 01 29
 (1652821898.734670)  can0  014   [5]  E6 30 0E 15 27
 (1652821898.736171)  can0  012   [8]  E8 03 10 00 00 00 00 00
 (1652821898.740669)  can0  1E5   [8]  1C 00 81 70 00 00 01 49
 (1652821898.744671)  can0  014   [5]  E2 F0 0D 0C 27
 (1652821898.746170)  can0  012   [8]  E8 03 10 00 00 00 00 00
 (1652821898.750669)  can0  1E5   [8]  1C 00 81 10 00 00 00 E9
 (1652821898.754671)  can0  014   [5]  E9 40 0E 0F 27
 (1652821898.756171)  can0  012   [8]  E8 03 10 00 00 00 00 00
 (1652821898.760669)  can0  1E5   [8]  1C 00 81 30 00 00 01 09
 (1652821898.764669)  can0  014   [5]  E1 60 0E 13 27
 (1652821898.766125)  can0  012   [8]  E8 03 10 00 00 00 00 00
 (1652821898.770670)  can0  1E5   [8]  1C 00 81 50 00 00 01 29
 (1652821898.774673)  can0  014   [5]  E5 50 0E 0F 27
 (1652821898.776125)  can0  012   [8]  E8 03 10 00 00 00 00 00
 (1652821898.780659)  can0  1E5   [8]  1C 00 81 70 00 00 01 49
 (1652821898.784671)  can0  014   [5]  EE 40 0E 10 27
 (1652821898.786173)  can0  012   [8]  E8 03 10 00 00 00 00 00
 (1652821898.790672)  can0  1E5   [8]  1C 00 81 10 00 00 00 E9
 (1652821898.794671)  can0  014   [5]  E2 70 0E 0E 27
 (1652821898.796173)  can0  012   [8]  E8 03 10 00 00 00 00 00
 (1652821898.800671)  can0  1E5   [8]  1C 00 81 30 00 00 01 09
 (1652821898.804173)  can0  010   [4]  32 86 08 01
 (1652821898.804176)  can0  0E2   [2]  9A 01
 (1652821898.804671)  can0  014   [5]  E0 80 0E 1D 27
 (1652821898.804930)  can0  0E4   [2]  9A 01
 (1652821898.806174)  can0  012   [8]  E8 03 10 00 00 00 00 00
 (1652821898.810672)  can0  1E5   [8]  1C 00 81 50 00 00 01 29
 (1652821898.814670)  can0  014   [5]  E8 70 0E 01 27
 (1652821898.816172)  can0  012   [8]  E8 03 10 00 00 00 00 00
 (1652821898.820674)  can0  1E5   [8]  1C 00 81 70 00 00 01 49
 (1652821898.824673)  can0  014   [5]  E5 B0 0E 14 27
 (1652821898.826173)  can0  012   [8]  E8 03 10 00 00 00 00 00
 (1652821898.830672)  can0  1E5   [8]  1C 00 81 10 00 00 00 E9
 (1652821898.834672)  can0  014   [5]  E9 B0 0E 0B 27
 (1652821898.836173)  can0  012   [8]  E8 03 10 00 00 00 00 00
 (1652821898.840673)  can0  1E5   [8]  1C 00 81 30 00 00 01 09
 (1652821898.844673)  can0  014   [5]  EC C0 0E 15 27
 (1652821898.846155)  can0  012   [8]  E8 03 10 00 00 00 00 00
 (1652821898.850673)  can0  1E5   [8]  1C 00 81 50 00 00 01 29
 (1652821898.854674)  can0  014   [5]  E4 A0 0E 10 27
 (1652821898.856173)  can0  012   [8]  E8 03 10 00 00 00 00 00
 (1652821898.860671)  can0  1E5   [8]  1C 00 81 70 00 00 01 49
 (1652821898.864670)  can0  014   [5]  EB 50 0E 10 27
 (1652821898.866173)  can0  012   [8]  E8 03 10 00 00 00 00 00
 (1652821898.870674)  can0  1E5   [8]  1C 00 81 10 00 00 00 E9
 (1652821898.874674)  can0  014   [5]  EA B0 0E 11 27
 (1652821898.876173)  can0  012   [8]  E8 03 10 00 00 00 00 00
 (1652821898.880674)  can0  1E5   [8]  1C 00 81 30 00 00 01 09
 (1652821898.884674)  can0  014   [5]  EC C0 0E 0E 27
 (1652821898.886174)  can0  012   [8]  E8 03 10 00 00 00 00 00
 (1652821898.890674)  can0  1E5   [8]  1C 00 81 50 00 00 01 29
 (1652821898.894674)  can0  014   [5]  E9 A0 0E 0D 27
 (1652821898.896174)  can0  012   [8]  E8 03 10 00 00 00 00 00
 (1652821898.900674)  can0  1E5   [8]  1C 00 81 70 00 00 01 49
 (1652821898.904128)  can0  010   [4]  32 86 08 01
 (1652821898.904673)  can0  014   [5]  EC D0 0E 19 27
 (1652821898.906174)  can0  012   [8]  E8 03 10 00 00 00 00 00
 (1652821898.910674)  can0  1E5   [8]  1C 00 81 10 00 00 00 E9
 (1652821898.914672)  can0  014   [5]  EB C0 0E 07 27
 (1652821898.916174)  can0  012   [8]  E8 03 10 00 00 00 00 00
 (1652821898.920675)  can0  1E5   [8]  1C 00 81 30 00 00 01 09
 (1652821898.924675)  can0  014   [5]  EE F0 0E 14 27
 (1652821898.926174)  can0  012   [8]  E8 03 10 00 00 00 00 00
 (1652821898.930675)  can0  1E5   [8]  1C 00 81 50 00 00 01 29
 (1652821898.934664)  can0  014   [5]  EA D0 0E 0B 27
 (1652821898.936198)  can0  012   [8]  E8 03 10 00 00 00 00 00
 (1652821898.940698)  can0  1E5   [8]  1C 00 81 70 00 00 01 49
 (1652821898.944693)  can0  014   [5]  EE F0 0E 14 27
 (1652821898.946197)  can0  012   [8]  E8 03 10 00 00 00 00 00
 (1652821898.950676)  can0  1E5   [8]  1C 00 81 10 00 00 00 E9
 (1652821898.954675)  can0  014   [5]  F2 D0 0E 0D 27
 (1652821898.956177)  can0  012   [8]  E8 03 10 00 00 00 00 00
 (1652821898.960673)  can0  1E5   [8]  1C 00 81 30 00 00 01 09
 (1652821898.964673)  can0  014   [5]  EE D0 0E 12 27
 (1652821898.966175)  can0  012   [8]  E8 03 10 00 00 00 00 00
 (1652821898.970676)  can0  1E5   [8]  1C 00 7F 50 00 00 01 27
 (1652821898.974676)  can0  014   [5]  F1 A0 0E 10 27
 (1652821898.976175)  can0  012   [8]  E8 03 10 00 00 00 00 00
 (1652821898.980675)  can0  1E5   [8]  1C 00 81 70 00 00 01 49
 (1652821898.984677)  can0  014   [5]  F0 D0 0E 12 27
 (1652821898.986175)  can0  012   [8]  E8 03 10 00 00 00 00 00
 (1652821898.990678)  can0  1E5   [8]  1C 00 81 10 00 00 00 E9
 (1652821898.994630)  can0  014   [5]  F0 00 0F 0E 27
 (1652821898.996175)  can0  012   [8]  E8 03 10 00 00 00 00 00
 (1652821899.000675)  can0  1E5   [8]  1C 00 81 30 00 00 01 09
 (1652821899.004130)  can0  010   [4]  32 86 08 01
 (1652821899.004675)  can0  014   [5]  EF 20 0F 16 27
 (1652821899.006177)  can0  012   [8]  E8 03 10 00 00 00 00 00
 (1652821899.010677)  can0  1E5   [8]  1C 00 81 50 00 00 01 29
 (1652821899.014675)  can0  014   [5]  EF 20 0F 0C 27
 (1652821899.016176)  can0  012   [8]  E8 03 10 00 00 00 00 00
 (1652821899.020678)  can0  1E5   [8]  1C 00 81 70 00 00 01 49
 (1652821899.024677)  can0  014   [5]  E9 10 0F 0C 27
 (1652821899.026175)  can0  012   [8]  E8 03 10 00 00 00 00 00
 (1652821899.030678)  can0  1E5   [8]  1C 00 81 10 00 00 00 E9
 (1652821899.034679)  can0  014   [5]  F6 30 0F 13 27
 (1652821899.036177)  can0  012   [8]  E8 03 10 00 00 00 00 00
 (1652821899.040677)  can0  1E5   [8]  1C 00 7F 30 00 00 01 07
 (1652821899.044675)  can0  014   [5]  EE 30 0F 0F 27
 (1652821899.046176)  can0  012   [8]  E8 03 10 00 00 00 00 00
 (1652821899.050678)  can0  1E5   [8]  1C 00 81 50 00 00 01 29
 (1652821899.054678)  can0  014   [5]  F3 50 0F 10 27
 (1652821899.056177)  can0  012   [8]  E8 03 10 00 00 00 00 00
 (1652821899.060648)  can0  1E5   [8]  1C 00 81 70 00 00 01 49
 (1652821899.064674)  can0  014   [5]  F1 40 0F 0D 27
 (1652821899.066178)  can0  012   [8]  E8 03 10 00 00 00 00 00
 (1652821899.070678)  can0  1E5   [8]  1C 00 81 10 00 00 00 E9
 (1652821899.074677)  can0  014   [5]  F2 50 0F 14 27
 (1652821899.076178)  can0  012   [8]  E8 03 10 00 00 00 00 00
 (1652821899.080678)  can0  1E5   [8]  1C 00 81 30 00 00 01 09
 (1652821899.084679)  can0  014   [5]  F4 10 0F 10 27
 (1652821899.086178)  can0  012   [8]  E8 03 10 00 00 00 00 00
 (1652821899.090677)  can0  1E5   [8]  1C 00 81 50 00 00 01 29
 (1652821899.094679)  can0  014   [5]  F3 80 0F 0F 27
 (1652821899.096141)  can0  012   [8]  E8 03 10 00 00 00 00 00
 (1652821899.100678)  can0  1E5   [8]  1C 00 81 70 00 00 01 49
 (1652821899.104178)  can0  010   [4]  32 86 08 01
 (1652821899.104675)  can0  014   [5]  F5 80 0F 17 27
 (1652821899.106179)  can0  012   [8]  E8 03 10 00 00 00 00 00
 (1652821899.110679)  can0  1E5   [8]  1C 00 81 10 00 00 00 E9
 (1652821899.114676)  can0  014   [5]  F6 70 0F 0B 27
 (1652821899.116178)  can0  012   [8]  E8 03 10 00 00 00 00 00
 (1652821899.120679)  can0  1E5   [8]  1C 00 81 30 00 00 01 09
 (1652821899.124678)  can0  014   [5]  FB 70 0F 12 27
 (1652821899.126132)  can0  012   [8]  E8 03 10 00 00 00 00 00
 (1652821899.130677)  can0  1E5   [8]  1C 00 81 50 00 00 01 29
 (1652821899.134680)  can0  014   [5]  F7 50 0F 0C 27
 (1652821899.136178)  can0  012   [8]  E8 03 10 00 00 00 00 00
 (1652821899.140679)  can0  1E5   [8]  1C 00 81 70 00 00 01 49
 (1652821899.144679)  can0  014   [5]  FA 60 0F 0E 27
 (1652821899.146179)  can0  012   [8]  E8 03 10 00 00 00 00 00
 (1652821899.150679)  can0  1E5   [8]  1C 00 81 10 00 00 00 E9
 (1652821899.154679)  can0  014   [5]  F0 60 0F 11 27
 (1652821899.156179)  can0  012   [8]  E8 03 10 00 00 00 00 00
 (1652821899.160678)  can0  1E5   [8]  1C 00 81 30 00 00 01 09
 (1652821899.164677)  can0  014   [5]  FA B0 0F 11 27
 (1652821899.166179)  can0  012   [8]  E8 03 10 00 00 00 00 00
 (1652821899.170679)  can0  1E5   [8]  1C 00 81 50 00 00 01 29
 (1652821899.174679)  can0  014   [5]  F9 B0 0F 14 27
 (1652821899.176180)  can0  012   [8]  E8 03 10 00 00 00 00 00
 (1652821899.180680)  can0  1E5   [8]  1C 00 81 70 00 00 01 49
 (1652821899.184680)  can0  014   [5]  F9 80 0F 0E 27
 (1652821899.186179)  can0  012   [8]  E8 03 10 00 00 00 00 00
 (1652821899.190680)  can0  1E5   [8]  1C 00 81 10 00 00 00 E9
 (1652821899.194679)  can0  014   [5]  F8 20 0F 0C 27
 (1652821899.196179)  can0  012   [8]  E8 03 10 00 00 00 00 00
 (1652821899.200680)  can0  1E5   [8]  1C 00 81 30 00 00 01 09
 (1652821899.204180)  can0  010   [4]  32 86 08 01
 (1652821899.204678)  can0  014   [5]  FE 90 0F 1D 27
 (1652821899.206181)  can0  012   [8]  E8 03 10 00 00 00 00 00
 (1652821899.210681)  can0  1E5   [8]  1C 00 81 50 00 00 01 29
 (1652821899.214678)  can0  014   [5]  F4 80 0F 08 27
 (1652821899.216180)  can0  012   [8]  E8 03 10 00 00 00 00 00
 (1652821899.220680)  can0  1E5   [8]  1C 00 81 70 00 00 01 49
 (1652821899.224635)  can0  014   [5]  FE 90 0F 0E 27
 (1652821899.226180)  can0  012   [8]  E8 03 10 00 00 00 00 00
 (1652821899.230681)  can0  1E5   [8]  1C 00 81 10 00 00 00 E9
 (1652821899.234680)  can0  014   [5]  F4 B0 0F 0F 27
 (1652821899.236181)  can0  012   [8]  E8 03 10 00 00 00 00 00
 (1652821899.240682)  can0  1E5   [8]  1C 00 81 30 00 00 01 09
 (1652821899.244681)  can0  014   [5]  F9 D0 0F 12 27
 (1652821899.246182)  can0  012   [8]  E8 03 10 00 00 00 00 00
 (1652821899.250679)  can0  1E5   [8]  1C 00 81 50 00 00 01 29
 (1652821899.254679)  can0  014   [5]  FB E0 0F 0E 27
 (1652821899.256182)  can0  012   [8]  E8 03 10 00 00 00 00 00
 (1652821899.260678)  can0  1E5   [8]  1C 00 7F 70 00 00 01 47
 (1652821899.264679)  can0  014   [5]  F8 00 10 14 27
 (1652821899.266181)  can0  012   [8]  E8 03 10 00 00 00 00 00
 (1652821899.270682)  can0  1E5   [8]  1C 00 81 10 00 00 00 E9
 (1652821899.274681)  can0  014   [5]  FC E0 0F 0C 27
 (1652821899.276181)  can0  012   [8]  E8 03 10 00 00 00 00 00
 (1652821899.280681)  can0  1E5   [8]  1C 00 81 30 00 00 01 09
 (1652821899.284682)  can0  014   [5]  03 F1 0F 0F 27
 (1652821899.286183)  can0  012   [8]  E8 03 10 00 00 00 00 00
 (1652821899.290679)  can0  1E5   [8]  1C 00 81 50 00 00 01 29
 (1652821899.294681)  can0  014   [5]  FB E0 0F 12 27
 (1652821899.296204)  can0  012   [8]  E8 03 10 00 00 00 00 00
 (1652821899.300682)  can0  1E5   [8]  1C 00 7F 70 00 00 01 47
 (1652821899.304182)  can0  010   [4]  32 86 08 01
 (1652821899.304680)  can0  014   [5]  02 C1 0F 17 27
 (1652821899.306182)  can0  012   [8]  E8 03 10 00 00 00 00 00
 (1652821899.310681)  can0  1E5   [8]  1C 00 81 10 00 00 00 E9
 (1652821899.314679)  can0  014   [5]  F8 F0 0F 08 27
 (1652821899.316182)  can0  012   [8]  E8 03 10 00 00 00 00 00
 (1652821899.320683)  can0  1E5   [8]  1C 00 81 30 00 00 01 09
 (1652821899.324683)  can0  014   [5]  00 21 10 12 27
 (1652821899.326182)  can0  012   [8]  E8 03 10 00 00 00 00 00
 (1652821899.330682)  can0  1E5   [8]  1C 00 81 50 00 00 01 29
 (1652821899.334682)  can0  014   [5]  03 21 10 0F 27
 (1652821899.336183)  can0  012   [8]  E8 03 10 00 00 00 00 00
 (1652821899.340682)  can0  1E5   [8]  1C 00 81 70 00 00 01 49
 (1652821899.344682)  can0  014   [5]  FC 00 10 13 27
 (1652821899.346183)  can0  012   [8]  E8 03 10 00 00 00 00 00
 (1652821899.350683)  can0  1E5   [8]  1C 00 81 10 00 00 00 E9
 (1652821899.354705)  can0  014   [5]  03 F1 0F 0F 27
 (1652821899.356170)  can0  012   [8]  E8 03 10 00 00 00 00 00
 (1652821899.360703)  can0  1E5   [8]  1C 00 81 30 00 00 01 09
 (1652821899.364683)  can0  014   [5]  FD 00 10 0B 27
 (1652821899.366184)  can0  012   [8]  E8 03 10 00 00 00 00 00
 (1652821899.370684)  can0  1E5   [8]  1C 00 81 50 00 00 01 29
 (1652821899.374682)  can0  014   [5]  02 11 10 14 27
 (1652821899.376184)  can0  012   [8]  E8 03 10 00 00 00 00 00
 (1652821899.380685)  can0  1E5   [8]  1C 00 81 70 00 00 01 49
 (1652821899.384683)  can0  014   [5]  01 11 10 11 27
 (1652821899.386183)  can0  012   [8]  E8 03 10 00 00 00 00 00
 (1652821899.390683)  can0  1E5   [8]  1C 00 81 10 00 00 00 E9
 (1652821899.394683)  can0  014   [5]  03 11 10 10 27
 (1652821899.396184)  can0  012   [8]  E8 03 10 00 00 00 00 00
 (1652821899.400686)  can0  1E5   [8]  1C 00 81 30 00 00 01 09
 (1652821899.404184)  can0  010   [4]  32 86 08 01
 (1652821899.404682)  can0  014   [5]  01 D1 0F 15 27
 (1652821899.406184)  can0  012   [8]  E8 03 10 00 00 00 00 00
 (1652821899.410684)  can0  1E5   [8]  1C 00 81 50 00 00 01 29
 (1652821899.414682)  can0  014   [5]  FE 40 10 08 27
 (1652821899.416153)  can0  012   [8]  E8 03 10 00 00 00 00 00
 (1652821899.420684)  can0  1E5   [8]  1C 00 81 70 00 00 01 49
 (1652821899.424684)  can0  014   [5]  0C 41 10 12 27
 (1652821899.426184)  can0  012   [8]  E8 03 10 00 00 00 00 00
 (1652821899.430686)  can0  1E5   [8]  1C 00 81 10 00 00 00 E9
 (1652821899.434685)  can0  014   [5]  07 31 10 10 27
 (1652821899.436184)  can0  012   [8]  E8 03 10 00 00 00 00 00
 (1652821899.440686)  can0  1E5   [8]  1C 00 81 30 00 00 01 09
 (1652821899.444686)  can0  014   [5]  FC 40 10 11 27
 (1652821899.446185)  can0  012   [8]  E8 03 10 00 00 00 00 00
 (1652821899.450687)  can0  1E5   [8]  1C 00 7F 50 00 00 01 27
 (1652821899.454686)  can0  014   [5]  04 51 10 0D 27
 (1652821899.456184)  can0  012   [8]  E8 03 10 00 00 00 00 00
 (1652821899.460685)  can0  1E5   [8]  1C 00 81 70 00 00 01 49
 (1652821899.464685)  can0  014   [5]  05 51 10 12 27
 (1652821899.466163)  can0  012   [8]  E8 03 10 00 00 00 00 00
 (1652821899.470684)  can0  1E5   [8]  1C 00 81 10 00 00 00 E9
 (1652821899.474686)  can0  014   [5]  01 81 10 14 27
 (1652821899.476187)  can0  012   [8]  E8 03 10 00 00 00 00 00
 (1652821899.480684)  can0  1E5   [8]  1C 00 81 30 00 00 01 09
 (1652821899.484686)  can0  014   [5]  07 91 10 0A 27
 (1652821899.486187)  can0  012   [8]  E8 03 10 00 00 00 00 00
 (1652821899.490684)  can0  1E5   [8]  1C 00 81 50 00 00 01 29
 (1652821899.494686)  can0  014   [5]  01 91 10 12 27
 (1652821899.496186)  can0  012   [8]  E8 03 10 00 00 00 00 00
 (1652821899.500684)  can0  1E5   [8]  1C 00 81 70 00 00 01 49
 (1652821899.504140)  can0  010   [4]  32 86 08 01
 (1652821899.504683)  can0  014   [5]  0A 31 10 14 27
 (1652821899.506151)  can0  012   [8]  E8 03 10 00 00 00 00 00
 (1652821899.510684)  can0  1E5   [8]  1C 00 81 10 00 00 00 E9
 (1652821899.514684)  can0  014   [5]  06 71 10 0B 27
 (1652821899.516186)  can0  012   [8]  E8 03 10 00 00 00 00 00
 (1652821899.520641)  can0  1E5   [8]  1C 00 81 30 00 00 01 09
 (1652821899.524687)  can0  014   [5]  07 81 10 0F 27
 (1652821899.526187)  can0  012   [8]  E8 03 10 00 00 00 00 00
 (1652821899.530687)  can0  1E5   [8]  1C 00 81 50 00 00 01 29
 (1652821899.534686)  can0  014   [5]  0A 91 10 14 27
 (1652821899.536187)  can0  012   [8]  E8 03 10 00 00 00 00 00
 (1652821899.540688)  can0  1E5   [8]  1C 00 81 70 00 00 01 49
 (1652821899.544687)  can0  014   [5]  08 91 10 0F 27
 (1652821899.546187)  can0  012   [8]  E8 03 10 00 00 00 00 00
 (1652821899.550689)  can0  1E5   [8]  1C 00 81 10 00 00 00 E9
 (1652821899.554687)  can0  014   [5]  03 91 10 0F 27
 (1652821899.556188)  can0  012   [8]  E8 03 10 00 00 00 00 00
 (1652821899.560685)  can0  1E5   [8]  1C 00 81 30 00 00 01 09
 (1652821899.564685)  can0  014   [5]  08 91 10 0F 27
 (1652821899.566166)  can0  012   [8]  E8 03 10 00 00 00 00 00
 (1652821899.570687)  can0  1E5   [8]  1C 00 81 50 00 00 01 29
 (1652821899.574688)  can0  014   [5]  08 A1 10 0F 27
 (1652821899.576188)  can0  012   [8]  E8 03 10 00 00 00 00 00
 (1652821899.580686)  can0  1E5   [8]  1C 00 81 70 00 00 01 49
 (1652821899.584688)  can0  014   [5]  0F A1 10 13 27
 (1652821899.586188)  can0  012   [8]  E8 03 10 00 00 00 00 00
 (1652821899.590690)  can0  1E5   [8]  1C 00 81 10 00 00 00 E9
 (1652821899.594689)  can0  014   [5]  08 91 10 0A 27
 (1652821899.596190)  can0  012   [8]  E8 03 10 00 00 00 00 00
 (1652821899.600688)  can0  1E5   [8]  1C 00 81 30 00 00 01 09
 (1652821899.604063)  can0  010   [4]  32 86 08 01
 (1652821899.604686)  can0  014   [5]  0E 61 10 1E 27
 (1652821899.606188)  can0  012   [8]  E8 03 10 00 00 00 00 00
 (1652821899.610690)  can0  1E5   [8]  1C 00 81 50 00 00 01 29
 (1652821899.614686)  can0  014   [5]  0A 71 10 05 27
 (1652821899.616188)  can0  012   [8]  E8 03 10 00 00 00 00 00
 (1652821899.620689)  can0  1E5   [8]  1C 00 81 70 00 00 01 49
 (1652821899.624689)  can0  014   [5]  0A B1 10 14 27
 (1652821899.626188)  can0  012   [8]  E8 03 10 00 00 00 00 00
 (1652821899.630689)  can0  1E5   [8]  1C 00 81 10 00 00 00 E9
 (1652821899.634689)  can0  014   [5]  0B C1 10 0C 27
 (1652821899.636189)  can0  012   [8]  E8 03 10 00 00 00 00 00
 (1652821899.640690)  can0  1E5   [8]  1C 00 81 30 00 00 01 09
 (1652821899.644689)  can0  014   [5]  06 E1 10 10 27
 (1652821899.646189)  can0  012   [8]  E8 03 10 00 00 00 00 00
 (1652821899.650689)  can0  1E5   [8]  1C 00 81 50 00 00 01 29
 (1652821899.654690)  can0  014   [5]  09 B1 10 11 27
 (1652821899.656191)  can0  012   [8]  E8 03 10 00 00 00 00 00
 (1652821899.660687)  can0  1E5   [8]  1C 00 81 70 00 00 01 49
 (1652821899.664688)  can0  014   [5]  0F E1 10 11 27
 (1652821899.666189)  can0  012   [8]  E8 03 10 00 00 00 00 00
 (1652821899.670689)  can0  1E5   [8]  1C 00 81 10 00 00 00 E9
 (1652821899.674690)  can0  014   [5]  09 D1 10 0F 27
 (1652821899.676191)  can0  012   [8]  E8 03 10 00 00 00 00 00
 (1652821899.680690)  can0  1E5   [8]  1C 00 81 30 00 00 01 09
 (1652821899.684660)  can0  014   [5]  0C D1 10 0F 27
 (1652821899.686190)  can0  012   [8]  E8 03 10 00 00 00 00 00
 (1652821899.690690)  can0  1E5   [8]  1C 00 81 50 00 00 01 29
 (1652821899.694690)  can0  014   [5]  0F F1 10 15 27
 (1652821899.696190)  can0  012   [8]  E8 03 10 00 00 00 00 00
 (1652821899.700690)  can0  1E5   [8]  1C 00 81 70 00 00 01 49
 (1652821899.704066)  can0  010   [4]  32 86 08 01
 (1652821899.704689)  can0  014   [5]  08 D1 10 13 27
 (1652821899.706189)  can0  012   [8]  E8 03 10 00 00 00 00 00
 (1652821899.710690)  can0  1E5   [8]  1C 00 81 10 00 00 00 E9
 (1652821899.714687)  can0  014   [5]  0E E1 10 0A 27
 (1652821899.716191)  can0  012   [8]  E8 03 10 00 00 00 00 00
 (1652821899.720691)  can0  1E5   [8]  1C 00 81 30 00 00 01 09
 (1652821899.724691)  can0  014   [5]  11 11 11 10 27
 (1652821899.726191)  can0  012   [8]  E8 03 10 00 00 00 00 00
 (1652821899.726194)  can0  0E3   [2]  4A 01
 (1652821899.730690)  can0  1E5   [8]  1C 00 81 50 00 00 01 29
 (1652821899.734689)  can0  014   [5]  0C 01 11 14 27
 (1652821899.736191)  can0  012   [8]  E8 03 10 00 00 00 00 00
 (1652821899.740691)  can0  1E5   [8]  1C 00 7F 70 00 00 01 47
 (1652821899.744693)  can0  014   [5]  11 F1 10 0A 27
 (1652821899.746191)  can0  012   [8]  E8 03 10 00 00 00 00 00
 (1652821899.750645)  can0  1E5   [8]  1C 00 81 10 00 00 00 E9
 (1652821899.754690)  can0  014   [5]  0E F1 10 14 27
 (1652821899.756192)  can0  012   [8]  E8 03 10 00 00 00 00 00
 (1652821899.760689)  can0  1E5   [8]  1C 00 81 30 00 00 01 09
 (1652821899.764689)  can0  014   [5]  15 F1 10 0B 27
 (1652821899.766191)  can0  012   [8]  E8 03 10 00 00 00 00 00
 (1652821899.770691)  can0  1E5   [8]  1C 00 81 50 00 00 01 29
 (1652821899.774693)  can0  014   [5]  0C 11 11 13 27
 (1652821899.776191)  can0  012   [8]  E8 03 10 00 00 00 00 00
 (1652821899.780692)  can0  1E5   [8]  1C 00 81 70 00 00 01 49
 (1652821899.784693)  can0  014   [5]  11 31 11 0D 27
 (1652821899.786192)  can0  012   [8]  E8 03 10 00 00 00 00 00
 (1652821899.790692)  can0  1E5   [8]  1C 00 81 10 00 00 00 E9
 (1652821899.794692)  can0  014   [5]  11 11 11 12 27
 (1652821899.796191)  can0  012   [8]  E8 03 10 00 00 00 00 00
 (1652821899.800711)  can0  1E5   [8]  1C 00 81 30 00 00 01 09
 (1652821899.804089)  can0  010   [4]  32 86 08 01
 (1652821899.804264)  can0  0E2   [2]  C2 01
 (1652821899.804710)  can0  014   [5]  11 A1 10 1A 27
 (1652821899.804770)  can0  0E4   [2]  C2 01
 (1652821899.806215)  can0  012   [8]  E8 03 10 00 00 00 00 00
 (1652821899.810715)  can0  1E5   [8]  1C 00 81 50 00 00 01 29
 (1652821899.814689)  can0  014   [5]  11 01 11 04 27
 (1652821899.816147)  can0  012   [8]  E8 03 10 00 00 00 00 00
 (1652821899.820692)  can0  1E5   [8]  1C 00 81 70 00 00 01 49
 (1652821899.824694)  can0  014   [5]  12 01 11 0F 27
 (1652821899.826192)  can0  012   [8]  E8 03 10 00 00 00 00 00
 (1652821899.830693)  can0  1E5   [8]  1C 00 81 10 00 00 00 E9
 (1652821899.834693)  can0  014   [5]  10 11 11 12 27
 (1652821899.836192)  can0  012   [8]  E8 03 10 00 00 00 00 00
 (1652821899.840691)  can0  1E5   [8]  1C 00 81 30 00 00 01 09
 (1652821899.844693)  can0  014   [5]  0E 31 11 10 27
 (1652821899.846193)  can0  012   [8]  E8 03 10 00 00 00 00 00
 (1652821899.850693)  can0  1E5   [8]  1C 00 81 50 00 00 01 29
 (1652821899.854694)  can0  014   [5]  11 41 11 0F 27
 (1652821899.856194)  can0  012   [8]  E8 03 10 00 00 00 00 00
 (1652821899.860692)  can0  1E5   [8]  1C 00 81 70 00 00 01 49
 (1652821899.864691)  can0  014   [5]  16 51 11 12 27
 (1652821899.866169)  can0  012   [8]  E8 03 10 00 00 00 00 00
 (1652821899.870693)  can0  1E5   [8]  1C 00 7F 10 00 00 00 E7
 (1652821899.874694)  can0  014   [5]  0D 71 11 10 27
 (1652821899.876193)  can0  012   [8]  E8 03 10 00 00 00 00 00
 (1652821899.880693)  can0  1E5   [8]  1C 00 81 30 00 00 01 09
 (1652821899.884695)  can0  014   [5]  15 51 11 11 27
 (1652821899.886193)  can0  012   [8]  E8 03 10 00 00 00 00 00
 (1652821899.890696)  can0  1E5   [8]  1C 00 81 50 00 00 01 29
 (1652821899.894695)  can0  014   [5]  13 41 11 11 27
 (1652821899.896194)  can0  012   [8]  E8 03 10 00 00 00 00 00
 (1652821899.900695)  can0  1E5   [8]  1C 00 81 70 00 00 01 49
 (1652821899.904069)  can0  010   [4]  32 86 08 01
 (1652821899.904692)  can0  014   [5]  18 11 11 14 27
 (1652821899.906194)  can0  012   [8]  E8 03 10 00 00 00 00 00
 (1652821899.910695)  can0  1E5   [8]  1C 00 81 10 00 00 00 E9
 (1652821899.914648)  can0  014   [5]  10 61 11 0D 27
 (1652821899.916196)  can0  012   [8]  E8 03 10 00 00 00 00 00
 (1652821899.920695)  can0  1E5   [8]  1C 00 81 30 00 00 01 09
 (1652821899.924694)  can0  014   [5]  11 71 11 0D 27
 (1652821899.926195)  can0  012   [8]  E8 03 10 00 00 00 00 00
 (1652821899.930695)  can0  1E5   [8]  1C 00 81 50 00 00 01 29
 (1652821899.934692)  can0  014   [5]  18 81 11 10 27
 (1652821899.936160)  can0  012   [8]  E8 03 10 00 00 00 00 00
 (1652821899.940713)  can0  1E5   [8]  1C 00 81 70 00 00 01 49
 (1652821899.944714)  can0  014   [5]  19 61 11 0F 27
 (1652821899.946156)  can0  012   [8]  E8 03 10 00 00 00 00 00
 (1652821899.950693)  can0  1E5   [8]  1C 00 81 10 00 00 00 E9
 (1652821899.954694)  can0  014   [5]  15 51 11 13 27
 (1652821899.956138)  can0  012   [8]  E8 03 10 00 00 00 00 00
 (1652821899.960693)  can0  1E5   [8]  1C 00 81 30 00 00 01 09
 (1652821899.964693)  can0  014   [5]  13 61 11 0E 27
 (1652821899.966170)  can0  012   [8]  E8 03 10 00 00 00 00 00
 (1652821899.970696)  can0  1E5   [8]  1C 00 81 50 00 00 01 29
 (1652821899.974695)  can0  014   [5]  14 71 11 14 27
 (1652821899.976196)  can0  012   [8]  E8 03 10 00 00 00 00 00
 (1652821899.980650)  can0  1E5   [8]  1C 00 81 70 00 00 01 49
 (1652821899.984696)  can0  014   [5]  18 51 11 0B 27
 (1652821899.986197)  can0  012   [8]  E8 03 10 00 00 00 00 00
 (1652821899.990696)  can0  1E5   [8]  1C 00 81 10 00 00 00 E9
 (1652821899.994694)  can0  014   [5]  14 61 11 13 27
 (1652821899.996197)  can0  012   [8]  E8 03 10 00 00 00 00 00
 (1652821900.000695)  can0  1E5   [8]  1C 00 81 30 00 00 01 09
 (1652821900.004071)  can0  010   [4]  32 86 08 01
 (1652821900.004694)  can0  014   [5]  19 41 11 11 27
 (1652821900.006196)  can0  012   [8]  E8 03 10 00 00 00 00 00
 (1652821900.010696)  can0  1E5   [8]  1C 00 81 50 00 00 01 29
 (1652821900.014693)  can0  014   [5]  1B 81 11 0C 27
 (1652821900.016197)  can0  012   [8]  E8 03 10 00 00 00 00 00
 (1652821900.020697)  can0  1E5   [8]  1C 00 81 70 00 00 01 49
 (1652821900.024697)  can0  014   [5]  1A 71 11 11 27
 (1652821900.026197)  can0  012   [8]  E8 03 10 00 00 00 00 00
 (1652821900.030697)  can0  1E5   [8]  1C 00 81 10 00 00 00 E9
 (1652821900.034697)  can0  014   [5]  13 81 11 11 27
 (1652821900.036198)  can0  012   [8]  E8 03 10 00 00 00 00 00
 (1652821900.040715)  can0  1E5   [8]  1C 00 81 30 00 00 01 09
 (1652821900.044715)  can0  014   [5]  16 81 11 12 27
 (1652821900.046159)  can0  012   [8]  E8 03 10 00 00 00 00 00
 (1652821900.050696)  can0  1E5   [8]  1C 00 81 50 00 00 01 29
 (1652821900.054698)  can0  014   [5]  18 91 11 0E 27
 (1652821900.056151)  can0  012   [8]  E8 03 10 00 00 00 00 00
 (1652821900.060652)  can0  1E5   [8]  1C 00 81 70 00 00 01 49
 (1652821900.064696)  can0  014   [5]  15 B1 11 0D 27
 (1652821900.066173)  can0  012   [8]  E8 03 10 00 00 00 00 00
 (1652821900.070698)  can0  1E5   [8]  1C 00 81 10 00 00 00 E9
 (1652821900.074697)  can0  014   [5]  1B D1 11 13 27
 (1652821900.076197)  can0  012   [8]  E8 03 10 00 00 00 00 00
 (1652821900.080697)  can0  1E5   [8]  1C 00 81 30 00 00 01 09
 (1652821900.084697)  can0  014   [5]  1A D1 11 10 27
 (1652821900.086198)  can0  012   [8]  E8 03 10 00 00 00 00 00
 (1652821900.090699)  can0  1E5   [8]  1C 00 81 50 00 00 01 29
 (1652821900.094698)  can0  014   [5]  18 41 11 0E 27
 (1652821900.096153)  can0  012   [8]  E8 03 10 00 00 00 00 00
 (1652821900.100698)  can0  1E5   [8]  1C 00 81 70 00 00 01 49
 (1652821900.104073)  can0  010   [4]  32 86 08 01
 (1652821900.104696)  can0  014   [5]  19 C1 11 18 27
 (1652821900.106199)  can0  012   [8]  E8 03 10 00 00 00 00 00
 (1652821900.110700)  can0  1E5   [8]  1C 00 81 10 00 00 00 E9
 (1652821900.114696)  can0  014   [5]  19 B1 11 09 27
 (1652821900.116199)  can0  012   [8]  E8 03 10 00 00 00 00 00
 (1652821900.120697)  can0  1E5   [8]  1C 00 81 30 00 00 01 09
 (1652821900.124698)  can0  014   [5]  1B B1 11 0F 27
 (1652821900.126198)  can0  012   [8]  E8 03 10 00 00 00 00 00
 (1652821900.130698)  can0  1E5   [8]  1C 00 81 50 00 00 01 29
 (1652821900.134699)  can0  014   [5]  19 C1 11 14 27
 (1652821900.136200)  can0  012   [8]  E8 03 10 00 00 00 00 00
 (1652821900.140699)  can0  1E5   [8]  1C 00 81 70 00 00 01 49
 (1652821900.144698)  can0  014   [5]  1C B1 11 0B 27
 (1652821900.146198)  can0  012   [8]  E8 03 10 00 00 00 00 00
 (1652821900.150699)  can0  1E5   [8]  1C 00 81 10 00 00 00 E9
 (1652821900.154700)  can0  014   [5]  17 D1 11 16 27
 (1652821900.156198)  can0  012   [8]  E8 03 10 00 00 00 00 00
 (1652821900.160699)  can0  1E5   [8]  1C 00 81 30 00 00 01 09
 (1652821900.164697)  can0  014   [5]  21 E1 11 0E 27
 (1652821900.166172)  can0  012   [8]  E8 03 10 00 00 00 00 00
 (1652821900.170700)  can0  1E5   [8]  1C 00 81 50 00 00 01 29
 (1652821900.174698)  can0  014   [5]  1C A1 11 0B 27
 (1652821900.176154)  can0  012   [8]  E8 03 10 00 00 00 00 00
 (1652821900.180700)  can0  1E5   [8]  1C 00 81 70 00 00 01 49
 (1652821900.184698)  can0  014   [5]  1B B1 11 13 27
 (1652821900.186200)  can0  012   [8]  E8 03 10 00 00 00 00 00
 (1652821900.190700)  can0  1E5   [8]  1C 00 81 10 00 00 00 E9
 (1652821900.194654)  can0  014   [5]  1E 81 11 12 27
 (1652821900.196200)  can0  012   [8]  E8 03 10 00 00 00 00 00
 (1652821900.200701)  can0  1E5   [8]  1C 00 81 30 00 00 01 09
 (1652821900.204075)  can0  010   [4]  32 86 08 01
 (1652821900.204698)  can0  014   [5]  1D C1 11 16 27
 (1652821900.206201)  can0  012   [8]  E8 03 10 00 00 00 00 00
 (1652821900.210701)  can0  1E5   [8]  1C 00 81 50 00 00 01 29
 (1652821900.214698)  can0  014   [5]  21 E1 11 0A 27
 (1652821900.216201)  can0  012   [8]  E8 03 10 00 00 00 00 00
 (1652821900.220701)  can0  1E5   [8]  1C 00 81 70 00 00 01 49
 (1652821900.224701)  can0  014   [5]  18 F1 11 0E 27
 (1652821900.226201)  can0  012   [8]  E8 03 10 00 00 00 00 00
 (1652821900.230701)  can0  1E5   [8]  1C 00 81 10 00 00 00 E9
 (1652821900.234701)  can0  014   [5]  1C F1 11 16 27
 (1652821900.236200)  can0  012   [8]  E8 03 10 00 00 00 00 00
 (1652821900.240701)  can0  1E5   [8]  1C 00 81 30 00 00 01 09
 (1652821900.244701)  can0  014   [5]  20 E1 11 09 27
 (1652821900.246201)  can0  012   [8]  E8 03 10 00 00 00 00 00
 (1652821900.250699)  can0  1E5   [8]  1C 00 81 50 00 00 01 29
 (1652821900.254700)  can0  014   [5]  19 11 12 17 27
 (1652821900.256201)  can0  012   [8]  E8 03 10 00 00 00 00 00
 (1652821900.260699)  can0  1E5   [8]  1C 00 81 70 00 00 01 49
 (1652821900.264700)  can0  014   [5]  1C E1 11 0C 27
 (1652821900.266180)  can0  012   [8]  E8 03 10 00 00 00 00 00
 (1652821900.270702)  can0  1E5   [8]  1C 00 81 10 00 00 00 E9
 (1652821900.274702)  can0  014   [5]  20 01 12 11 27
 (1652821900.276201)  can0  012   [8]  E8 03 10 00 00 00 00 00
 (1652821900.280703)  can0  1E5   [8]  1C 00 81 30 00 00 01 09
 (1652821900.284702)  can0  014   [5]  1B B1 11 0C 27
 (1652821900.286202)  can0  012   [8]  E8 03 10 00 00 00 00 00
 (1652821900.290701)  can0  1E5   [8]  1C 00 81 50 00 00 01 29
 (1652821900.294702)  can0  014   [5]  20 41 12 11 27
 (1652821900.296202)  can0  012   [8]  E8 03 10 00 00 00 00 00
 (1652821900.300703)  can0  1E5   [8]  1C 00 81 70 00 00 01 49
 (1652821900.304077)  can0  010   [4]  32 86 08 01
 (1652821900.304700)  can0  014   [5]  22 21 12 16 27
 (1652821900.306209)  can0  012   [8]  E8 03 10 00 00 00 00 00
 (1652821900.310702)  can0  1E5   [8]  1C 00 81 10 00 00 00 E9
 (1652821900.314700)  can0  014   [5]  20 11 12 0D 27
 (1652821900.316202)  can0  012   [8]  E8 03 10 00 00 00 00 00
 (1652821900.320703)  can0  1E5   [8]  1C 00 81 30 00 00 01 09
 (1652821900.324705)  can0  014   [5]  24 01 12 0F 27
 (1652821900.326179)  can0  012   [8]  E8 03 10 00 00 00 00 00
